freq,s11_real,s11_imag,s21_real,s21_imag,s22_real,s22_imag,a,b,a2_1,a2_2,a2_3,a2_4,a2_5,a2_6,a2_7,a2_8,a2_9,a2_10,a2_11,a2_12,a2_13,a2_14,a2_15,l_1,l_2,l_3,l_4,l_5,l_6,l_7,l_8,l_9,l_10,l_11,l_12,l_13,l_14,l_15,order
14.85117057,0.18287678,0.9831357,0.00052106056,-9.6924438e-05,0.18287678,0.9831357,15.799,7.899,7.969948286067604,5.430937344094692,4.849561819175503,4.72866100055854,0.0,0.0,0.0,0.0,0.0,0.0,0.0,0.0,0.0,0.0,0.0,8.982369272960364,10.261944006292127,10.490348562788956,10.525473765048812,0.0,0.0,0.0,0.0,0.0,0.0,0.0,0.0,0.0,0.0,0.0,7
14.86287625,0.19741669,0.9803195,0.00056881005,-0.00011454694,0.19741669,0.9803195,15.799,7.899,7.969948286067604,5.430937344094692,4.849561819175503,4.72866100055854,0.0,0.0,0.0,0.0,0.0,0.0,0.0,0.0,0.0,0.0,0.0,8.982369272960364,10.261944006292127,10.490348562788956,10.525473765048812,0.0,0.0,0.0,0.0,0.0,0.0,0.0,0.0,0.0,0.0,0.0,7
14.87458194,0.21226458,0.97721203,0.00062140285,-0.00013497768,0.21226458,0.97721203,15.799,7.899,7.969948286067604,5.430937344094692,4.849561819175503,4.72866100055854,0.0,0.0,0.0,0.0,0.0,0.0,0.0,0.0,0.0,0.0,0.0,8.982369272960364,10.261944006292127,10.490348562788956,10.525473765048812,0.0,0.0,0.0,0.0,0.0,0.0,0.0,0.0,0.0,0.0,0.0,7
14.88628763,0.22742894,0.97379443,0.00067937527,-0.00015866757,0.22742894,0.97379443,15.799,7.899,7.969948286067604,5.430937344094692,4.849561819175503,4.72866100055854,0.0,0.0,0.0,0.0,0.0,0.0,0.0,0.0,0.0,0.0,0.0,8.982369272960364,10.261944006292127,10.490348562788956,10.525473765048812,0.0,0.0,0.0,0.0,0.0,0.0,0.0,0.0,0.0,0.0,0.0,7
14.89799331,0.24291839,0.97004643,0.00074332731,-0.00018614354,0.24291839,0.97004643,15.799,7.899,7.969948286067604,5.430937344094692,4.849561819175503,4.72866100055854,0.0,0.0,0.0,0.0,0.0,0.0,0.0,0.0,0.0,0.0,0.0,8.982369272960364,10.261944006292127,10.490348562788956,10.525473765048812,0.0,0.0,0.0,0.0,0.0,0.0,0.0,0.0,0.0,0.0,0.0,7
14.909699,0.25874172,0.96594617,0.00081393046,-0.00021802226,0.25874172,0.96594617,15.799,7.899,7.969948286067604,5.430937344094692,4.849561819175503,4.72866100055854,0.0,0.0,0.0,0.0,0.0,0.0,0.0,0.0,0.0,0.0,0.0,8.982369272960364,10.261944006292127,10.490348562788956,10.525473765048812,0.0,0.0,0.0,0.0,0.0,0.0,0.0,0.0,0.0,0.0,0.0,7
14.92140468,0.2749078,0.96147014,0.00089193661,-0.00025502647,0.2749078,0.96147014,15.799,7.899,7.969948286067604,5.430937344094692,4.849561819175503,4.72866100055854,0.0,0.0,0.0,0.0,0.0,0.0,0.0,0.0,0.0,0.0,0.0,8.982369272960364,10.261944006292127,10.490348562788956,10.525473765048812,0.0,0.0,0.0,0.0,0.0,0.0,0.0,0.0,0.0,0.0,0.0,7
14.93311037,0.29142561,0.95659295,0.00097818784,-0.00029800449,0.29142561,0.95659295,15.799,7.899,7.969948286067604,5.430937344094692,4.849561819175503,4.72866100055854,0.0,0.0,0.0,0.0,0.0,0.0,0.0,0.0,0.0,0.0,0.0,8.982369272960364,10.261944006292127,10.490348562788956,10.525473765048812,0.0,0.0,0.0,0.0,0.0,0.0,0.0,0.0,0.0,0.0,0.0,7
14.94481605,0.30830416,0.95128716,0.0010736275,-0.00034795364,0.30830416,0.95128716,15.799,7.899,7.969948286067604,5.430937344094692,4.849561819175503,4.72866100055854,0.0,0.0,0.0,0.0,0.0,0.0,0.0,0.0,0.0,0.0,0.0,8.982369272960364,10.261944006292127,10.490348562788956,10.525473765048812,0.0,0.0,0.0,0.0,0.0,0.0,0.0,0.0,0.0,0.0,0.0,7
14.95652174,0.32555247,0.94552315,0.0011793125,-0.00040604833,0.32555247,0.94552315,15.799,7.899,7.969948286067604,5.430937344094692,4.849561819175503,4.72866100055854,0.0,0.0,0.0,0.0,0.0,0.0,0.0,0.0,0.0,0.0,0.0,8.982369272960364,10.261944006292127,10.490348562788956,10.525473765048812,0.0,0.0,0.0,0.0,0.0,0.0,0.0,0.0,0.0,0.0,0.0,7
14.96822742,0.34317947,0.93926884,0.0012964268,-0.00047367384,0.34317947,0.93926884,15.799,7.899,7.969948286067604,5.430937344094692,4.849561819175503,4.72866100055854,0.0,0.0,0.0,0.0,0.0,0.0,0.0,0.0,0.0,0.0,0.0,8.982369272960364,10.261944006292127,10.490348562788956,10.525473765048812,0.0,0.0,0.0,0.0,0.0,0.0,0.0,0.0,0.0,0.0,0.0,7
14.97993311,0.361194,0.93248944,0.0014262965,-0.00055246709,0.361194,0.93248944,15.799,7.899,7.969948286067604,5.430937344094692,4.849561819175503,4.72866100055854,0.0,0.0,0.0,0.0,0.0,0.0,0.0,0.0,0.0,0.0,0.0,8.982369272960364,10.261944006292127,10.490348562788956,10.525473765048812,0.0,0.0,0.0,0.0,0.0,0.0,0.0,0.0,0.0,0.0,0.0,7
14.9916388,0.37960467,0.92514724,0.0015704058,-0.00064436594,0.37960467,0.92514724,15.799,7.899,7.969948286067604,5.430937344094692,4.849561819175503,4.72866100055854,0.0,0.0,0.0,0.0,0.0,0.0,0.0,0.0,0.0,0.0,0.0,8.982369272960364,10.261944006292127,10.490348562788956,10.525473765048812,0.0,0.0,0.0,0.0,0.0,0.0,0.0,0.0,0.0,0.0,0.0,7
15.55351171,0.042435535,-0.046984559,0.74063057,0.66892304,0.042435535,-0.046984559,15.799,7.899,7.969948286067604,5.430937344094692,4.849561819175503,4.72866100055854,0.0,0.0,0.0,0.0,0.0,0.0,0.0,0.0,0.0,0.0,0.0,8.982369272960364,10.261944006292127,10.490348562788956,10.525473765048812,0.0,0.0,0.0,0.0,0.0,0.0,0.0,0.0,0.0,0.0,0.0,7
15.56521739,0.026454643,-0.042225252,0.84636914,0.53026075,0.026454643,-0.042225252,15.799,7.899,7.969948286067604,5.430937344094692,4.849561819175503,4.72866100055854,0.0,0.0,0.0,0.0,0.0,0.0,0.0,0.0,0.0,0.0,0.0,8.982369272960364,10.261944006292127,10.490348562788956,10.525473765048812,0.0,0.0,0.0,0.0,0.0,0.0,0.0,0.0,0.0,0.0,0.0,7
15.57692308,0.012462524,-0.030311248,0.92438072,0.38006078,0.012462524,-0.030311248,15.799,7.899,7.969948286067604,5.430937344094692,4.849561819175503,4.72866100055854,0.0,0.0,0.0,0.0,0.0,0.0,0.0,0.0,0.0,0.0,0.0,8.982369272960364,10.261944006292127,10.490348562788956,10.525473765048812,0.0,0.0,0.0,0.0,0.0,0.0,0.0,0.0,0.0,0.0,0.0,7
15.58862876,0.0031872429,-0.013911792,0.9746464,0.22329509,0.0031872429,-0.013911792,15.799,7.899,7.969948286067604,5.430937344094692,4.849561819175503,4.72866100055854,0.0,0.0,0.0,0.0,0.0,0.0,0.0,0.0,0.0,0.0,0.0,8.982369272960364,10.261944006292127,10.490348562788956,10.525473765048812,0.0,0.0,0.0,0.0,0.0,0.0,0.0,0.0,0.0,0.0,0.0,7
15.60033445,-0.00025990107,0.004009888,0.99789804,0.064678806,-0.00025990107,0.004009888,15.799,7.899,7.969948286067604,5.430937344094692,4.849561819175503,4.72866100055854,0.0,0.0,0.0,0.0,0.0,0.0,0.0,0.0,0.0,0.0,0.0,8.982369272960364,10.261944006292127,10.490348562788956,10.525473765048812,0.0,0.0,0.0,0.0,0.0,0.0,0.0,0.0,0.0,0.0,0.0,7
15.61204013,0.0019096651,0.020770126,0.99558323,-0.091536785,0.0019096651,0.020770126,15.799,7.899,7.969948286067604,5.430937344094692,4.849561819175503,4.72866100055854,0.0,0.0,0.0,0.0,0.0,0.0,0.0,0.0,0.0,0.0,0.0,8.982369272960364,10.261944006292127,10.490348562788956,10.525473765048812,0.0,0.0,0.0,0.0,0.0,0.0,0.0,0.0,0.0,0.0,0.0,7
15.62374582,0.0085551998,0.034321381,0.96970235,-0.24171514,0.0085551998,0.034321381,15.799,7.899,7.969948286067604,5.430937344094692,4.849561819175503,4.72866100055854,0.0,0.0,0.0,0.0,0.0,0.0,0.0,0.0,0.0,0.0,0.0,8.982369272960364,10.261944006292127,10.490348562788956,10.525473765048812,0.0,0.0,0.0,0.0,0.0,0.0,0.0,0.0,0.0,0.0,0.0,7
15.63545151,0.018015079,0.043409095,0.92259957,-0.38288529,0.018015079,0.043409095,15.799,7.899,7.969948286067604,5.430937344094692,4.849561819175503,4.72866100055854,0.0,0.0,0.0,0.0,0.0,0.0,0.0,0.0,0.0,0.0,0.0,8.982369272960364,10.261944006292127,10.490348562788956,10.525473765048812,0.0,0.0,0.0,0.0,0.0,0.0,0.0,0.0,0.0,0.0,0.0,7
15.64715719,0.028467295,0.047571464,0.85677417,-0.51270322,0.028467295,0.047571464,15.799,7.899,7.969948286067604,5.430937344094692,4.849561819175503,4.72866100055854,0.0,0.0,0.0,0.0,0.0,0.0,0.0,0.0,0.0,0.0,0.0,8.982369272960364,10.261944006292127,10.490348562788956,10.525473765048812,0.0,0.0,0.0,0.0,0.0,0.0,0.0,0.0,0.0,0.0,0.0,7
15.65886288,0.038208558,0.047035081,0.77474769,-0.62935985,0.038208558,0.047035081,15.799,7.899,7.969948286067604,5.430937344094692,4.849561819175503,4.72866100055854,0.0,0.0,0.0,0.0,0.0,0.0,0.0,0.0,0.0,0.0,0.0,8.982369272960364,10.261944006292127,10.490348562788956,10.525473765048812,0.0,0.0,0.0,0.0,0.0,0.0,0.0,0.0,0.0,0.0,0.0,7
15.67056856,0.045844101,0.04255492,0.6789935,-0.73147469,0.045844101,0.04255492,15.799,7.899,7.969948286067604,5.430937344094692,4.849561819175503,4.72866100055854,0.0,0.0,0.0,0.0,0.0,0.0,0.0,0.0,0.0,0.0,0.0,8.982369272960364,10.261944006292127,10.490348562788956,10.525473765048812,0.0,0.0,0.0,0.0,0.0,0.0,0.0,0.0,0.0,0.0,0.0,7
15.68227425,0.050396093,0.035235001,0.57191661,-0.81800374,0.050396093,0.035235001,15.799,7.899,7.969948286067604,5.430937344094692,4.849561819175503,4.72866100055854,0.0,0.0,0.0,0.0,0.0,0.0,0.0,0.0,0.0,0.0,0.0,8.982369272960364,10.261944006292127,10.490348562788956,10.525473765048812,0.0,0.0,0.0,0.0,0.0,0.0,0.0,0.0,0.0,0.0,0.0,7
15.69397993,0.051344968,0.026353196,0.45586343,-0.88817664,0.051344968,0.026353196,15.799,7.899,7.969948286067604,5.430937344094692,4.849561819175503,4.72866100055854,0.0,0.0,0.0,0.0,0.0,0.0,0.0,0.0,0.0,0.0,0.0,8.982369272960364,10.261944006292127,10.490348562788956,10.525473765048812,0.0,0.0,0.0,0.0,0.0,0.0,0.0,0.0,0.0,0.0,0.0,7
15.70568562,0.048618454,0.017203842,0.33314143,-0.94146538,0.048618454,0.017203842,15.799,7.899,7.969948286067604,5.430937344094692,4.849561819175503,4.72866100055854,0.0,0.0,0.0,0.0,0.0,0.0,0.0,0.0,0.0,0.0,0.0,8.982369272960364,10.261944006292127,10.490348562788956,10.525473765048812,0.0,0.0,0.0,0.0,0.0,0.0,0.0,0.0,0.0,0.0,0.0,7
15.7173913,0.042541226,0.0089659215,0.20603296,-0.97757878,0.042541226,0.0089659215,15.799,7.899,7.969948286067604,5.430937344094692,4.849561819175503,4.72866100055854,0.0,0.0,0.0,0.0,0.0,0.0,0.0,0.0,0.0,0.0,0.0,8.982369272960364,10.261944006292127,10.490348562788956,10.525473765048812,0.0,0.0,0.0,0.0,0.0,0.0,0.0,0.0,0.0,0.0,0.0,7
15.72909699,0.033756243,0.0026014602,0.076794157,-0.99647198,0.033756243,0.0026014602,15.799,7.899,7.969948286067604,5.430937344094692,4.849561819175503,4.72866100055854,0.0,0.0,0.0,0.0,0.0,0.0,0.0,0.0,0.0,0.0,0.0,8.982369272960364,10.261944006292127,10.490348562788956,10.525473765048812,0.0,0.0,0.0,0.0,0.0,0.0,0.0,0.0,0.0,0.0,0.0,7
15.74080268,0.023127886,-0.0012130493,-0.052363597,-0.9983595,0.023127886,-0.0012130493,15.799,7.899,7.969948286067604,5.430937344094692,4.849561819175503,4.72866100055854,0.0,0.0,0.0,0.0,0.0,0.0,0.0,0.0,0.0,0.0,0.0,8.982369272960364,10.261944006292127,10.490348562788956,10.525473765048812,0.0,0.0,0.0,0.0,0.0,0.0,0.0,0.0,0.0,0.0,0.0,7
15.75250836,0.011636802,-0.0021210883,-0.17930711,-0.98372204,0.011636802,-0.0021210883,15.799,7.899,7.969948286067604,5.430937344094692,4.849561819175503,4.72866100055854,0.0,0.0,0.0,0.0,0.0,0.0,0.0,0.0,0.0,0.0,0.0,8.982369272960364,10.261944006292127,10.490348562788956,10.525473765048812,0.0,0.0,0.0,0.0,0.0,0.0,0.0,0.0,0.0,0.0,0.0,7
15.76421405,0.00027618267,-8.7499787e-05,-0.30202327,-0.95330051,0.00027618267,-8.7499787e-05,15.799,7.899,7.969948286067604,5.430937344094692,4.849561819175503,4.72866100055854,0.0,0.0,0.0,0.0,0.0,0.0,0.0,0.0,0.0,0.0,0.0,8.982369272960364,10.261944006292127,10.490348562788956,10.525473765048812,0.0,0.0,0.0,0.0,0.0,0.0,0.0,0.0,0.0,0.0,0.0,7
15.77591973,-0.010041514,0.0046295711,-0.41866172,-0.90807494,-0.010041514,0.0046295711,15.799,7.899,7.969948286067604,5.430937344094692,4.849561819175503,4.72866100055854,0.0,0.0,0.0,0.0,0.0,0.0,0.0,0.0,0.0,0.0,0.0,8.982369272960364,10.261944006292127,10.490348562788956,10.525473765048812,0.0,0.0,0.0,0.0,0.0,0.0,0.0,0.0,0.0,0.0,0.0,7
15.78762542,-0.018560119,0.011530193,-0.52757114,-0.84922981,-0.018560119,0.011530193,15.799,7.899,7.969948286067604,5.430937344094692,4.849561819175503,4.72866100055854,0.0,0.0,0.0,0.0,0.0,0.0,0.0,0.0,0.0,0.0,0.0,8.982369272960364,10.261944006292127,10.490348562788956,10.525473765048812,0.0,0.0,0.0,0.0,0.0,0.0,0.0,0.0,0.0,0.0,0.0,7
15.7993311,-0.024732792,0.019939943,-0.6273239,-0.77811015,-0.024732792,0.019939943,15.799,7.899,7.969948286067604,5.430937344094692,4.849561819175503,4.72866100055854,0.0,0.0,0.0,0.0,0.0,0.0,0.0,0.0,0.0,0.0,0.0,8.982369272960364,10.261944006292127,10.490348562788956,10.525473765048812,0.0,0.0,0.0,0.0,0.0,0.0,0.0,0.0,0.0,0.0,0.0,7
15.81103679,-0.028250689,0.029084714,-0.71672688,-0.69617422,-0.028250689,0.029084714,15.799,7.899,7.969948286067604,5.430937344094692,4.849561819175503,4.72866100055854,0.0,0.0,0.0,0.0,0.0,0.0,0.0,0.0,0.0,0.0,0.0,8.982369272960364,10.261944006292127,10.490348562788956,10.525473765048812,0.0,0.0,0.0,0.0,0.0,0.0,0.0,0.0,0.0,0.0,0.0,7
15.82274247,-0.029048167,0.038165291,-0.79481889,-0.60494839,-0.029048167,0.038165291,15.799,7.899,7.969948286067604,5.430937344094692,4.849561819175503,4.72866100055854,0.0,0.0,0.0,0.0,0.0,0.0,0.0,0.0,0.0,0.0,0.0,8.982369272960364,10.261944006292127,10.490348562788956,10.525473765048812,0.0,0.0,0.0,0.0,0.0,0.0,0.0,0.0,0.0,0.0,0.0,7
15.83444816,-0.027287579,0.046425366,-0.86085739,-0.50598877,-0.027287579,0.046425366,15.799,7.899,7.969948286067604,5.430937344094692,4.849561819175503,4.72866100055854,0.0,0.0,0.0,0.0,0.0,0.0,0.0,0.0,0.0,0.0,0.0,8.982369272960364,10.261944006292127,10.490348562788956,10.525473765048812,0.0,0.0,0.0,0.0,0.0,0.0,0.0,0.0,0.0,0.0,0.0,7
15.84615385,-0.023327998,0.053208522,-0.91429869,-0.4008523,-0.023327998,0.053208522,15.799,7.899,7.969948286067604,5.430937344094692,4.849561819175503,4.72866100055854,0.0,0.0,0.0,0.0,0.0,0.0,0.0,0.0,0.0,0.0,0.0,8.982369272960364,10.261944006292127,10.490348562788956,10.525473765048812,0.0,0.0,0.0,0.0,0.0,0.0,0.0,0.0,0.0,0.0,0.0,7
15.85785953,-0.017682664,0.05800162,-0.95477583,-0.29107774,-0.017682664,0.05800162,15.799,7.899,7.969948286067604,5.430937344094692,4.849561819175503,4.72866100055854,0.0,0.0,0.0,0.0,0.0,0.0,0.0,0.0,0.0,0.0,0.0,8.982369272960364,10.261944006292127,10.490348562788956,10.525473765048812,0.0,0.0,0.0,0.0,0.0,0.0,0.0,0.0,0.0,0.0,0.0,7
15.86956522,-0.010969736,0.060463581,-0.98207803,-0.17817564,-0.010969736,0.060463581,15.799,7.899,7.969948286067604,5.430937344094692,4.849561819175503,4.72866100055854,0.0,0.0,0.0,0.0,0.0,0.0,0.0,0.0,0.0,0.0,0.0,8.982369272960364,10.261944006292127,10.490348562788956,10.525473765048812,0.0,0.0,0.0,0.0,0.0,0.0,0.0,0.0,0.0,0.0,0.0,7
15.8812709,-0.0038603867,0.060439749,-0.99613454,-0.06362476,-0.0038603867,0.060439749,15.799,7.899,7.969948286067604,5.430937344094692,4.849561819175503,4.72866100055854,0.0,0.0,0.0,0.0,0.0,0.0,0.0,0.0,0.0,0.0,0.0,8.982369272960364,10.261944006292127,10.490348562788956,10.525473765048812,0.0,0.0,0.0,0.0,0.0,0.0,0.0,0.0,0.0,0.0,0.0,7
15.89297659,0.0029724144,0.057962735,-0.99700423,0.051127846,0.0029724144,0.057962735,15.799,7.899,7.969948286067604,5.430937344094692,4.849561819175503,4.72866100055854,0.0,0.0,0.0,0.0,0.0,0.0,0.0,0.0,0.0,0.0,0.0,8.982369272960364,10.261944006292127,10.490348562788956,10.525473765048812,0.0,0.0,0.0,0.0,0.0,0.0,0.0,0.0,0.0,0.0,0.0,7
15.90468227,0.0089016795,0.053241045,-0.98487114,0.16466632,0.0089016795,0.053241045,15.799,7.899,7.969948286067604,5.430937344094692,4.849561819175503,4.72866100055854,0.0,0.0,0.0,0.0,0.0,0.0,0.0,0.0,0.0,0.0,0.0,8.982369272960364,10.261944006292127,10.490348562788956,10.525473765048812,0.0,0.0,0.0,0.0,0.0,0.0,0.0,0.0,0.0,0.0,0.0,7
15.91638796,0.013388469,0.046637071,-0.96004489,0.2756076,0.013388469,0.046637071,15.799,7.899,7.969948286067604,5.430937344094692,4.849561819175503,4.72866100055854,0.0,0.0,0.0,0.0,0.0,0.0,0.0,0.0,0.0,0.0,0.0,8.982369272960364,10.261944006292127,10.490348562788956,10.525473765048812,0.0,0.0,0.0,0.0,0.0,0.0,0.0,0.0,0.0,0.0,0.0,7
15.92809365,0.016016313,0.038636212,-0.92296407,0.38260691,0.016016313,0.038636212,15.799,7.899,7.969948286067604,5.430937344094692,4.849561819175503,4.72866100055854,0.0,0.0,0.0,0.0,0.0,0.0,0.0,0.0,0.0,0.0,0.0,8.982369272960364,10.261944006292127,10.490348562788956,10.525473765048812,0.0,0.0,0.0,0.0,0.0,0.0,0.0,0.0,0.0,0.0,0.0,7
15.93979933,0.01651637,0.029809167,-0.87420022,0.48436824,0.01651637,0.029809167,15.799,7.899,7.969948286067604,5.430937344094692,4.849561819175503,4.72866100055854,0.0,0.0,0.0,0.0,0.0,0.0,0.0,0.0,0.0,0.0,0.0,8.982369272960364,10.261944006292127,10.490348562788956,10.525473765048812,0.0,0.0,0.0,0.0,0.0,0.0,0.0,0.0,0.0,0.0,0.0,7
15.95150502,0.014782059,0.020769775,-0.81446,0.5796594,0.014782059,0.020769775,15.799,7.899,7.969948286067604,5.430937344094692,4.849561819175503,4.72866100055854,0.0,0.0,0.0,0.0,0.0,0.0,0.0,0.0,0.0,0.0,0.0,8.982369272960364,10.261944006292127,10.490348562788956,10.525473765048812,0.0,0.0,0.0,0.0,0.0,0.0,0.0,0.0,0.0,0.0,0.0,7
15.9632107,0.010872416,0.012131049,-0.7445834,0.66733065,0.010872416,0.012131049,15.799,7.899,7.969948286067604,5.430937344094692,4.849561819175503,4.72866100055854,0.0,0.0,0.0,0.0,0.0,0.0,0.0,0.0,0.0,0.0,0.0,8.982369272960364,10.261944006292127,10.490348562788956,10.525473765048812,0.0,0.0,0.0,0.0,0.0,0.0,0.0,0.0,0.0,0.0,0.0,7
15.97491639,0.0050040649,0.004462324,-0.66553668,0.74633503,0.0050040649,0.004462324,15.799,7.899,7.969948286067604,5.430937344094692,4.849561819175503,4.72866100055854,0.0,0.0,0.0,0.0,0.0,0.0,0.0,0.0,0.0,0.0,0.0,8.982369272960364,10.261944006292127,10.490348562788956,10.525473765048812,0.0,0.0,0.0,0.0,0.0,0.0,0.0,0.0,0.0,0.0,0.0,7
15.98662207,-0.002467526,-0.0017495786,-0.57839936,0.81574814,-0.002467526,-0.0017495786,15.799,7.899,7.969948286067604,5.430937344094692,4.849561819175503,4.72866100055854,0.0,0.0,0.0,0.0,0.0,0.0,0.0,0.0,0.0,0.0,0.0,8.982369272960364,10.261944006292127,10.490348562788956,10.525473765048812,0.0,0.0,0.0,0.0,0.0,0.0,0.0,0.0,0.0,0.0,0.0,7
15.99832776,-0.011075986,-0.0061324868,-0.48434584,0.87478502,-0.011075986,-0.0061324868,15.799,7.899,7.969948286067604,5.430937344094692,4.849561819175503,4.72866100055854,0.0,0.0,0.0,0.0,0.0,0.0,0.0,0.0,0.0,0.0,0.0,8.982369272960364,10.261944006292127,10.490348562788956,10.525473765048812,0.0,0.0,0.0,0.0,0.0,0.0,0.0,0.0,0.0,0.0,0.0,7
16.01003344,-0.02027898,-0.0084521599,-0.38462278,0.92281235,-0.02027898,-0.0084521599,15.799,7.899,7.969948286067604,5.430937344094692,4.849561819175503,4.72866100055854,0.0,0.0,0.0,0.0,0.0,0.0,0.0,0.0,0.0,0.0,0.0,8.982369272960364,10.261944006292127,10.490348562788956,10.525473765048812,0.0,0.0,0.0,0.0,0.0,0.0,0.0,0.0,0.0,0.0,0.0,7
16.02173913,-0.029497394,-0.0086253162,-0.28052439,0.95935477,-0.029497394,-0.0086253162,15.799,7.899,7.969948286067604,5.430937344094692,4.849561819175503,4.72866100055854,0.0,0.0,0.0,0.0,0.0,0.0,0.0,0.0,0.0,0.0,0.0,8.982369272960364,10.261944006292127,10.490348562788956,10.525473765048812,0.0,0.0,0.0,0.0,0.0,0.0,0.0,0.0,0.0,0.0,0.0,7
16.03344482,-0.038155788,-0.0067218893,-0.17336758,0.98409483,-0.038155788,-0.0067218893,15.799,7.899,7.969948286067604,5.430937344094692,4.849561819175503,4.72866100055854,0.0,0.0,0.0,0.0,0.0,0.0,0.0,0.0,0.0,0.0,0.0,8.982369272960364,10.261944006292127,10.490348562788956,10.525473765048812,0.0,0.0,0.0,0.0,0.0,0.0,0.0,0.0,0.0,0.0,0.0,7
16.0451505,-0.045721244,-0.0029568792,-0.064469296,0.99686736,-0.045721244,-0.0029568792,15.799,7.899,7.969948286067604,5.430937344094692,4.849561819175503,4.72866100055854,0.0,0.0,0.0,0.0,0.0,0.0,0.0,0.0,0.0,0.0,0.0,8.982369272960364,10.261944006292127,10.490348562788956,10.525473765048812,0.0,0.0,0.0,0.0,0.0,0.0,0.0,0.0,0.0,0.0,0.0,7
16.05685619,-0.051738051,0.0023270781,0.044872351,0.99764935,-0.051738051,0.0023270781,15.799,7.899,7.969948286067604,5.430937344094692,4.849561819175503,4.72866100055854,0.0,0.0,0.0,0.0,0.0,0.0,0.0,0.0,0.0,0.0,0.0,8.982369272960364,10.261944006292127,10.490348562788956,10.525473765048812,0.0,0.0,0.0,0.0,0.0,0.0,0.0,0.0,0.0,0.0,0.0,7
16.06856187,-0.055856273,0.0086847494,0.15339218,0.98654726,-0.055856273,0.0086847494,15.799,7.899,7.969948286067604,5.430937344094692,4.849561819175503,4.72866100055854,0.0,0.0,0.0,0.0,0.0,0.0,0.0,0.0,0.0,0.0,0.0,8.982369272960364,10.261944006292127,10.490348562788956,10.525473765048812,0.0,0.0,0.0,0.0,0.0,0.0,0.0,0.0,0.0,0.0,0.0,7
16.08026756,-0.057852806,0.015598968,0.25986691,0.96378364,-0.057852806,0.015598968,15.799,7.899,7.969948286067604,5.430937344094692,4.849561819175503,4.72866100055854,0.0,0.0,0.0,0.0,0.0,0.0,0.0,0.0,0.0,0.0,0.0,8.982369272960364,10.261944006292127,10.490348562788956,10.525473765048812,0.0,0.0,0.0,0.0,0.0,0.0,0.0,0.0,0.0,0.0,0.0,7
