freq,s11_real,s11_imag,s21_real,s21_imag,s22_real,s22_imag,a,b,a2_1,a2_2,a2_3,a2_4,a2_5,a2_6,a2_7,a2_8,a2_9,a2_10,a2_11,a2_12,a2_13,a2_14,a2_15,l_1,l_2,l_3,l_4,l_5,l_6,l_7,l_8,l_9,l_10,l_11,l_12,l_13,l_14,l_15,order
14.85117057,0.23359237,0.97233439,0.00063860227,-0.00015341699,0.23359237,0.97233439,15.799,7.899,7.998319911271024,5.453881908088492,4.859333606581284,4.734383662204678,0.0,0.0,0.0,0.0,0.0,0.0,0.0,0.0,0.0,0.0,0.0,8.998803395739303,10.283259973372068,10.511429456075875,10.544877428501552,0.0,0.0,0.0,0.0,0.0,0.0,0.0,0.0,0.0,0.0,0.0,7
14.86287625,0.24905763,0.9684884,0.00069796049,-0.00017948835,0.24905763,0.9684884,15.799,7.899,7.998319911271024,5.453881908088492,4.859333606581284,4.734383662204678,0.0,0.0,0.0,0.0,0.0,0.0,0.0,0.0,0.0,0.0,0.0,8.998803395739303,10.283259973372068,10.511429456075875,10.544877428501552,0.0,0.0,0.0,0.0,0.0,0.0,0.0,0.0,0.0,0.0,0.0,7
14.87458194,0.26485059,0.96428914,0.00076339994,-0.00020967458,0.26485059,0.96428914,15.799,7.899,7.998319911271024,5.453881908088492,4.859333606581284,4.734383662204678,0.0,0.0,0.0,0.0,0.0,0.0,0.0,0.0,0.0,0.0,0.0,8.998803395739303,10.283259973372068,10.511429456075875,10.544877428501552,0.0,0.0,0.0,0.0,0.0,0.0,0.0,0.0,0.0,0.0,0.0,7
14.88628763,0.2809796,0.95971335,0.00083559553,-0.00024464107,0.2809796,0.95971335,15.799,7.899,7.998319911271024,5.453881908088492,4.859333606581284,4.734383662204678,0.0,0.0,0.0,0.0,0.0,0.0,0.0,0.0,0.0,0.0,0.0,8.998803395739303,10.283259973372068,10.511429456075875,10.544877428501552,0.0,0.0,0.0,0.0,0.0,0.0,0.0,0.0,0.0,0.0,0.0,7
14.89799331,0.29745307,0.95473596,0.00091530127,-0.00028516698,0.29745307,0.95473596,15.799,7.899,7.998319911271024,5.453881908088492,4.859333606581284,4.734383662204678,0.0,0.0,0.0,0.0,0.0,0.0,0.0,0.0,0.0,0.0,0.0,8.998803395739303,10.283259973372068,10.511429456075875,10.544877428501552,0.0,0.0,0.0,0.0,0.0,0.0,0.0,0.0,0.0,0.0,0.0,7
14.909699,0.31427938,0.94932995,0.0010033596,-0.0003321661,0.31427938,0.94932995,15.799,7.899,7.998319911271024,5.453881908088492,4.859333606581284,4.734383662204678,0.0,0.0,0.0,0.0,0.0,0.0,0.0,0.0,0.0,0.0,0.0,8.998803395739303,10.283259973372068,10.511429456075875,10.544877428501552,0.0,0.0,0.0,0.0,0.0,0.0,0.0,0.0,0.0,0.0,0.0,7
14.92140468,0.33146688,0.94346613,0.0011007117,-0.00038671178,0.33146688,0.94346613,15.799,7.899,7.998319911271024,5.453881908088492,4.859333606581284,4.734383662204678,0.0,0.0,0.0,0.0,0.0,0.0,0.0,0.0,0.0,0.0,0.0,8.998803395739303,10.283259973372068,10.511429456075875,10.544877428501552,0.0,0.0,0.0,0.0,0.0,0.0,0.0,0.0,0.0,0.0,0.0,7
14.93311037,0.3490238,0.93711297,0.0012084088,-0.00045006678,0.3490238,0.93711297,15.799,7.899,7.998319911271024,5.453881908088492,4.859333606581284,4.734383662204678,0.0,0.0,0.0,0.0,0.0,0.0,0.0,0.0,0.0,0.0,0.0,8.998803395739303,10.283259973372068,10.511429456075875,10.544877428501552,0.0,0.0,0.0,0.0,0.0,0.0,0.0,0.0,0.0,0.0,0.0,7
14.94481605,0.36695817,0.93023635,0.0013276246,-0.00052371927,0.36695817,0.93023635,15.799,7.899,7.998319911271024,5.453881908088492,4.859333606581284,4.734383662204678,0.0,0.0,0.0,0.0,0.0,0.0,0.0,0.0,0.0,0.0,0.0,8.998803395739303,10.283259973372068,10.511429456075875,10.544877428501552,0.0,0.0,0.0,0.0,0.0,0.0,0.0,0.0,0.0,0.0,0.0,7
14.95652174,0.38527775,0.9227993,0.0014596688,-0.00060942601,0.38527775,0.9227993,15.799,7.899,7.998319911271024,5.453881908088492,4.859333606581284,4.734383662204678,0.0,0.0,0.0,0.0,0.0,0.0,0.0,0.0,0.0,0.0,0.0,8.998803395739303,10.283259973372068,10.511429456075875,10.544877428501552,0.0,0.0,0.0,0.0,0.0,0.0,0.0,0.0,0.0,0.0,0.0,7
14.96822742,0.4039899,0.91476176,0.001606001,-0.00070926464,0.4039899,0.91476176,15.799,7.899,7.998319911271024,5.453881908088492,4.859333606581284,4.734383662204678,0.0,0.0,0.0,0.0,0.0,0.0,0.0,0.0,0.0,0.0,0.0,8.998803395739303,10.283259973372068,10.511429456075875,10.544877428501552,0.0,0.0,0.0,0.0,0.0,0.0,0.0,0.0,0.0,0.0,0.0,7
14.97993311,0.42310146,0.90608021,0.0017682462,-0.00082569681,0.42310146,0.90608021,15.799,7.899,7.998319911271024,5.453881908088492,4.859333606581284,4.734383662204678,0.0,0.0,0.0,0.0,0.0,0.0,0.0,0.0,0.0,0.0,0.0,8.998803395739303,10.283259973372068,10.511429456075875,10.544877428501552,0.0,0.0,0.0,0.0,0.0,0.0,0.0,0.0,0.0,0.0,0.0,7
14.9916388,0.44261859,0.89670734,0.0019482099,-0.00096164477,0.44261859,0.89670734,15.799,7.899,7.998319911271024,5.453881908088492,4.859333606581284,4.734383662204678,0.0,0.0,0.0,0.0,0.0,0.0,0.0,0.0,0.0,0.0,0.0,8.998803395739303,10.283259973372068,10.511429456075875,10.544877428501552,0.0,0.0,0.0,0.0,0.0,0.0,0.0,0.0,0.0,0.0,0.0,7
15.55351171,0.0019153971,-0.0050838974,0.93577351,0.35255981,0.0019153971,-0.0050838974,15.799,7.899,7.998319911271024,5.453881908088492,4.859333606581284,4.734383662204678,0.0,0.0,0.0,0.0,0.0,0.0,0.0,0.0,0.0,0.0,0.0,8.998803395739303,10.283259973372068,10.511429456075875,10.544877428501552,0.0,0.0,0.0,0.0,0.0,0.0,0.0,0.0,0.0,0.0,0.0,7
15.56521739,-0.0014840528,0.0074875362,0.9808896,0.19441535,-0.0014840528,0.0074875362,15.799,7.899,7.998319911271024,5.453881908088492,4.859333606581284,4.734383662204678,0.0,0.0,0.0,0.0,0.0,0.0,0.0,0.0,0.0,0.0,0.0,8.998803395739303,10.283259973372068,10.511429456075875,10.544877428501552,0.0,0.0,0.0,0.0,0.0,0.0,0.0,0.0,0.0,0.0,0.0,7
15.57692308,-0.0007393994,0.020785846,0.99915172,0.035542079,-0.0007393994,0.020785846,15.799,7.899,7.998319911271024,5.453881908088492,4.859333606581284,4.734383662204678,0.0,0.0,0.0,0.0,0.0,0.0,0.0,0.0,0.0,0.0,0.0,8.998803395739303,10.283259973372068,10.511429456075875,10.544877428501552,0.0,0.0,0.0,0.0,0.0,0.0,0.0,0.0,0.0,0.0,0.0,7
15.58862876,0.0039513875,0.032657464,0.99222223,-0.12005386,0.0039513875,0.032657464,15.799,7.899,7.998319911271024,5.453881908088492,4.859333606581284,4.734383662204678,0.0,0.0,0.0,0.0,0.0,0.0,0.0,0.0,0.0,0.0,0.0,8.998803395739303,10.283259973372068,10.511429456075875,10.544877428501552,0.0,0.0,0.0,0.0,0.0,0.0,0.0,0.0,0.0,0.0,0.0,7
15.60033445,0.011603621,0.041509587,0.96218381,-0.26896958,0.011603621,0.041509587,15.799,7.899,7.998319911271024,5.453881908088492,4.859333606581284,4.734383662204678,0.0,0.0,0.0,0.0,0.0,0.0,0.0,0.0,0.0,0.0,0.0,8.998803395739303,10.283259973372068,10.511429456075875,10.544877428501552,0.0,0.0,0.0,0.0,0.0,0.0,0.0,0.0,0.0,0.0,0.0,7
15.61204013,0.020809354,0.046436221,0.91137757,-0.40841347,0.020809354,0.046436221,15.799,7.899,7.998319911271024,5.453881908088492,4.859333606581284,4.734383662204678,0.0,0.0,0.0,0.0,0.0,0.0,0.0,0.0,0.0,0.0,0.0,8.998803395739303,10.283259973372068,10.511429456075875,10.544877428501552,0.0,0.0,0.0,0.0,0.0,0.0,0.0,0.0,0.0,0.0,0.0,7
15.62374582,0.030051671,0.047209082,0.84226236,-0.53615512,0.030051671,0.047209082,15.799,7.899,7.998319911271024,5.453881908088492,4.859333606581284,4.734383662204678,0.0,0.0,0.0,0.0,0.0,0.0,0.0,0.0,0.0,0.0,0.0,8.998803395739303,10.283259973372068,10.511429456075875,10.544877428501552,0.0,0.0,0.0,0.0,0.0,0.0,0.0,0.0,0.0,0.0,0.0,7
15.63545151,0.037945435,0.044180291,0.75731861,-0.65044352,0.037945435,0.044180291,15.799,7.899,7.998319911271024,5.453881908088492,4.859333606581284,4.734383662204678,0.0,0.0,0.0,0.0,0.0,0.0,0.0,0.0,0.0,0.0,0.0,8.998803395739303,10.283259973372068,10.511429456075875,10.544877428501552,0.0,0.0,0.0,0.0,0.0,0.0,0.0,0.0,0.0,0.0,0.0,7
15.64715719,0.043399576,0.038137711,0.65899918,-0.74992138,0.043399576,0.038137711,15.799,7.899,7.998319911271024,5.453881908088492,4.859333606581284,4.734383662204678,0.0,0.0,0.0,0.0,0.0,0.0,0.0,0.0,0.0,0.0,0.0,8.998803395739303,10.283259973372068,10.511429456075875,10.544877428501552,0.0,0.0,0.0,0.0,0.0,0.0,0.0,0.0,0.0,0.0,0.0,7
15.65886288,0.045707642,0.030143425,0.54971587,-0.83355543,0.045707642,0.030143425,15.799,7.899,7.998319911271024,5.453881908088492,4.859333606581284,4.734383662204678,0.0,0.0,0.0,0.0,0.0,0.0,0.0,0.0,0.0,0.0,0.0,8.998803395739303,10.283259973372068,10.511429456075875,10.544877428501552,0.0,0.0,0.0,0.0,0.0,0.0,0.0,0.0,0.0,0.0,0.0,7
15.67056856,0.044578183,0.021375799,0.4318451,-0.90059185,0.044578183,0.021375799,15.799,7.899,7.998319911271024,5.453881908088492,4.859333606581284,4.734383662204678,0.0,0.0,0.0,0.0,0.0,0.0,0.0,0.0,0.0,0.0,0.0,8.998803395739303,10.283259973372068,10.511429456075875,10.544877428501552,0.0,0.0,0.0,0.0,0.0,0.0,0.0,0.0,0.0,0.0,0.0,7
15.68227425,0.040117264,0.012988001,0.3077371,-0.95053658,0.040117264,0.012988001,15.799,7.899,7.998319911271024,5.453881908088492,4.859333606581284,4.734383662204678,0.0,0.0,0.0,0.0,0.0,0.0,0.0,0.0,0.0,0.0,0.0,8.998803395739303,10.283259973372068,10.511429456075875,10.544877428501552,0.0,0.0,0.0,0.0,0.0,0.0,0.0,0.0,0.0,0.0,0.0,7
15.69397993,0.032774594,0.0059910802,0.17971708,-0.98315396,0.032774594,0.0059910802,15.799,7.899,7.998319911271024,5.453881908088492,4.859333606581284,4.734383662204678,0.0,0.0,0.0,0.0,0.0,0.0,0.0,0.0,0.0,0.0,0.0,8.998803395739303,10.283259973372068,10.511429456075875,10.544877428501552,0.0,0.0,0.0,0.0,0.0,0.0,0.0,0.0,0.0,0.0,0.0,7
15.70568562,0.02326396,0.0011666658,0.050072531,-0.99847392,0.02326396,0.0011666658,15.799,7.899,7.998319911271024,5.453881908088492,4.859333606581284,4.734383662204678,0.0,0.0,0.0,0.0,0.0,0.0,0.0,0.0,0.0,0.0,0.0,8.998803395739303,10.283259973372068,10.511429456075875,10.544877428501552,0.0,0.0,0.0,0.0,0.0,0.0,0.0,0.0,0.0,0.0,0.0,7
15.7173913,0.012468288,-0.00098782942,-0.078973681,-0.99679824,0.012468288,-0.00098782942,15.799,7.899,7.998319911271024,5.453881908088492,4.859333606581284,4.734383662204678,0.0,0.0,0.0,0.0,0.0,0.0,0.0,0.0,0.0,0.0,0.0,8.998803395739303,10.283259973372068,10.511429456075875,10.544877428501552,0.0,0.0,0.0,0.0,0.0,0.0,0.0,0.0,0.0,0.0,0.0,7
15.72909699,0.0013394569,-0.00028097666,-0.20530059,-0.97869801,0.0013394569,-0.00028097666,15.799,7.899,7.998319911271024,5.453881908088492,4.859333606581284,4.734383662204678,0.0,0.0,0.0,0.0,0.0,0.0,0.0,0.0,0.0,0.0,0.0,8.998803395739303,10.283259973372068,10.511429456075875,10.544877428501552,0.0,0.0,0.0,0.0,0.0,0.0,0.0,0.0,0.0,0.0,0.0,7
15.74080268,-0.0091974904,0.0031819517,-0.32693038,-0.94499831,-0.0091974904,0.0031819517,15.799,7.899,7.998319911271024,5.453881908088492,4.859333606581284,4.734383662204678,0.0,0.0,0.0,0.0,0.0,0.0,0.0,0.0,0.0,0.0,0.0,8.998803395739303,10.283259973372068,10.511429456075875,10.544877428501552,0.0,0.0,0.0,0.0,0.0,0.0,0.0,0.0,0.0,0.0,0.0,7
15.75250836,-0.018327408,0.0090347815,-0.44206662,-0.89674945,-0.018327408,0.0090347815,15.799,7.899,7.998319911271024,5.453881908088492,4.859333606581284,4.734383662204678,0.0,0.0,0.0,0.0,0.0,0.0,0.0,0.0,0.0,0.0,0.0,8.998803395739303,10.283259973372068,10.511429456075875,10.544877428501552,0.0,0.0,0.0,0.0,0.0,0.0,0.0,0.0,0.0,0.0,0.0,7
15.76421405,-0.025409162,0.016706158,-0.54912381,-0.8351876,-0.025409162,0.016706158,15.799,7.899,7.998319911271024,5.453881908088492,4.859333606581284,4.734383662204678,0.0,0.0,0.0,0.0,0.0,0.0,0.0,0.0,0.0,0.0,0.0,8.998803395739303,10.283259973372068,10.511429456075875,10.544877428501552,0.0,0.0,0.0,0.0,0.0,0.0,0.0,0.0,0.0,0.0,0.0,7
15.77591973,-0.030017276,0.025487434,-0.64674455,-0.76168946,-0.030017276,0.025487434,15.799,7.899,7.998319911271024,5.453881908088492,4.859333606581284,4.734383662204678,0.0,0.0,0.0,0.0,0.0,0.0,0.0,0.0,0.0,0.0,0.0,8.998803395739303,10.283259973372068,10.511429456075875,10.544877428501552,0.0,0.0,0.0,0.0,0.0,0.0,0.0,0.0,0.0,0.0,0.0,7
15.78762542,-0.0319604,0.034604893,-0.73380358,-0.67772659,-0.0319604,0.034604893,15.799,7.899,7.998319911271024,5.453881908088492,4.859333606581284,4.734383662204678,0.0,0.0,0.0,0.0,0.0,0.0,0.0,0.0,0.0,0.0,0.0,8.998803395739303,10.283259973372068,10.511429456075875,10.544877428501552,0.0,0.0,0.0,0.0,0.0,0.0,0.0,0.0,0.0,0.0,0.0,7
15.7993311,-0.031278313,0.043289376,-0.80940009,-0.58482407,-0.031278313,0.043289376,15.799,7.899,7.998319911271024,5.453881908088492,4.859333606581284,4.734383662204678,0.0,0.0,0.0,0.0,0.0,0.0,0.0,0.0,0.0,0.0,0.0,8.998803395739303,10.283259973372068,10.511429456075875,10.544877428501552,0.0,0.0,0.0,0.0,0.0,0.0,0.0,0.0,0.0,0.0,0.0,7
15.81103679,-0.028220883,0.050837951,-0.87284169,-0.48452706,-0.028220883,0.050837951,15.799,7.899,7.998319911271024,5.453881908088492,4.859333606581284,4.734383662204678,0.0,0.0,0.0,0.0,0.0,0.0,0.0,0.0,0.0,0.0,0.0,8.998803395739303,10.283259973372068,10.511429456075875,10.544877428501552,0.0,0.0,0.0,0.0,0.0,0.0,0.0,0.0,0.0,0.0,0.0,7
15.82274247,-0.023213298,0.056664027,-0.92362398,-0.37837689,-0.023213298,0.056664027,15.799,7.899,7.998319911271024,5.453881908088492,4.859333606581284,4.734383662204678,0.0,0.0,0.0,0.0,0.0,0.0,0.0,0.0,0.0,0.0,0.0,8.998803395739303,10.283259973372068,10.511429456075875,10.544877428501552,0.0,0.0,0.0,0.0,0.0,0.0,0.0,0.0,0.0,0.0,0.0,7
15.83444816,-0.01681205,0.060334036,-0.96140975,-0.26789636,-0.01681205,0.060334036,15.799,7.899,7.998319911271024,5.453881908088492,4.859333606581284,4.734383662204678,0.0,0.0,0.0,0.0,0.0,0.0,0.0,0.0,0.0,0.0,0.0,8.998803395739303,10.283259973372068,10.511429456075875,10.544877428501552,0.0,0.0,0.0,0.0,0.0,0.0,0.0,0.0,0.0,0.0,0.0,7
15.84615385,-0.0096558391,0.061590111,-0.98601097,-0.15458266,-0.0096558391,0.061590111,15.799,7.899,7.998319911271024,5.453881908088492,4.859333606581284,4.734383662204678,0.0,0.0,0.0,0.0,0.0,0.0,0.0,0.0,0.0,0.0,0.0,8.998803395739303,10.283259973372068,10.511429456075875,10.544877428501552,0.0,0.0,0.0,0.0,0.0,0.0,0.0,0.0,0.0,0.0,0.0,7
15.85785953,-0.0024149918,0.060359123,-0.99737581,-0.03990539,-0.0024149918,0.060359123,15.799,7.899,7.998319911271024,5.453881908088492,4.859333606581284,4.734383662204678,0.0,0.0,0.0,0.0,0.0,0.0,0.0,0.0,0.0,0.0,0.0,8.998803395739303,10.283259973372068,10.511429456075875,10.544877428501552,0.0,0.0,0.0,0.0,0.0,0.0,0.0,0.0,0.0,0.0,0.0,7
15.86956522,0.0042575904,0.056749019,-0.9955814,0.074693412,0.0042575904,0.056749019,15.799,7.899,7.998319911271024,5.453881908088492,4.859333606581284,4.734383662204678,0.0,0.0,0.0,0.0,0.0,0.0,0.0,0.0,0.0,0.0,0.0,8.998803395739303,10.283259973372068,10.511429456075875,10.544877428501552,0.0,0.0,0.0,0.0,0.0,0.0,0.0,0.0,0.0,0.0,0.0,7
15.8812709,0.0097714295,0.05103373,-0.98083193,0.18779991,0.0097714295,0.05103373,15.799,7.899,7.998319911271024,5.453881908088492,4.859333606581284,4.734383662204678,0.0,0.0,0.0,0.0,0.0,0.0,0.0,0.0,0.0,0.0,0.0,8.998803395739303,10.283259973372068,10.511429456075875,10.544877428501552,0.0,0.0,0.0,0.0,0.0,0.0,0.0,0.0,0.0,0.0,0.0,7
15.89297659,0.013637272,0.043628199,-0.95346078,0.29803211,0.013637272,0.043628199,15.799,7.899,7.998319911271024,5.453881908088492,4.859333606581284,4.734383662204678,0.0,0.0,0.0,0.0,0.0,0.0,0.0,0.0,0.0,0.0,0.0,8.998803395739303,10.283259973372068,10.511429456075875,10.544877428501552,0.0,0.0,0.0,0.0,0.0,0.0,0.0,0.0,0.0,0.0,0.0,7
15.90468227,0.015497843,0.035055285,-0.9139345,0.40404786,0.015497843,0.035055285,15.799,7.899,7.998319911271024,5.453881908088492,4.859333606581284,4.734383662204678,0.0,0.0,0.0,0.0,0.0,0.0,0.0,0.0,0.0,0.0,0.0,8.998803395739303,10.283259973372068,10.511429456075875,10.544877428501552,0.0,0.0,0.0,0.0,0.0,0.0,0.0,0.0,0.0,0.0,0.0,7
15.91638796,0.015149011,0.025906686,-0.86285623,0.5045577,0.015149011,0.025906686,15.799,7.899,7.998319911271024,5.453881908088492,4.859333606581284,4.734383662204678,0.0,0.0,0.0,0.0,0.0,0.0,0.0,0.0,0.0,0.0,0.0,8.998803395739303,10.283259973372068,10.511429456075875,10.544877428501552,0.0,0.0,0.0,0.0,0.0,0.0,0.0,0.0,0.0,0.0,0.0,7
15.92809365,0.012550244,0.016800302,-0.80096644,0.59834188,0.012550244,0.016800302,15.799,7.899,7.998319911271024,5.453881908088492,4.859333606581284,4.734383662204678,0.0,0.0,0.0,0.0,0.0,0.0,0.0,0.0,0.0,0.0,0.0,8.998803395739303,10.283259973372068,10.511429456075875,10.544877428501552,0.0,0.0,0.0,0.0,0.0,0.0,0.0,0.0,0.0,0.0,0.0,7
15.93979933,0.0078237891,0.0083368086,-0.72913896,0.68427017,0.0078237891,0.0083368086,15.799,7.899,7.998319911271024,5.453881908088492,4.859333606581284,4.734383662204678,0.0,0.0,0.0,0.0,0.0,0.0,0.0,0.0,0.0,0.0,0.0,8.998803395739303,10.283259973372068,10.511429456075875,10.544877428501552,0.0,0.0,0.0,0.0,0.0,0.0,0.0,0.0,0.0,0.0,0.0,7
15.95150502,0.001242724,0.0010583515,-0.64837144,0.76132241,0.001242724,0.0010583515,15.799,7.899,7.998319911271024,5.453881908088492,4.859333606581284,4.734383662204678,0.0,0.0,0.0,0.0,0.0,0.0,0.0,0.0,0.0,0.0,0.0,8.998803395739303,10.283259973372068,10.511429456075875,10.544877428501552,0.0,0.0,0.0,0.0,0.0,0.0,0.0,0.0,0.0,0.0,0.0,7
15.9632107,-0.0067911362,-0.0045877864,-0.55976999,0.8286075,-0.0067911362,-0.0045877864,15.799,7.899,7.998319911271024,5.453881908088492,4.859333606581284,4.734383662204678,0.0,0.0,0.0,0.0,0.0,0.0,0.0,0.0,0.0,0.0,0.0,8.998803395739303,10.283259973372068,10.511429456075875,10.544877428501552,0.0,0.0,0.0,0.0,0.0,0.0,0.0,0.0,0.0,0.0,0.0,7
15.97491639,-0.015777736,-0.0082780546,-0.46452885,0.88537872,-0.015777736,-0.0082780546,15.799,7.899,7.998319911271024,5.453881908088492,4.859333606581284,4.734383662204678,0.0,0.0,0.0,0.0,0.0,0.0,0.0,0.0,0.0,0.0,0.0,8.998803395739303,10.283259973372068,10.511429456075875,10.544877428501552,0.0,0.0,0.0,0.0,0.0,0.0,0.0,0.0,0.0,0.0,0.0,7
15.98662207,-0.025155251,-0.0098321515,-0.36390666,0.93104376,-0.025155251,-0.0098321515,15.799,7.899,7.998319911271024,5.453881908088492,4.859333606581284,4.734383662204678,0.0,0.0,0.0,0.0,0.0,0.0,0.0,0.0,0.0,0.0,0.0,8.998803395739303,10.283259973372068,10.511429456075875,10.544877428501552,0.0,0.0,0.0,0.0,0.0,0.0,0.0,0.0,0.0,0.0,0.0,7
15.99832776,-0.034339711,-0.0092221208,-0.2592014,0.96516857,-0.034339711,-0.0092221208,15.799,7.899,7.998319911271024,5.453881908088492,4.859333606581284,4.734383662204678,0.0,0.0,0.0,0.0,0.0,0.0,0.0,0.0,0.0,0.0,0.0,8.998803395739303,10.283259973372068,10.511429456075875,10.544877428501552,0.0,0.0,0.0,0.0,0.0,0.0,0.0,0.0,0.0,0.0,0.0,7
16.01003344,-0.042764836,-0.0065708422,-0.15172614,0.98747515,-0.042764836,-0.0065708422,15.799,7.899,7.998319911271024,5.453881908088492,4.859333606581284,4.734383662204678,0.0,0.0,0.0,0.0,0.0,0.0,0.0,0.0,0.0,0.0,0.0,8.998803395739303,10.283259973372068,10.511429456075875,10.544877428501552,0.0,0.0,0.0,0.0,0.0,0.0,0.0,0.0,0.0,0.0,0.0,7
16.02173913,-0.049919326,-0.0021405689,-0.042787685,0.997834,-0.049919326,-0.0021405689,15.799,7.899,7.998319911271024,5.453881908088492,4.859333606581284,4.734383662204678,0.0,0.0,0.0,0.0,0.0,0.0,0.0,0.0,0.0,0.0,0.0,8.998803395739303,10.283259973372068,10.511429456075875,10.544877428501552,0.0,0.0,0.0,0.0,0.0,0.0,0.0,0.0,0.0,0.0,0.0,7
16.03344482,-0.055379324,0.0036871587,0.066330575,0.99625287,-0.055379324,0.0036871587,15.799,7.899,7.998319911271024,5.453881908088492,4.859333606581284,4.734383662204678,0.0,0.0,0.0,0.0,0.0,0.0,0.0,0.0,0.0,0.0,0.0,8.998803395739303,10.283259973372068,10.511429456075875,10.544877428501552,0.0,0.0,0.0,0.0,0.0,0.0,0.0,0.0,0.0,0.0,0.0,7
16.0451505,-0.058834276,0.010438444,0.17438079,0.98286363,-0.058834276,0.010438444,15.799,7.899,7.998319911271024,5.453881908088492,4.859333606581284,4.734383662204678,0.0,0.0,0.0,0.0,0.0,0.0,0.0,0.0,0.0,0.0,0.0,8.998803395739303,10.283259973372068,10.511429456075875,10.544877428501552,0.0,0.0,0.0,0.0,0.0,0.0,0.0,0.0,0.0,0.0,0.0,7
16.05685619,-0.060105099,0.017578817,0.28015777,0.95790917,-0.060105099,0.017578817,15.799,7.899,7.998319911271024,5.453881908088492,4.859333606581284,4.734383662204678,0.0,0.0,0.0,0.0,0.0,0.0,0.0,0.0,0.0,0.0,0.0,8.998803395739303,10.283259973372068,10.511429456075875,10.544877428501552,0.0,0.0,0.0,0.0,0.0,0.0,0.0,0.0,0.0,0.0,0.0,7
16.06856187,-0.05915405,0.024547845,0.38250198,0.9217323,-0.05915405,0.024547845,15.799,7.899,7.998319911271024,5.453881908088492,4.859333606581284,4.734383662204678,0.0,0.0,0.0,0.0,0.0,0.0,0.0,0.0,0.0,0.0,0.0,8.998803395739303,10.283259973372068,10.511429456075875,10.544877428501552,0.0,0.0,0.0,0.0,0.0,0.0,0.0,0.0,0.0,0.0,0.0,7
16.08026756,-0.056086198,0.030794668,0.48029959,0.87476759,-0.056086198,0.030794668,15.799,7.899,7.998319911271024,5.453881908088492,4.859333606581284,4.734383662204678,0.0,0.0,0.0,0.0,0.0,0.0,0.0,0.0,0.0,0.0,0.0,8.998803395739303,10.283259973372068,10.511429456075875,10.544877428501552,0.0,0.0,0.0,0.0,0.0,0.0,0.0,0.0,0.0,0.0,0.0,7
