freq,s11_real,s11_imag,s21_real,s21_imag,s22_real,s22_imag,a,b,a2_1,a2_2,a2_3,a2_4,a2_5,a2_6,a2_7,a2_8,a2_9,a2_10,a2_11,a2_12,a2_13,a2_14,a2_15,l_1,l_2,l_3,l_4,l_5,l_6,l_7,l_8,l_9,l_10,l_11,l_12,l_13,l_14,l_15,order
14.85117057,0.20923893,0.97786436,0.00058663071,-0.00012552455,0.20923893,0.97786436,15.799,7.899,7.984429897729097,5.440449076788687,4.856000910710689,4.735039908682991,0.0,0.0,0.0,0.0,0.0,0.0,0.0,0.0,0.0,0.0,0.0,8.993030636032007,10.274134441892954,10.503329872152024,10.536575125661892,0.0,0.0,0.0,0.0,0.0,0.0,0.0,0.0,0.0,0.0,0.0,7
14.86287625,0.22426478,0.97452803,0.00064089925,-0.00014748794,0.22426478,0.97452803,15.799,7.899,7.984429897729097,5.440449076788687,4.856000910710689,4.735039908682991,0.0,0.0,0.0,0.0,0.0,0.0,0.0,0.0,0.0,0.0,0.0,8.993030636032007,10.274134441892954,10.503329872152024,10.536575125661892,0.0,0.0,0.0,0.0,0.0,0.0,0.0,0.0,0.0,0.0,0.0,7
14.87458194,0.2396094,0.9708691,0.00070071492,-0.00017293565,0.2396094,0.9708691,15.799,7.899,7.984429897729097,5.440449076788687,4.856000910710689,4.735039908682991,0.0,0.0,0.0,0.0,0.0,0.0,0.0,0.0,0.0,0.0,0.0,8.993030636032007,10.274134441892954,10.503329872152024,10.536575125661892,0.0,0.0,0.0,0.0,0.0,0.0,0.0,0.0,0.0,0.0,0.0,7
14.88628763,0.25528129,0.9668665,0.00076669473,-0.00020243004,0.25528129,0.9668665,15.799,7.899,7.984429897729097,5.440449076788687,4.856000910710689,4.735039908682991,0.0,0.0,0.0,0.0,0.0,0.0,0.0,0.0,0.0,0.0,0.0,8.993030636032007,10.274134441892954,10.503329872152024,10.536575125661892,0.0,0.0,0.0,0.0,0.0,0.0,0.0,0.0,0.0,0.0,0.0,7
14.89799331,0.27128904,0.96249753,0.00083952878,-0.00023662914,0.27128904,0.96249753,15.799,7.899,7.984429897729097,5.440449076788687,4.856000910710689,4.735039908682991,0.0,0.0,0.0,0.0,0.0,0.0,0.0,0.0,0.0,0.0,0.0,8.993030636032007,10.274134441892954,10.503329872152024,10.536575125661892,0.0,0.0,0.0,0.0,0.0,0.0,0.0,0.0,0.0,0.0,0.0,7
14.909699,0.28764132,0.95773772,0.00091998918,-0.00027630415,0.28764132,0.95773772,15.799,7.899,7.984429897729097,5.440449076788687,4.856000910710689,4.735039908682991,0.0,0.0,0.0,0.0,0.0,0.0,0.0,0.0,0.0,0.0,0.0,8.993030636032007,10.274134441892954,10.503329872152024,10.536575125661892,0.0,0.0,0.0,0.0,0.0,0.0,0.0,0.0,0.0,0.0,0.0,7
14.92140468,0.30434684,0.95256069,0.0010089399,-0.00032236023,0.30434684,0.95256069,15.799,7.899,7.984429897729097,5.440449076788687,4.856000910710689,4.735039908682991,0.0,0.0,0.0,0.0,0.0,0.0,0.0,0.0,0.0,0.0,0.0,8.993030636032007,10.274134441892954,10.503329872152024,10.536575125661892,0.0,0.0,0.0,0.0,0.0,0.0,0.0,0.0,0.0,0.0,0.0,7
14.93311037,0.32141431,0.94693795,0.001107348,-0.00037586148,0.32141431,0.94693795,15.799,7.899,7.984429897729097,5.440449076788687,4.856000910710689,4.735039908682991,0.0,0.0,0.0,0.0,0.0,0.0,0.0,0.0,0.0,0.0,0.0,8.993030636032007,10.274134441892954,10.503329872152024,10.536575125661892,0.0,0.0,0.0,0.0,0.0,0.0,0.0,0.0,0.0,0.0,0.0,7
14.94481605,0.33885236,0.94083867,0.0012162955,-0.00043806088,0.33885236,0.94083867,15.799,7.899,7.984429897729097,5.440449076788687,4.856000910710689,4.735039908682991,0.0,0.0,0.0,0.0,0.0,0.0,0.0,0.0,0.0,0.0,0.0,8.993030636032007,10.274134441892954,10.503329872152024,10.536575125661892,0.0,0.0,0.0,0.0,0.0,0.0,0.0,0.0,0.0,0.0,0.0,7
14.95652174,0.35666953,0.93422952,0.0013369932,-0.00051043639,0.35666953,0.93422952,15.799,7.899,7.984429897729097,5.440449076788687,4.856000910710689,4.735039908682991,0.0,0.0,0.0,0.0,0.0,0.0,0.0,0.0,0.0,0.0,0.0,8.993030636032007,10.274134441892954,10.503329872152024,10.536575125661892,0.0,0.0,0.0,0.0,0.0,0.0,0.0,0.0,0.0,0.0,0.0,7
14.96822742,0.37487412,0.92707437,0.001470795,-0.00059473438,0.37487412,0.92707437,15.799,7.899,7.984429897729097,5.440449076788687,4.856000910710689,4.735039908682991,0.0,0.0,0.0,0.0,0.0,0.0,0.0,0.0,0.0,0.0,0.0,8.993030636032007,10.274134441892954,10.503329872152024,10.536575125661892,0.0,0.0,0.0,0.0,0.0,0.0,0.0,0.0,0.0,0.0,0.0,7
14.97993311,0.39347414,0.919334,0.0016192141,-0.00069302221,0.39347414,0.919334,15.799,7.899,7.984429897729097,5.440449076788687,4.856000910710689,4.735039908682991,0.0,0.0,0.0,0.0,0.0,0.0,0.0,0.0,0.0,0.0,0.0,8.993030636032007,10.274134441892954,10.503329872152024,10.536575125661892,0.0,0.0,0.0,0.0,0.0,0.0,0.0,0.0,0.0,0.0,0.0,7
14.9916388,0.41247717,0.91096583,0.0017839397,-0.00080775192,0.41247717,0.91096583,15.799,7.899,7.984429897729097,5.440449076788687,4.856000910710689,4.735039908682991,0.0,0.0,0.0,0.0,0.0,0.0,0.0,0.0,0.0,0.0,0.0,8.993030636032007,10.274134441892954,10.503329872152024,10.536575125661892,0.0,0.0,0.0,0.0,0.0,0.0,0.0,0.0,0.0,0.0,0.0,7
15.55351171,0.020530164,-0.036841923,0.87275089,0.48634049,0.020530164,-0.036841923,15.799,7.899,7.984429897729097,5.440449076788687,4.856000910710689,4.735039908682991,0.0,0.0,0.0,0.0,0.0,0.0,0.0,0.0,0.0,0.0,0.0,8.993030636032007,10.274134441892954,10.503329872152024,10.536575125661892,0.0,0.0,0.0,0.0,0.0,0.0,0.0,0.0,0.0,0.0,0.0,7
15.56521739,0.0086930881,-0.024568161,0.94240524,0.33345645,0.0086930881,-0.024568161,15.799,7.899,7.984429897729097,5.440449076788687,4.856000910710689,4.735039908682991,0.0,0.0,0.0,0.0,0.0,0.0,0.0,0.0,0.0,0.0,0.0,8.993030636032007,10.274134441892954,10.503329872152024,10.536575125661892,0.0,0.0,0.0,0.0,0.0,0.0,0.0,0.0,0.0,0.0,0.0,7
15.57692308,0.0015434051,-0.0086555953,0.98443352,0.17553729,0.0015434051,-0.0086555953,15.799,7.899,7.984429897729097,5.440449076788687,4.856000910710689,4.735039908682991,0.0,0.0,0.0,0.0,0.0,0.0,0.0,0.0,0.0,0.0,0.0,8.993030636032007,10.274134441892954,10.503329872152024,10.536575125661892,0.0,0.0,0.0,0.0,0.0,0.0,0.0,0.0,0.0,0.0,0.0,7
15.58862876,-0.00013874524,0.0080956071,0.9998204,0.017135258,-0.00013874524,0.0080956071,15.799,7.899,7.984429897729097,5.440449076788687,4.856000910710689,4.735039908682991,0.0,0.0,0.0,0.0,0.0,0.0,0.0,0.0,0.0,0.0,0.0,8.993030636032007,10.274134441892954,10.503329872152024,10.536575125661892,0.0,0.0,0.0,0.0,0.0,0.0,0.0,0.0,0.0,0.0,0.0,7
15.60033445,0.0032328671,0.02324684,0.99019538,-0.13770345,0.0032328671,0.02324684,15.799,7.899,7.984429897729097,5.440449076788687,4.856000910710689,4.735039908682991,0.0,0.0,0.0,0.0,0.0,0.0,0.0,0.0,0.0,0.0,0.0,8.993030636032007,10.274134441892954,10.503329872152024,10.536575125661892,0.0,0.0,0.0,0.0,0.0,0.0,0.0,0.0,0.0,0.0,0.0,7
15.61204013,0.010441207,0.0350169,0.95766599,-0.28555324,0.010441207,0.0350169,15.799,7.899,7.984429897729097,5.440449076788687,4.856000910710689,4.735039908682991,0.0,0.0,0.0,0.0,0.0,0.0,0.0,0.0,0.0,0.0,0.0,8.993030636032007,10.274134441892954,10.503329872152024,10.536575125661892,0.0,0.0,0.0,0.0,0.0,0.0,0.0,0.0,0.0,0.0,0.0,7
15.62374582,0.019852859,0.04239374,0.90462374,-0.42363253,0.019852859,0.04239374,15.799,7.899,7.984429897729097,5.440449076788687,4.856000910710689,4.735039908682991,0.0,0.0,0.0,0.0,0.0,0.0,0.0,0.0,0.0,0.0,0.0,8.993030636032007,10.274134441892954,10.503329872152024,10.536575125661892,0.0,0.0,0.0,0.0,0.0,0.0,0.0,0.0,0.0,0.0,0.0,7
15.63545151,0.029748559,0.04510714,0.83357831,-0.54975228,0.029748559,0.04510714,15.799,7.899,7.984429897729097,5.440449076788687,4.856000910710689,4.735039908682991,0.0,0.0,0.0,0.0,0.0,0.0,0.0,0.0,0.0,0.0,0.0,8.993030636032007,10.274134441892954,10.503329872152024,10.536575125661892,0.0,0.0,0.0,0.0,0.0,0.0,0.0,0.0,0.0,0.0,0.0,7
15.64715719,0.038572109,0.043512665,0.74704608,-0.66222428,0.038572109,0.043512665,15.799,7.899,7.984429897729097,5.440449076788687,4.856000910710689,4.735039908682991,0.0,0.0,0.0,0.0,0.0,0.0,0.0,0.0,0.0,0.0,0.0,8.993030636032007,10.274134441892954,10.503329872152024,10.536575125661892,0.0,0.0,0.0,0.0,0.0,0.0,0.0,0.0,0.0,0.0,0.0,7
15.65886288,0.045094251,0.038430759,0.64749457,-0.75976337,0.045094251,0.038430759,15.799,7.899,7.984429897729097,5.440449076788687,4.856000910710689,4.735039908682991,0.0,0.0,0.0,0.0,0.0,0.0,0.0,0.0,0.0,0.0,0.0,8.993030636032007,10.274134441892954,10.503329872152024,10.536575125661892,0.0,0.0,0.0,0.0,0.0,0.0,0.0,0.0,0.0,0.0,0.0,7
15.67056856,0.048500708,0.030972927,0.53732905,-0.84140707,0.048500708,0.030972927,15.799,7.899,7.984429897729097,5.440449076788687,4.856000910710689,4.735039908682991,0.0,0.0,0.0,0.0,0.0,0.0,0.0,0.0,0.0,0.0,0.0,8.993030636032007,10.274134441892954,10.503329872152024,10.536575125661892,0.0,0.0,0.0,0.0,0.0,0.0,0.0,0.0,0.0,0.0,0.0,7
15.68227425,0.048418334,0.022375478,0.4189023,-0.90646338,0.048418334,0.022375478,15.799,7.899,7.984429897729097,5.440449076788687,4.856000910710689,4.735039908682991,0.0,0.0,0.0,0.0,0.0,0.0,0.0,0.0,0.0,0.0,0.0,8.993030636032007,10.274134441892954,10.503329872152024,10.536575125661892,0.0,0.0,0.0,0.0,0.0,0.0,0.0,0.0,0.0,0.0,0.0,7
15.69397993,0.044893254,0.013852878,0.29452954,-0.9544868,0.044893254,0.013852878,15.799,7.899,7.984429897729097,5.440449076788687,4.856000910710689,4.735039908682991,0.0,0.0,0.0,0.0,0.0,0.0,0.0,0.0,0.0,0.0,0.0,8.993030636032007,10.274134441892954,10.503329872152024,10.536575125661892,0.0,0.0,0.0,0.0,0.0,0.0,0.0,0.0,0.0,0.0,0.0,7
15.70568562,0.038333312,0.0064777081,0.16649558,-0.9852755,0.038333312,0.0064777081,15.799,7.899,7.984429897729097,5.440449076788687,4.856000910710689,4.735039908682991,0.0,0.0,0.0,0.0,0.0,0.0,0.0,0.0,0.0,0.0,0.0,8.993030636032007,10.274134441892954,10.503329872152024,10.536575125661892,0.0,0.0,0.0,0.0,0.0,0.0,0.0,0.0,0.0,0.0,0.0,7
15.7173913,0.029425644,0.0010913653,0.037047363,-0.99887959,0.029425644,0.0010913653,15.799,7.899,7.984429897729097,5.440449076788687,4.856000910710689,4.735039908682991,0.0,0.0,0.0,0.0,0.0,0.0,0.0,0.0,0.0,0.0,0.0,8.993030636032007,10.274134441892954,10.503329872152024,10.536575125661892,0.0,0.0,0.0,0.0,0.0,0.0,0.0,0.0,0.0,0.0,0.0,7
15.72909699,0.019039493,-0.0017522628,-0.091629002,-0.99560964,0.019039493,-0.0017522628,15.799,7.899,7.984429897729097,5.440449076788687,4.856000910710689,4.735039908682991,0.0,0.0,0.0,0.0,0.0,0.0,0.0,0.0,0.0,0.0,0.0,8.993030636032007,10.274134441892954,10.503329872152024,10.536575125661892,0.0,0.0,0.0,0.0,0.0,0.0,0.0,0.0,0.0,0.0,0.0,7
15.74080268,0.0081240912,-0.001809897,-0.21744307,-0.97603752,0.0081240912,-0.001809897,15.799,7.899,7.984429897729097,5.440449076788687,4.856000910710689,4.735039908682991,0.0,0.0,0.0,0.0,0.0,0.0,0.0,0.0,0.0,0.0,0.0,8.993030636032007,10.274134441892954,10.503329872152024,10.536575125661892,0.0,0.0,0.0,0.0,0.0,0.0,0.0,0.0,0.0,0.0,0.0,7
15.75250836,-0.0023890432,0.00085925826,-0.33844036,-0.94098442,-0.0023890432,0.00085925826,15.799,7.899,7.984429897729097,5.440449076788687,4.856000910710689,4.735039908682991,0.0,0.0,0.0,0.0,0.0,0.0,0.0,0.0,0.0,0.0,0.0,8.993030636032007,10.274134441892954,10.503329872152024,10.536575125661892,0.0,0.0,0.0,0.0,0.0,0.0,0.0,0.0,0.0,0.0,0.0,7
15.76421405,-0.01167116,0.0059284432,-0.4528409,-0.89149523,-0.01167116,0.0059284432,15.799,7.899,7.984429897729097,5.440449076788687,4.856000910710689,4.735039908682991,0.0,0.0,0.0,0.0,0.0,0.0,0.0,0.0,0.0,0.0,0.0,8.993030636032007,10.274134441892954,10.503329872152024,10.536575125661892,0.0,0.0,0.0,0.0,0.0,0.0,0.0,0.0,0.0,0.0,0.0,7
15.77591973,-0.019062443,0.012858615,-0.55907001,-0.82880155,-0.019062443,0.012858615,15.799,7.899,7.984429897729097,5.440449076788687,4.856000910710689,4.735039908682991,0.0,0.0,0.0,0.0,0.0,0.0,0.0,0.0,0.0,0.0,0.0,8.993030636032007,10.274134441892954,10.503329872152024,10.536575125661892,0.0,0.0,0.0,0.0,0.0,0.0,0.0,0.0,0.0,0.0,0.0,7
15.78762542,-0.024115618,0.020966373,-0.65577716,-0.75427791,-0.024115618,0.020966373,15.799,7.899,7.984429897729097,5.440449076788687,4.856000910710689,4.735039908682991,0.0,0.0,0.0,0.0,0.0,0.0,0.0,0.0,0.0,0.0,0.0,8.993030636032007,10.274134441892954,10.503329872152024,10.536575125661892,0.0,0.0,0.0,0.0,0.0,0.0,0.0,0.0,0.0,0.0,0.0,7
15.7993311,-0.02661615,0.029496673,-0.74184196,-0.66939676,-0.02661615,0.029496673,15.799,7.899,7.984429897729097,5.440449076788687,4.856000910710689,4.735039908682991,0.0,0.0,0.0,0.0,0.0,0.0,0.0,0.0,0.0,0.0,0.0,8.993030636032007,10.274134441892954,10.503329872152024,10.536575125661892,0.0,0.0,0.0,0.0,0.0,0.0,0.0,0.0,0.0,0.0,0.0,7
15.81103679,-0.02658058,0.037693283,-0.81636816,-0.57568717,-0.02658058,0.037693283,15.799,7.899,7.984429897729097,5.440449076788687,4.856000910710689,4.735039908682991,0.0,0.0,0.0,0.0,0.0,0.0,0.0,0.0,0.0,0.0,0.0,8.993030636032007,10.274134441892954,10.503329872152024,10.536575125661892,0.0,0.0,0.0,0.0,0.0,0.0,0.0,0.0,0.0,0.0,0.0,7
15.82274247,-0.024236385,0.044861445,-0.87866902,-0.47470074,-0.024236385,0.044861445,15.799,7.899,7.984429897729097,5.440449076788687,4.856000910710689,4.735039908682991,0.0,0.0,0.0,0.0,0.0,0.0,0.0,0.0,0.0,0.0,0.0,8.993030636032007,10.274134441892954,10.503329872152024,10.536575125661892,0.0,0.0,0.0,0.0,0.0,0.0,0.0,0.0,0.0,0.0,0.0,7
15.83444816,-0.019987682,0.050418982,-0.92824786,-0.36798686,-0.019987682,0.050418982,15.799,7.899,7.984429897729097,5.440449076788687,4.856000910710689,4.735039908682991,0.0,0.0,0.0,0.0,0.0,0.0,0.0,0.0,0.0,0.0,0.0,8.993030636032007,10.274134441892954,10.503329872152024,10.536575125661892,0.0,0.0,0.0,0.0,0.0,0.0,0.0,0.0,0.0,0.0,0.0,7
15.84615385,-0.014371333,0.053933831,-0.96477773,-0.25707691,-0.014371333,0.053933831,15.799,7.899,7.984429897729097,5.440449076788687,4.856000910710689,4.735039908682991,0.0,0.0,0.0,0.0,0.0,0.0,0.0,0.0,0.0,0.0,0.0,8.993030636032007,10.274134441892954,10.503329872152024,10.536575125661892,0.0,0.0,0.0,0.0,0.0,0.0,0.0,0.0,0.0,0.0,0.0,7
15.85785953,-0.0080077551,0.055147347,-0.98808361,-0.1434762,-0.0080077551,0.055147347,15.799,7.899,7.984429897729097,5.440449076788687,4.856000910710689,4.735039908682991,0.0,0.0,0.0,0.0,0.0,0.0,0.0,0.0,0.0,0.0,0.0,8.993030636032007,10.274134441892954,10.503329872152024,10.536575125661892,0.0,0.0,0.0,0.0,0.0,0.0,0.0,0.0,0.0,0.0,0.0,7
15.86956522,-0.001550126,0.053983711,-0.9981292,-0.028660979,-0.001550126,0.053983711,15.799,7.899,7.984429897729097,5.440449076788687,4.856000910710689,4.735039908682991,0.0,0.0,0.0,0.0,0.0,0.0,0.0,0.0,0.0,0.0,0.0,8.993030636032007,10.274134441892954,10.503329872152024,10.536575125661892,0.0,0.0,0.0,0.0,0.0,0.0,0.0,0.0,0.0,0.0,0.0,7
15.8812709,0.0043648459,0.050546409,-0.99500923,0.085922266,0.0043648459,0.050546409,15.799,7.899,7.984429897729097,5.440449076788687,4.856000910710689,4.735039908682991,0.0,0.0,0.0,0.0,0.0,0.0,0.0,0.0,0.0,0.0,0.0,8.993030636032007,10.274134441892954,10.503329872152024,10.536575125661892,0.0,0.0,0.0,0.0,0.0,0.0,0.0,0.0,0.0,0.0,0.0,7
15.89297659,0.0091620097,0.045103126,-0.978947,0.1988581,0.0091620097,0.045103126,15.799,7.899,7.984429897729097,5.440449076788687,4.856000910710689,4.735039908682991,0.0,0.0,0.0,0.0,0.0,0.0,0.0,0.0,0.0,0.0,0.0,8.993030636032007,10.274134441892954,10.503329872152024,10.536575125661892,0.0,0.0,0.0,0.0,0.0,0.0,0.0,0.0,0.0,0.0,0.0,7
15.90468227,0.012366509,0.038060649,-0.9502957,0.30876615,0.012366509,0.038060649,15.799,7.899,7.984429897729097,5.440449076788687,4.856000910710689,4.735039908682991,0.0,0.0,0.0,0.0,0.0,0.0,0.0,0.0,0.0,0.0,0.0,8.993030636032007,10.274134441892954,10.503329872152024,10.536575125661892,0.0,0.0,0.0,0.0,0.0,0.0,0.0,0.0,0.0,0.0,0.0,7
15.91638796,0.01363431,0.029931678,-0.90954164,0.41430931,0.01363431,0.029931678,15.799,7.899,7.984429897729097,5.440449076788687,4.856000910710689,4.735039908682991,0.0,0.0,0.0,0.0,0.0,0.0,0.0,0.0,0.0,0.0,0.0,8.993030636032007,10.274134441892954,10.503329872152024,10.536575125661892,0.0,0.0,0.0,0.0,0.0,0.0,0.0,0.0,0.0,0.0,0.0,7
15.92809365,0.012773007,0.021295698,-0.85730685,0.51420648,0.012773007,0.021295698,15.799,7.899,7.984429897729097,5.440449076788687,4.856000910710689,4.735039908682991,0.0,0.0,0.0,0.0,0.0,0.0,0.0,0.0,0.0,0.0,0.0,8.993030636032007,10.274134441892954,10.503329872152024,10.536575125661892,0.0,0.0,0.0,0.0,0.0,0.0,0.0,0.0,0.0,0.0,0.0,7
15.93979933,0.0097518261,0.012756462,-0.79434903,0.60724937,0.0097518261,0.012756462,15.799,7.899,7.984429897729097,5.440449076788687,4.856000910710689,4.735039908682991,0.0,0.0,0.0,0.0,0.0,0.0,0.0,0.0,0.0,0.0,0.0,8.993030636032007,10.274134441892954,10.503329872152024,10.536575125661892,0.0,0.0,0.0,0.0,0.0,0.0,0.0,0.0,0.0,0.0,0.0,7
15.95150502,0.0047003374,0.0048988213,-0.72155692,0.69232184,0.0047003374,0.0048988213,15.799,7.899,7.984429897729097,5.440449076788687,4.856000910710689,4.735039908682991,0.0,0.0,0.0,0.0,0.0,0.0,0.0,0.0,0.0,0.0,0.0,8.993030636032007,10.274134441892954,10.503329872152024,10.536575125661892,0.0,0.0,0.0,0.0,0.0,0.0,0.0,0.0,0.0,0.0,0.0,7
15.9632107,-0.0021039099,-0.0017521369,-0.63994026,0.76841978,-0.0021039099,-0.0017521369,15.799,7.899,7.984429897729097,5.440449076788687,4.856000910710689,4.735039908682991,0.0,0.0,0.0,0.0,0.0,0.0,0.0,0.0,0.0,0.0,0.0,8.993030636032007,10.274134441892954,10.503329872152024,10.536575125661892,0.0,0.0,0.0,0.0,0.0,0.0,0.0,0.0,0.0,0.0,0.0,7
15.97491639,-0.010257788,-0.006766851,-0.55061416,0.83466941,-0.010257788,-0.006766851,15.799,7.899,7.984429897729097,5.440449076788687,4.856000910710689,4.735039908682991,0.0,0.0,0.0,0.0,0.0,0.0,0.0,0.0,0.0,0.0,0.0,8.993030636032007,10.274134441892954,10.503329872152024,10.536575125661892,0.0,0.0,0.0,0.0,0.0,0.0,0.0,0.0,0.0,0.0,0.0,7
15.98662207,-0.019263232,-0.0098394864,-0.45477863,0.8903418,-0.019263232,-0.0098394864,15.799,7.899,7.984429897729097,5.440449076788687,4.856000910710689,4.735039908682991,0.0,0.0,0.0,0.0,0.0,0.0,0.0,0.0,0.0,0.0,0.0,8.993030636032007,10.274134441892954,10.503329872152024,10.536575125661892,0.0,0.0,0.0,0.0,0.0,0.0,0.0,0.0,0.0,0.0,0.0,7
15.99832776,-0.028563671,-0.010806758,-0.35369503,0.93486211,-0.028563671,-0.010806758,15.799,7.899,7.984429897729097,5.440449076788687,4.856000910710689,4.735039908682991,0.0,0.0,0.0,0.0,0.0,0.0,0.0,0.0,0.0,0.0,0.0,8.993030636032007,10.274134441892954,10.503329872152024,10.536575125661892,0.0,0.0,0.0,0.0,0.0,0.0,0.0,0.0,0.0,0.0,0.0,7
16.01003344,-0.037583444,-0.0096563603,-0.24866135,0.96781288,-0.037583444,-0.0096563603,15.799,7.899,7.984429897729097,5.440449076788687,4.856000910710689,4.735039908682991,0.0,0.0,0.0,0.0,0.0,0.0,0.0,0.0,0.0,0.0,0.0,8.993030636032007,10.274134441892954,10.503329872152024,10.536575125661892,0.0,0.0,0.0,0.0,0.0,0.0,0.0,0.0,0.0,0.0,0.0,7
16.02173913,-0.045767261,-0.0065248792,-0.14098849,0.98893126,-0.045767261,-0.0065248792,15.799,7.899,7.984429897729097,5.440449076788687,4.856000910710689,4.735039908682991,0.0,0.0,0.0,0.0,0.0,0.0,0.0,0.0,0.0,0.0,0.0,8.993030636032007,10.274134441892954,10.503329872152024,10.536575125661892,0.0,0.0,0.0,0.0,0.0,0.0,0.0,0.0,0.0,0.0,0.0,7
16.03344482,-0.052617028,-0.0016858638,-0.031979431,0.99810116,-0.052617028,-0.0016858638,15.799,7.899,7.984429897729097,5.440449076788687,4.856000910710689,4.735039908682991,0.0,0.0,0.0,0.0,0.0,0.0,0.0,0.0,0.0,0.0,0.0,8.993030636032007,10.274134441892954,10.503329872152024,10.536575125661892,0.0,0.0,0.0,0.0,0.0,0.0,0.0,0.0,0.0,0.0,0.0,7
16.0451505,-0.057723748,0.0044705879,0.077087225,0.99534192,-0.057723748,0.0044705879,15.799,7.899,7.984429897729097,5.440449076788687,4.856000910710689,4.735039908682991,0.0,0.0,0.0,0.0,0.0,0.0,0.0,0.0,0.0,0.0,0.0,8.993030636032007,10.274134441892954,10.503329872152024,10.536575125661892,0.0,0.0,0.0,0.0,0.0,0.0,0.0,0.0,0.0,0.0,0.0,7
16.05685619,-0.060792828,0.011464959,0.18496882,0.98079525,-0.060792828,0.011464959,15.799,7.899,7.984429897729097,5.440449076788687,4.856000910710689,4.735039908682991,0.0,0.0,0.0,0.0,0.0,0.0,0.0,0.0,0.0,0.0,0.0,8.993030636032007,10.274134441892954,10.503329872152024,10.536575125661892,0.0,0.0,0.0,0.0,0.0,0.0,0.0,0.0,0.0,0.0,0.0,7
16.06856187,-0.061661668,0.018760175,0.29046526,0.95471243,-0.061661668,0.018760175,15.799,7.899,7.984429897729097,5.440449076788687,4.856000910710689,4.735039908682991,0.0,0.0,0.0,0.0,0.0,0.0,0.0,0.0,0.0,0.0,0.0,8.993030636032007,10.274134441892954,10.503329872152024,10.536575125661892,0.0,0.0,0.0,0.0,0.0,0.0,0.0,0.0,0.0,0.0,0.0,7
16.08026756,-0.060309009,0.025796204,0.39242165,0.91744353,-0.060309009,0.025796204,15.799,7.899,7.984429897729097,5.440449076788687,4.856000910710689,4.735039908682991,0.0,0.0,0.0,0.0,0.0,0.0,0.0,0.0,0.0,0.0,0.0,8.993030636032007,10.274134441892954,10.503329872152024,10.536575125661892,0.0,0.0,0.0,0.0,0.0,0.0,0.0,0.0,0.0,0.0,0.0,7
