freq,s11_real,s11_imag,s21_real,s21_imag,s22_real,s22_imag,a,b,a2_1,a2_2,a2_3,a2_4,a2_5,a2_6,a2_7,a2_8,a2_9,a2_10,a2_11,a2_12,a2_13,a2_14,a2_15,l_1,l_2,l_3,l_4,l_5,l_6,l_7,l_8,l_9,l_10,l_11,l_12,l_13,l_14,l_15,order
14.85117057,-0.18732481,0.98229801,0.00020370133,3.8845964e-05,-0.18732481,0.98229801,15.799,7.899,7.389066614717544,5.406614561705814,4.616835799413556,4.698108967113482,0.0,0.0,0.0,0.0,0.0,0.0,0.0,0.0,0.0,0.0,0.0,9.368424239606687,10.23175044364117,10.452095438536988,10.485342784820096,0.0,0.0,0.0,0.0,0.0,0.0,0.0,0.0,0.0,0.0,0.0,7
14.86287625,-0.17550005,0.9844794,0.00022314053,3.9778562e-05,-0.17550005,0.9844794,15.799,7.899,7.389066614717544,5.406614561705814,4.616835799413556,4.698108967113482,0.0,0.0,0.0,0.0,0.0,0.0,0.0,0.0,0.0,0.0,0.0,9.368424239606687,10.23175044364117,10.452095438536988,10.485342784820096,0.0,0.0,0.0,0.0,0.0,0.0,0.0,0.0,0.0,0.0,0.0,7
14.87458194,-0.1633331,0.98657095,0.00024465643,4.0504429e-05,-0.1633331,0.98657095,15.799,7.899,7.389066614717544,5.406614561705814,4.616835799413556,4.698108967113482,0.0,0.0,0.0,0.0,0.0,0.0,0.0,0.0,0.0,0.0,0.0,9.368424239606687,10.23175044364117,10.452095438536988,10.485342784820096,0.0,0.0,0.0,0.0,0.0,0.0,0.0,0.0,0.0,0.0,0.0,7
14.88628763,-0.15080907,0.98856287,0.00026849483,4.095992e-05,-0.15080907,0.98856287,15.799,7.899,7.389066614717544,5.406614561705814,4.616835799413556,4.698108967113482,0.0,0.0,0.0,0.0,0.0,0.0,0.0,0.0,0.0,0.0,0.0,9.368424239606687,10.23175044364117,10.452095438536988,10.485342784820096,0.0,0.0,0.0,0.0,0.0,0.0,0.0,0.0,0.0,0.0,0.0,7
14.89799331,-0.13791228,0.9904444,0.0002949334,4.1067361e-05,-0.13791228,0.9904444,15.799,7.899,7.389066614717544,5.406614561705814,4.616835799413556,4.698108967113482,0.0,0.0,0.0,0.0,0.0,0.0,0.0,0.0,0.0,0.0,0.0,9.368424239606687,10.23175044364117,10.452095438536988,10.485342784820096,0.0,0.0,0.0,0.0,0.0,0.0,0.0,0.0,0.0,0.0,0.0,7
14.909699,-0.12462618,0.99220371,0.00032428617,4.0732105e-05,-0.12462618,0.99220371,15.799,7.899,7.389066614717544,5.406614561705814,4.616835799413556,4.698108967113482,0.0,0.0,0.0,0.0,0.0,0.0,0.0,0.0,0.0,0.0,0.0,9.368424239606687,10.23175044364117,10.452095438536988,10.485342784820096,0.0,0.0,0.0,0.0,0.0,0.0,0.0,0.0,0.0,0.0,0.0,7
14.92140468,-0.11093332,0.99382779,0.00035690863,3.9838954e-05,-0.11093332,0.99382779,15.799,7.899,7.389066614717544,5.406614561705814,4.616835799413556,4.698108967113482,0.0,0.0,0.0,0.0,0.0,0.0,0.0,0.0,0.0,0.0,0.0,9.368424239606687,10.23175044364117,10.452095438536988,10.485342784820096,0.0,0.0,0.0,0.0,0.0,0.0,0.0,0.0,0.0,0.0,0.0,7
14.93311037,-0.096815316,0.99530228,0.00039320363,3.8247811e-05,-0.096815316,0.99530228,15.799,7.899,7.389066614717544,5.406614561705814,4.616835799413556,4.698108967113482,0.0,0.0,0.0,0.0,0.0,0.0,0.0,0.0,0.0,0.0,0.0,9.368424239606687,10.23175044364117,10.452095438536988,10.485342784820096,0.0,0.0,0.0,0.0,0.0,0.0,0.0,0.0,0.0,0.0,0.0,7
14.94481605,-0.082252768,0.99661141,0.00043362821,3.5788392e-05,-0.082252768,0.99661141,15.799,7.899,7.389066614717544,5.406614561705814,4.616835799413556,4.698108967113482,0.0,0.0,0.0,0.0,0.0,0.0,0.0,0.0,0.0,0.0,0.0,9.368424239606687,10.23175044364117,10.452095438536988,10.485342784820096,0.0,0.0,0.0,0.0,0.0,0.0,0.0,0.0,0.0,0.0,0.0,7
14.95652174,-0.067225225,0.99773771,0.00047870133,3.2253772e-05,-0.067225225,0.99773771,15.799,7.899,7.389066614717544,5.406614561705814,4.616835799413556,4.698108967113482,0.0,0.0,0.0,0.0,0.0,0.0,0.0,0.0,0.0,0.0,0.0,9.368424239606687,10.23175044364117,10.452095438536988,10.485342784820096,0.0,0.0,0.0,0.0,0.0,0.0,0.0,0.0,0.0,0.0,0.0,7
14.96822742,-0.051711128,0.99866194,0.00052901295,2.7392509e-05,-0.051711128,0.99866194,15.799,7.899,7.389066614717544,5.406614561705814,4.616835799413556,4.698108967113482,0.0,0.0,0.0,0.0,0.0,0.0,0.0,0.0,0.0,0.0,0.0,9.368424239606687,10.23175044364117,10.452095438536988,10.485342784820096,0.0,0.0,0.0,0.0,0.0,0.0,0.0,0.0,0.0,0.0,0.0,7
14.97993311,-0.035687755,0.99936282,0.00058523427,2.0899013e-05,-0.035687755,0.99936282,15.799,7.899,7.389066614717544,5.406614561705814,4.616835799413556,4.698108967113482,0.0,0.0,0.0,0.0,0.0,0.0,0.0,0.0,0.0,0.0,0.0,9.368424239606687,10.23175044364117,10.452095438536988,10.485342784820096,0.0,0.0,0.0,0.0,0.0,0.0,0.0,0.0,0.0,0.0,0.0,7
14.9916388,-0.019131164,0.99981677,0.0006481297,1.2401748e-05,-0.019131164,0.99981677,15.799,7.899,7.389066614717544,5.406614561705814,4.616835799413556,4.698108967113482,0.0,0.0,0.0,0.0,0.0,0.0,0.0,0.0,0.0,0.0,0.0,9.368424239606687,10.23175044364117,10.452095438536988,10.485342784820096,0.0,0.0,0.0,0.0,0.0,0.0,0.0,0.0,0.0,0.0,0.0,7
15.55351171,-0.48104127,-0.47160895,-0.51738267,0.52773049,-0.48104127,-0.47160895,15.799,7.899,7.389066614717544,5.406614561705814,4.616835799413556,4.698108967113482,0.0,0.0,0.0,0.0,0.0,0.0,0.0,0.0,0.0,0.0,0.0,9.368424239606687,10.23175044364117,10.452095438536988,10.485342784820096,0.0,0.0,0.0,0.0,0.0,0.0,0.0,0.0,0.0,0.0,0.0,7
15.56521739,-0.51828421,-0.30120032,-0.40217614,0.69203627,-0.51828421,-0.30120032,15.799,7.899,7.389066614717544,5.406614561705814,4.616835799413556,4.698108967113482,0.0,0.0,0.0,0.0,0.0,0.0,0.0,0.0,0.0,0.0,0.0,9.368424239606687,10.23175044364117,10.452095438536988,10.485342784820096,0.0,0.0,0.0,0.0,0.0,0.0,0.0,0.0,0.0,0.0,0.0,7
15.57692308,-0.50015249,-0.14417661,-0.23650511,0.82044252,-0.50015249,-0.14417661,15.799,7.899,7.389066614717544,5.406614561705814,4.616835799413556,4.698108967113482,0.0,0.0,0.0,0.0,0.0,0.0,0.0,0.0,0.0,0.0,0.0,9.368424239606687,10.23175044364117,10.452095438536988,10.485342784820096,0.0,0.0,0.0,0.0,0.0,0.0,0.0,0.0,0.0,0.0,0.0,7
15.58862876,-0.43772652,-0.017305479,-0.035511834,0.8982399,-0.43772652,-0.017305479,15.799,7.899,7.389066614717544,5.406614561705814,4.616835799413556,4.698108967113482,0.0,0.0,0.0,0.0,0.0,0.0,0.0,0.0,0.0,0.0,0.0,9.368424239606687,10.23175044364117,10.452095438536988,10.485342784820096,0.0,0.0,0.0,0.0,0.0,0.0,0.0,0.0,0.0,0.0,0.0,7
15.60033445,-0.34604673,0.068840476,0.18256287,0.91770553,-0.34604673,0.068840476,15.799,7.899,7.389066614717544,5.406614561705814,4.616835799413556,4.698108967113482,0.0,0.0,0.0,0.0,0.0,0.0,0.0,0.0,0.0,0.0,0.0,9.368424239606687,10.23175044364117,10.452095438536988,10.485342784820096,0.0,0.0,0.0,0.0,0.0,0.0,0.0,0.0,0.0,0.0,0.0,7
15.61204013,-0.24143272,0.10980723,0.39917866,0.8776725,-0.24143272,0.10980723,15.799,7.899,7.389066614717544,5.406614561705814,4.616835799413556,4.698108967113482,0.0,0.0,0.0,0.0,0.0,0.0,0.0,0.0,0.0,0.0,0.0,9.368424239606687,10.23175044364117,10.452095438536988,10.485342784820096,0.0,0.0,0.0,0.0,0.0,0.0,0.0,0.0,0.0,0.0,0.0,7
15.62374582,-0.13967748,0.10660943,0.59728191,0.78254645,-0.13967748,0.10660943,15.799,7.899,7.389066614717544,5.406614561705814,4.616835799413556,4.698108967113482,0.0,0.0,0.0,0.0,0.0,0.0,0.0,0.0,0.0,0.0,0.0,9.368424239606687,10.23175044364117,10.452095438536988,10.485342784820096,0.0,0.0,0.0,0.0,0.0,0.0,0.0,0.0,0.0,0.0,0.0,7
15.63545151,-0.054703783,0.065039887,0.76252869,0.64134804,-0.054703783,0.065039887,15.799,7.899,7.389066614717544,5.406614561705814,4.616835799413556,4.698108967113482,0.0,0.0,0.0,0.0,0.0,0.0,0.0,0.0,0.0,0.0,0.0,9.368424239606687,10.23175044364117,10.452095438536988,10.485342784820096,0.0,0.0,0.0,0.0,0.0,0.0,0.0,0.0,0.0,0.0,0.0,7
15.64715719,0.0027129784,-0.0051407905,0.88438519,0.4667216,0.0027129784,-0.0051407905,15.799,7.899,7.389066614717544,5.406614561705814,4.616835799413556,4.698108967113482,0.0,0.0,0.0,0.0,0.0,0.0,0.0,0.0,0.0,0.0,0.0,9.368424239606687,10.23175044364117,10.452095438536988,10.485342784820096,0.0,0.0,0.0,0.0,0.0,0.0,0.0,0.0,0.0,0.0,0.0,7
15.65886288,0.026143293,-0.091464041,0.95713397,0.27357892,0.026143293,-0.091464041,15.799,7.899,7.389066614717544,5.406614561705814,4.616835799413556,4.698108967113482,0.0,0.0,0.0,0.0,0.0,0.0,0.0,0.0,0.0,0.0,0.0,9.368424239606687,10.23175044364117,10.452095438536988,10.485342784820096,0.0,0.0,0.0,0.0,0.0,0.0,0.0,0.0,0.0,0.0,0.0,7
15.67056856,0.014225968,-0.18059516,0.98041752,0.077230134,0.014225968,-0.18059516,15.799,7.899,7.389066614717544,5.406614561705814,4.616835799413556,4.698108967113482,0.0,0.0,0.0,0.0,0.0,0.0,0.0,0.0,0.0,0.0,0.0,9.368424239606687,10.23175044364117,10.452095438536988,10.485342784820096,0.0,0.0,0.0,0.0,0.0,0.0,0.0,0.0,0.0,0.0,0.0,7
15.68227425,-0.029528049,-0.26045091,0.95889261,-0.10871234,-0.029528049,-0.26045091,15.799,7.899,7.389066614717544,5.406614561705814,4.616835799413556,4.698108967113482,0.0,0.0,0.0,0.0,0.0,0.0,0.0,0.0,0.0,0.0,0.0,9.368424239606687,10.23175044364117,10.452095438536988,10.485342784820096,0.0,0.0,0.0,0.0,0.0,0.0,0.0,0.0,0.0,0.0,0.0,7
15.69397993,-0.097944559,-0.32197334,0.90090677,-0.2740566,-0.097944559,-0.32197334,15.799,7.899,7.389066614717544,5.406614561705814,4.616835799413556,4.698108967113482,0.0,0.0,0.0,0.0,0.0,0.0,0.0,0.0,0.0,0.0,0.0,9.368424239606687,10.23175044364117,10.452095438536988,10.485342784820096,0.0,0.0,0.0,0.0,0.0,0.0,0.0,0.0,0.0,0.0,0.0,7
15.70568562,-0.18202247,-0.36001923,0.8165807,-0.41285582,-0.18202247,-0.36001923,15.799,7.899,7.389066614717544,5.406614561705814,4.616835799413556,4.698108967113482,0.0,0.0,0.0,0.0,0.0,0.0,0.0,0.0,0.0,0.0,0.0,9.368424239606687,10.23175044364117,10.452095438536988,10.485342784820096,0.0,0.0,0.0,0.0,0.0,0.0,0.0,0.0,0.0,0.0,0.0,7
15.7173913,-0.27276556,-0.37323174,0.71592346,-0.52321182,-0.27276556,-0.37323174,15.799,7.899,7.389066614717544,5.406614561705814,4.616835799413556,4.698108967113482,0.0,0.0,0.0,0.0,0.0,0.0,0.0,0.0,0.0,0.0,0.0,9.368424239606687,10.23175044364117,10.452095438536988,10.485342784820096,0.0,0.0,0.0,0.0,0.0,0.0,0.0,0.0,0.0,0.0,0.0,7
15.72909699,-0.36250044,-0.3631788,0.60748329,-0.60634862,-0.36250044,-0.3631788,15.799,7.899,7.389066614717544,5.406614561705814,4.616835799413556,4.698108967113482,0.0,0.0,0.0,0.0,0.0,0.0,0.0,0.0,0.0,0.0,0.0,9.368424239606687,10.23175044364117,10.452095438536988,10.485342784820096,0.0,0.0,0.0,0.0,0.0,0.0,0.0,0.0,0.0,0.0,0.0,7
15.74080268,-0.44550143,-0.33321775,0.49770725,-0.66541859,-0.44550143,-0.33321775,15.799,7.899,7.389066614717544,5.406614561705814,4.616835799413556,4.698108967113482,0.0,0.0,0.0,0.0,0.0,0.0,0.0,0.0,0.0,0.0,0.0,9.368424239606687,10.23175044364117,10.452095438536988,10.485342784820096,0.0,0.0,0.0,0.0,0.0,0.0,0.0,0.0,0.0,0.0,0.0,7
15.75250836,-0.51803199,-0.28746468,0.39089478,-0.70442046,-0.51803199,-0.28746468,15.799,7.899,7.389066614717544,5.406614561705814,4.616835799413556,4.698108967113482,0.0,0.0,0.0,0.0,0.0,0.0,0.0,0.0,0.0,0.0,0.0,9.368424239606687,10.23175044364117,10.452095438536988,10.485342784820096,0.0,0.0,0.0,0.0,0.0,0.0,0.0,0.0,0.0,0.0,0.0,7
15.76421405,-0.57803757,-0.23005528,0.28950666,-0.7274153,-0.57803757,-0.23005528,15.799,7.899,7.389066614717544,5.406614561705814,4.616835799413556,4.698108967113482,0.0,0.0,0.0,0.0,0.0,0.0,0.0,0.0,0.0,0.0,0.0,9.368424239606687,10.23175044364117,10.452095438536988,10.485342784820096,0.0,0.0,0.0,0.0,0.0,0.0,0.0,0.0,0.0,0.0,0.0,7
15.77591973,-0.62470871,-0.16471941,0.19460753,-0.73806128,-0.62470871,-0.16471941,15.799,7.899,7.389066614717544,5.406614561705814,4.616835799413556,4.698108967113482,0.0,0.0,0.0,0.0,0.0,0.0,0.0,0.0,0.0,0.0,0.0,9.368424239606687,10.23175044364117,10.452095438536988,10.485342784820096,0.0,0.0,0.0,0.0,0.0,0.0,0.0,0.0,0.0,0.0,0.0,7
15.78762542,-0.65805713,-0.094603846,0.10629782,-0.73939955,-0.65805713,-0.094603846,15.799,7.899,7.389066614717544,5.406614561705814,4.616835799413556,4.698108967113482,0.0,0.0,0.0,0.0,0.0,0.0,0.0,0.0,0.0,0.0,0.0,9.368424239606687,10.23175044364117,10.452095438536988,10.485342784820096,0.0,0.0,0.0,0.0,0.0,0.0,0.0,0.0,0.0,0.0,0.0,7
15.7993311,-0.67857132,-0.02225654,0.024068079,-0.73380266,-0.67857132,-0.02225654,15.799,7.899,7.389066614717544,5.406614561705814,4.616835799413556,4.698108967113482,0.0,0.0,0.0,0.0,0.0,0.0,0.0,0.0,0.0,0.0,0.0,9.368424239606687,10.23175044364117,10.452095438536988,10.485342784820096,0.0,0.0,0.0,0.0,0.0,0.0,0.0,0.0,0.0,0.0,0.0,7
15.81103679,-0.68696734,0.050300927,-0.052940011,-0.72300971,-0.68696734,0.050300927,15.799,7.899,7.389066614717544,5.406614561705814,4.616835799413556,4.698108967113482,0.0,0.0,0.0,0.0,0.0,0.0,0.0,0.0,0.0,0.0,0.0,9.368424239606687,10.23175044364117,10.452095438536988,10.485342784820096,0.0,0.0,0.0,0.0,0.0,0.0,0.0,0.0,0.0,0.0,0.0,7
15.82274247,-0.68402529,0.12146251,-0.12575457,-0.70819633,-0.68402529,0.12146251,15.799,7.899,7.389066614717544,5.406614561705814,4.616835799413556,4.698108967113482,0.0,0.0,0.0,0.0,0.0,0.0,0.0,0.0,0.0,0.0,0.0,9.368424239606687,10.23175044364117,10.452095438536988,10.485342784820096,0.0,0.0,0.0,0.0,0.0,0.0,0.0,0.0,0.0,0.0,0.0,7
15.83444816,-0.67049355,0.18991731,-0.1954562,-0.69004832,-0.67049355,0.18991731,15.799,7.899,7.389066614717544,5.406614561705814,4.616835799413556,4.698108967113482,0.0,0.0,0.0,0.0,0.0,0.0,0.0,0.0,0.0,0.0,0.0,9.368424239606687,10.23175044364117,10.452095438536988,10.485342784820096,0.0,0.0,0.0,0.0,0.0,0.0,0.0,0.0,0.0,0.0,0.0,7
15.84615385,-0.64704393,0.2545335,-0.26310107,-0.66882336,-0.64704393,0.2545335,15.799,7.899,7.389066614717544,5.406614561705814,4.616835799413556,4.698108967113482,0.0,0.0,0.0,0.0,0.0,0.0,0.0,0.0,0.0,0.0,0.0,9.368424239606687,10.23175044364117,10.452095438536988,10.485342784820096,0.0,0.0,0.0,0.0,0.0,0.0,0.0,0.0,0.0,0.0,0.0,7
15.85785953,-0.61426531,0.31425214,-0.32966588,-0.64439439,-0.61426531,0.31425214,15.799,7.899,7.389066614717544,5.406614561705814,4.616835799413556,4.698108967113482,0.0,0.0,0.0,0.0,0.0,0.0,0.0,0.0,0.0,0.0,0.0,9.368424239606687,10.23175044364117,10.452095438536988,10.485342784820096,0.0,0.0,0.0,0.0,0.0,0.0,0.0,0.0,0.0,0.0,0.0,7
15.86956522,-0.57268911,0.36799198,-0.39599856,-0.61627447,-0.57268911,0.36799198,15.799,7.899,7.389066614717544,5.406614561705814,4.616835799413556,4.698108967113482,0.0,0.0,0.0,0.0,0.0,0.0,0.0,0.0,0.0,0.0,0.0,9.368424239606687,10.23175044364117,10.452095438536988,10.485342784820096,0.0,0.0,0.0,0.0,0.0,0.0,0.0,0.0,0.0,0.0,0.0,7
15.8812709,-0.52284481,0.41456652,-0.4627609,-0.58362681,-0.52284481,0.41456652,15.799,7.899,7.389066614717544,5.406614561705814,4.616835799413556,4.698108967113482,0.0,0.0,0.0,0.0,0.0,0.0,0.0,0.0,0.0,0.0,0.0,9.368424239606687,10.23175044364117,10.452095438536988,10.485342784820096,0.0,0.0,0.0,0.0,0.0,0.0,0.0,0.0,0.0,0.0,0.0,7
15.89297659,-0.46534826,0.45261687,-0.53035035,-0.54526825,-0.46534826,0.45261687,15.799,7.899,7.389066614717544,5.406614561705814,4.616835799413556,4.698108967113482,0.0,0.0,0.0,0.0,0.0,0.0,0.0,0.0,0.0,0.0,0.0,9.368424239606687,10.23175044364117,10.452095438536988,10.485342784820096,0.0,0.0,0.0,0.0,0.0,0.0,0.0,0.0,0.0,0.0,0.0,7
15.90468227,-0.40102795,0.48056996,-0.59878944,-0.49968021,-0.40102795,0.48056996,15.799,7.899,7.389066614717544,5.406614561705814,4.616835799413556,4.698108967113482,0.0,0.0,0.0,0.0,0.0,0.0,0.0,0.0,0.0,0.0,0.0,9.368424239606687,10.23175044364117,10.452095438536988,10.485342784820096,0.0,0.0,0.0,0.0,0.0,0.0,0.0,0.0,0.0,0.0,0.0,7
15.91638796,-0.33109344,0.49664048,-0.66757487,-0.44504962,-0.33109344,0.49664048,15.799,7.899,7.389066614717544,5.406614561705814,4.616835799413556,4.698108967113482,0.0,0.0,0.0,0.0,0.0,0.0,0.0,0.0,0.0,0.0,0.0,9.368424239606687,10.23175044364117,10.452095438536988,10.485342784820096,0.0,0.0,0.0,0.0,0.0,0.0,0.0,0.0,0.0,0.0,0.0,7
15.92809365,-0.2573424,0.49890704,-0.73548778,-0.37937367,-0.2573424,0.49890704,15.799,7.899,7.389066614717544,5.406614561705814,4.616835799413556,4.698108967113482,0.0,0.0,0.0,0.0,0.0,0.0,0.0,0.0,0.0,0.0,0.0,9.368424239606687,10.23175044364117,10.452095438536988,10.485342784820096,0.0,0.0,0.0,0.0,0.0,0.0,0.0,0.0,0.0,0.0,0.0,7
15.93979933,-0.18238387,0.48550376,-0.80038638,-0.30067236,-0.18238387,0.48550376,15.799,7.899,7.389066614717544,5.406614561705814,4.616835799413556,4.698108967113482,0.0,0.0,0.0,0.0,0.0,0.0,0.0,0.0,0.0,0.0,0.0,9.368424239606687,10.23175044364117,10.452095438536988,10.485342784820096,0.0,0.0,0.0,0.0,0.0,0.0,0.0,0.0,0.0,0.0,0.0,7
15.95150502,-0.10982046,0.45497036,-0.8590377,-0.20735397,-0.10982046,0.45497036,15.799,7.899,7.389066614717544,5.406614561705814,4.616835799413556,4.698108967113482,0.0,0.0,0.0,0.0,0.0,0.0,0.0,0.0,0.0,0.0,0.0,9.368424239606687,10.23175044364117,10.452095438536988,10.485342784820096,0.0,0.0,0.0,0.0,0.0,0.0,0.0,0.0,0.0,0.0,0.0,7
15.9632107,-0.044284411,0.40677776,-0.9070936,-0.098751971,-0.044284411,0.40677776,15.799,7.899,7.389066614717544,5.406614561705814,4.616835799413556,4.698108967113482,0.0,0.0,0.0,0.0,0.0,0.0,0.0,0.0,0.0,0.0,0.0,9.368424239606687,10.23175044364117,10.452095438536988,10.485342784820096,0.0,0.0,0.0,0.0,0.0,0.0,0.0,0.0,0.0,0.0,0.0,7
15.97491639,0.008817735,0.34197332,-0.93935607,0.024221167,0.008817735,0.34197332,15.799,7.899,7.389066614717544,5.406614561705814,4.616835799413556,4.698108967113482,0.0,0.0,0.0,0.0,0.0,0.0,0.0,0.0,0.0,0.0,0.0,9.368424239606687,10.23175044364117,10.452095438536988,10.485342784820096,0.0,0.0,0.0,0.0,0.0,0.0,0.0,0.0,0.0,0.0,0.0,7
15.98662207,0.043981057,0.26376508,-0.95046135,0.15848305,0.043981057,0.26376508,15.799,7.899,7.389066614717544,5.406614561705814,4.616835799413556,4.698108967113482,0.0,0.0,0.0,0.0,0.0,0.0,0.0,0.0,0.0,0.0,0.0,9.368424239606687,10.23175044364117,10.452095438536988,10.485342784820096,0.0,0.0,0.0,0.0,0.0,0.0,0.0,0.0,0.0,0.0,0.0,7
15.99832776,0.056695173,0.17773908,-0.93597933,0.29855848,0.056695173,0.17773908,15.799,7.899,7.389066614717544,5.406614561705814,4.616835799413556,4.698108967113482,0.0,0.0,0.0,0.0,0.0,0.0,0.0,0.0,0.0,0.0,0.0,9.368424239606687,10.23175044364117,10.452095438536988,10.485342784820096,0.0,0.0,0.0,0.0,0.0,0.0,0.0,0.0,0.0,0.0,0.0,7
16.01003344,0.044696993,0.091398636,-0.89367145,0.43703525,0.044696993,0.091398636,15.799,7.899,7.389066614717544,5.406614561705814,4.616835799413556,4.698108967113482,0.0,0.0,0.0,0.0,0.0,0.0,0.0,0.0,0.0,0.0,0.0,9.368424239606687,10.23175044364117,10.452095438536988,10.485342784820096,0.0,0.0,0.0,0.0,0.0,0.0,0.0,0.0,0.0,0.0,0.0,7
16.02173913,0.0088840721,0.012945172,-0.82440784,0.56577841,0.0088840721,0.012945172,15.799,7.899,7.389066614717544,5.406614561705814,4.616835799413556,4.698108967113482,0.0,0.0,0.0,0.0,0.0,0.0,0.0,0.0,0.0,0.0,0.0,9.368424239606687,10.23175044364117,10.452095438536988,10.485342784820096,0.0,0.0,0.0,0.0,0.0,0.0,0.0,0.0,0.0,0.0,0.0,7
16.03344482,-0.04660452,-0.050365664,-0.73225107,0.67756895,-0.04660452,-0.050365664,15.799,7.899,7.389066614717544,5.406614561705814,4.616835799413556,4.698108967113482,0.0,0.0,0.0,0.0,0.0,0.0,0.0,0.0,0.0,0.0,0.0,9.368424239606687,10.23175044364117,10.452095438536988,10.485342784820096,0.0,0.0,0.0,0.0,0.0,0.0,0.0,0.0,0.0,0.0,0.0,7
16.0451505,-0.11526947,-0.093650892,-0.62357693,0.76752477,-0.11526947,-0.093650892,15.799,7.899,7.389066614717544,5.406614561705814,4.616835799413556,4.698108967113482,0.0,0.0,0.0,0.0,0.0,0.0,0.0,0.0,0.0,0.0,0.0,9.368424239606687,10.23175044364117,10.452095438536988,10.485342784820096,0.0,0.0,0.0,0.0,0.0,0.0,0.0,0.0,0.0,0.0,0.0,7
16.05685619,-0.18972298,-0.11505268,-0.50560415,0.83374607,-0.18972298,-0.11505268,15.799,7.899,7.389066614717544,5.406614561705814,4.616835799413556,4.698108967113482,0.0,0.0,0.0,0.0,0.0,0.0,0.0,0.0,0.0,0.0,0.0,9.368424239606687,10.23175044364117,10.452095438536988,10.485342784820096,0.0,0.0,0.0,0.0,0.0,0.0,0.0,0.0,0.0,0.0,0.0,7
16.06856187,-0.26312658,-0.11549123,-0.38495802,0.87705958,-0.26312658,-0.11549123,15.799,7.899,7.389066614717544,5.406614561705814,4.616835799413556,4.698108967113482,0.0,0.0,0.0,0.0,0.0,0.0,0.0,0.0,0.0,0.0,0.0,9.368424239606687,10.23175044364117,10.452095438536988,10.485342784820096,0.0,0.0,0.0,0.0,0.0,0.0,0.0,0.0,0.0,0.0,0.0,7
16.08026756,-0.33012054,-0.097823245,-0.26674255,0.90016635,-0.33012054,-0.097823245,15.799,7.899,7.389066614717544,5.406614561705814,4.616835799413556,4.698108967113482,0.0,0.0,0.0,0.0,0.0,0.0,0.0,0.0,0.0,0.0,0.0,9.368424239606687,10.23175044364117,10.452095438536988,10.485342784820096,0.0,0.0,0.0,0.0,0.0,0.0,0.0,0.0,0.0,0.0,0.0,7
