freq,s11_real,s11_imag,s21_real,s21_imag,s22_real,s22_imag,a,b,a2_1,a2_2,a2_3,a2_4,a2_5,a2_6,a2_7,a2_8,a2_9,a2_10,a2_11,a2_12,a2_13,a2_14,a2_15,l_1,l_2,l_3,l_4,l_5,l_6,l_7,l_8,l_9,l_10,l_11,l_12,l_13,l_14,l_15,order
14.85117057,0.18548145,0.98264761,0.00053905838,-0.00010175095,0.18548145,0.98264761,15.799,7.899,7.967952575105333,5.430608215666036,4.85208017701193,4.7333361123076845,0.0,0.0,0.0,0.0,0.0,0.0,0.0,0.0,0.0,0.0,0.0,8.989314181221118,10.2663911031419,10.49320327653398,10.528112527348872,0.0,0.0,0.0,0.0,0.0,0.0,0.0,0.0,0.0,0.0,0.0,7
14.86287625,0.20012403,0.97977039,0.0005886806,-0.00012024157,0.20012403,0.97977039,15.799,7.899,7.967952575105333,5.430608215666036,4.85208017701193,4.7333361123076845,0.0,0.0,0.0,0.0,0.0,0.0,0.0,0.0,0.0,0.0,0.0,8.989314181221118,10.2663911031419,10.49320327653398,10.528112527348872,0.0,0.0,0.0,0.0,0.0,0.0,0.0,0.0,0.0,0.0,0.0,7
14.87458194,0.21507847,0.97659655,0.0006433592,-0.00014168871,0.21507847,0.97659655,15.799,7.899,7.967952575105333,5.430608215666036,4.85208017701193,4.7333361123076845,0.0,0.0,0.0,0.0,0.0,0.0,0.0,0.0,0.0,0.0,0.0,8.989314181221118,10.2663911031419,10.49320327653398,10.528112527348872,0.0,0.0,0.0,0.0,0.0,0.0,0.0,0.0,0.0,0.0,0.0,7
14.88628763,0.23035338,0.97310678,0.00070365663,-0.00016656927,0.23035338,0.97310678,15.799,7.899,7.967952575105333,5.430608215666036,4.85208017701193,4.7333361123076845,0.0,0.0,0.0,0.0,0.0,0.0,0.0,0.0,0.0,0.0,0.0,8.989314181221118,10.2663911031419,10.49320327653398,10.528112527348872,0.0,0.0,0.0,0.0,0.0,0.0,0.0,0.0,0.0,0.0,0.0,7
14.89799331,0.24595755,0.96928027,0.00077020237,-0.00019544098,0.24595755,0.96928027,15.799,7.899,7.967952575105333,5.430608215666036,4.85208017701193,4.7333361123076845,0.0,0.0,0.0,0.0,0.0,0.0,0.0,0.0,0.0,0.0,0.0,8.989314181221118,10.2663911031419,10.49320327653398,10.528112527348872,0.0,0.0,0.0,0.0,0.0,0.0,0.0,0.0,0.0,0.0,0.0,7
14.909699,0.26189989,0.96509465,0.00084370127,-0.0002289571,0.26189989,0.96509465,15.799,7.899,7.967952575105333,5.430608215666036,4.85208017701193,4.7333361123076845,0.0,0.0,0.0,0.0,0.0,0.0,0.0,0.0,0.0,0.0,0.0,8.989314181221118,10.2663911031419,10.49320327653398,10.528112527348872,0.0,0.0,0.0,0.0,0.0,0.0,0.0,0.0,0.0,0.0,0.0,7
14.92140468,0.27818941,0.96052575,0.00092494284,-0.00026788381,0.27818941,0.96052575,15.799,7.899,7.967952575105333,5.430608215666036,4.85208017701193,4.7333361123076845,0.0,0.0,0.0,0.0,0.0,0.0,0.0,0.0,0.0,0.0,0.0,8.989314181221118,10.2663911031419,10.49320327653398,10.528112527348872,0.0,0.0,0.0,0.0,0.0,0.0,0.0,0.0,0.0,0.0,0.0,7
14.93311037,0.29483522,0.95554752,0.0010148117,-0.00031312125,0.29483522,0.95554752,15.799,7.899,7.967952575105333,5.430608215666036,4.85208017701193,4.7333361123076845,0.0,0.0,0.0,0.0,0.0,0.0,0.0,0.0,0.0,0.0,0.0,8.989314181221118,10.2663911031419,10.49320327653398,10.528112527348872,0.0,0.0,0.0,0.0,0.0,0.0,0.0,0.0,0.0,0.0,0.0,7
14.94481605,0.31184645,0.95013179,0.0011142993,-0.00036572851,0.31184645,0.95013179,15.799,7.899,7.967952575105333,5.430608215666036,4.85208017701193,4.7333361123076845,0.0,0.0,0.0,0.0,0.0,0.0,0.0,0.0,0.0,0.0,0.0,8.989314181221118,10.2663911031419,10.49320327653398,10.528112527348872,0.0,0.0,0.0,0.0,0.0,0.0,0.0,0.0,0.0,0.0,0.0,7
14.95652174,0.32923225,0.94424808,0.0012245166,-0.00042695386,0.32923225,0.94424808,15.799,7.899,7.967952575105333,5.430608215666036,4.85208017701193,4.7333361123076845,0.0,0.0,0.0,0.0,0.0,0.0,0.0,0.0,0.0,0.0,0.0,8.989314181221118,10.2663911031419,10.49320327653398,10.528112527348872,0.0,0.0,0.0,0.0,0.0,0.0,0.0,0.0,0.0,0.0,0.0,7
14.96822742,0.34700167,0.93786341,0.0013467088,-0.00049827107,0.34700167,0.93786341,15.799,7.899,7.967952575105333,5.430608215666036,4.85208017701193,4.7333361123076845,0.0,0.0,0.0,0.0,0.0,0.0,0.0,0.0,0.0,0.0,0.0,8.989314181221118,10.2663911031419,10.49320327653398,10.528112527348872,0.0,0.0,0.0,0.0,0.0,0.0,0.0,0.0,0.0,0.0,0.0,7
14.97993311,0.36516362,0.93094199,0.0014822707,-0.00058142328,0.36516362,0.93094199,15.799,7.899,7.967952575105333,5.430608215666036,4.85208017701193,4.7333361123076845,0.0,0.0,0.0,0.0,0.0,0.0,0.0,0.0,0.0,0.0,0.0,8.989314181221118,10.2663911031419,10.49320327653398,10.528112527348872,0.0,0.0,0.0,0.0,0.0,0.0,0.0,0.0,0.0,0.0,0.0,7
14.9916388,0.38372678,0.92344498,0.0016327642,-0.00067847608,0.38372678,0.92344498,15.799,7.899,7.967952575105333,5.430608215666036,4.85208017701193,4.7333361123076845,0.0,0.0,0.0,0.0,0.0,0.0,0.0,0.0,0.0,0.0,0.0,8.989314181221118,10.2663911031419,10.49320327653398,10.528112527348872,0.0,0.0,0.0,0.0,0.0,0.0,0.0,0.0,0.0,0.0,0.0,7
15.55351171,0.038491079,-0.049088352,0.7853955,0.61584306,0.038491079,-0.049088352,15.799,7.899,7.967952575105333,5.430608215666036,4.85208017701193,4.7333361123076845,0.0,0.0,0.0,0.0,0.0,0.0,0.0,0.0,0.0,0.0,0.0,8.989314181221118,10.2663911031419,10.49320327653398,10.528112527348872,0.0,0.0,0.0,0.0,0.0,0.0,0.0,0.0,0.0,0.0,0.0,7
15.56521739,0.022118423,-0.041224504,0.88021362,0.47226613,0.022118423,-0.041224504,15.799,7.899,7.967952575105333,5.430608215666036,4.85208017701193,4.7333361123076845,0.0,0.0,0.0,0.0,0.0,0.0,0.0,0.0,0.0,0.0,0.0,8.989314181221118,10.2663911031419,10.49320327653398,10.528112527348872,0.0,0.0,0.0,0.0,0.0,0.0,0.0,0.0,0.0,0.0,0.0,7
15.57692308,0.0091216847,-0.027080558,0.947296,0.31908262,0.0091216847,-0.027080558,15.799,7.899,7.967952575105333,5.430608215666036,4.85208017701193,4.7333361123076845,0.0,0.0,0.0,0.0,0.0,0.0,0.0,0.0,0.0,0.0,0.0,8.989314181221118,10.2663911031419,10.49320327653398,10.528112527348872,0.0,0.0,0.0,0.0,0.0,0.0,0.0,0.0,0.0,0.0,0.0,7
15.58862876,0.0015607194,-0.0095559808,0.98687743,0.16118061,0.0015607194,-0.0095559808,15.799,7.899,7.967952575105333,5.430608215666036,4.85208017701193,4.7333361123076845,0.0,0.0,0.0,0.0,0.0,0.0,0.0,0.0,0.0,0.0,0.0,8.989314181221118,10.2663911031419,10.49320327653398,10.528112527348872,0.0,0.0,0.0,0.0,0.0,0.0,0.0,0.0,0.0,0.0,0.0,7
15.60033445,-2.624913e-05,0.0084144993,0.99995973,0.0031193862,-2.624913e-05,0.0084144993,15.799,7.899,7.967952575105333,5.430608215666036,4.85208017701193,4.7333361123076845,0.0,0.0,0.0,0.0,0.0,0.0,0.0,0.0,0.0,0.0,0.0,8.989314181221118,10.2663911031419,10.49320327653398,10.528112527348872,0.0,0.0,0.0,0.0,0.0,0.0,0.0,0.0,0.0,0.0,0.0,7
15.61204013,0.0037221737,0.024348167,0.98821594,-0.15107139,0.0037221737,0.024348167,15.799,7.899,7.967952575105333,5.430608215666036,4.85208017701193,4.7333361123076845,0.0,0.0,0.0,0.0,0.0,0.0,0.0,0.0,0.0,0.0,0.0,8.989314181221118,10.2663911031419,10.49320327653398,10.528112527348872,0.0,0.0,0.0,0.0,0.0,0.0,0.0,0.0,0.0,0.0,0.0,7
15.62374582,0.011400468,0.036488026,0.95379749,-0.29800839,0.011400468,0.036488026,15.799,7.899,7.967952575105333,5.430608215666036,4.85208017701193,4.7333361123076845,0.0,0.0,0.0,0.0,0.0,0.0,0.0,0.0,0.0,0.0,0.0,8.989314181221118,10.2663911031419,10.49320327653398,10.528112527348872,0.0,0.0,0.0,0.0,0.0,0.0,0.0,0.0,0.0,0.0,0.0,7
15.63545151,0.021233067,0.04389092,0.8991246,-0.43496861,0.021233067,0.04389092,15.799,7.899,7.967952575105333,5.430608215666036,4.85208017701193,4.7333361123076845,0.0,0.0,0.0,0.0,0.0,0.0,0.0,0.0,0.0,0.0,0.0,8.989314181221118,10.2663911031419,10.49320327653398,10.528112527348872,0.0,0.0,0.0,0.0,0.0,0.0,0.0,0.0,0.0,0.0,0.0,7
15.64715719,0.031406252,0.046378803,0.82671533,-0.55982535,0.031406252,0.046378803,15.799,7.899,7.967952575105333,5.430608215666036,4.85208017701193,4.7333361123076845,0.0,0.0,0.0,0.0,0.0,0.0,0.0,0.0,0.0,0.0,0.0,8.989314181221118,10.2663911031419,10.49320327653398,10.528112527348872,0.0,0.0,0.0,0.0,0.0,0.0,0.0,0.0,0.0,0.0,0.0,7
15.65886288,0.040312493,0.044405979,0.73907662,-0.67094617,0.040312493,0.044405979,15.799,7.899,7.967952575105333,5.430608215666036,4.85208017701193,4.7333361123076845,0.0,0.0,0.0,0.0,0.0,0.0,0.0,0.0,0.0,0.0,0.0,8.989314181221118,10.2663911031419,10.49320327653398,10.528112527348872,0.0,0.0,0.0,0.0,0.0,0.0,0.0,0.0,0.0,0.0,0.0,7
15.67056856,0.046706846,0.038886701,0.63865517,-0.76708922,0.046706846,0.038886701,15.799,7.899,7.967952575105333,5.430608215666036,4.85208017701193,4.7333361123076845,0.0,0.0,0.0,0.0,0.0,0.0,0.0,0.0,0.0,0.0,0.0,8.989314181221118,10.2663911031419,10.49320327653398,10.528112527348872,0.0,0.0,0.0,0.0,0.0,0.0,0.0,0.0,0.0,0.0,0.0,7
15.68227425,0.049786895,0.031014296,0.52783122,-0.84732142,0.049786895,0.031014296,15.799,7.899,7.967952575105333,5.430608215666036,4.85208017701193,4.7333361123076845,0.0,0.0,0.0,0.0,0.0,0.0,0.0,0.0,0.0,0.0,0.0,8.989314181221118,10.2663911031419,10.49320327653398,10.528112527348872,0.0,0.0,0.0,0.0,0.0,0.0,0.0,0.0,0.0,0.0,0.0,7
15.69397993,0.049211369,0.022091016,0.40893422,-0.91096818,0.049211369,0.022091016,15.799,7.899,7.967952575105333,5.430608215666036,4.85208017701193,4.7333361123076845,0.0,0.0,0.0,0.0,0.0,0.0,0.0,0.0,0.0,0.0,0.0,8.989314181221118,10.2663911031419,10.49320327653398,10.528112527348872,0.0,0.0,0.0,0.0,0.0,0.0,0.0,0.0,0.0,0.0,0.0,7
15.70568562,0.045071673,0.013379526,0.28426156,-0.95759328,0.045071673,0.013379526,15.799,7.899,7.967952575105333,5.430608215666036,4.85208017701193,4.7333361123076845,0.0,0.0,0.0,0.0,0.0,0.0,0.0,0.0,0.0,0.0,0.0,8.989314181221118,10.2663911031419,10.49320327653398,10.528112527348872,0.0,0.0,0.0,0.0,0.0,0.0,0.0,0.0,0.0,0.0,0.0,7
15.7173913,0.03782854,0.0059823111,0.15608703,-0.98700053,0.03782854,0.0059823111,15.799,7.899,7.967952575105333,5.430608215666036,4.85208017701193,4.7333361123076845,0.0,0.0,0.0,0.0,0.0,0.0,0.0,0.0,0.0,0.0,0.0,8.989314181221118,10.2663911031419,10.49320327653398,10.528112527348872,0.0,0.0,0.0,0.0,0.0,0.0,0.0,0.0,0.0,0.0,0.0,7
15.72909699,0.028224441,0.00075282162,0.026652572,-0.99924594,0.028224441,0.00075282162,15.799,7.899,7.967952575105333,5.430608215666036,4.85208017701193,4.7333361123076845,0.0,0.0,0.0,0.0,0.0,0.0,0.0,0.0,0.0,0.0,0.0,8.989314181221118,10.2663911031419,10.49320327653398,10.528112527348872,0.0,0.0,0.0,0.0,0.0,0.0,0.0,0.0,0.0,0.0,0.0,7
15.74080268,0.017181786,-0.0017594971,-0.10185683,-0.99464912,0.017181786,-0.0017594971,15.799,7.899,7.967952575105333,5.430608215666036,4.85208017701193,4.7333361123076845,0.0,0.0,0.0,0.0,0.0,0.0,0.0,0.0,0.0,0.0,0.0,8.989314181221118,10.2663911031419,10.49320327653398,10.528112527348872,0.0,0.0,0.0,0.0,0.0,0.0,0.0,0.0,0.0,0.0,0.0,7
15.75250836,0.0056968425,-0.0013300358,-0.22735096,-0.97379532,0.0056968425,-0.0013300358,15.799,7.899,7.967952575105333,5.430608215666036,4.85208017701193,4.7333361123076845,0.0,0.0,0.0,0.0,0.0,0.0,0.0,0.0,0.0,0.0,0.0,8.989314181221118,10.2663911031419,10.49320327653398,10.528112527348872,0.0,0.0,0.0,0.0,0.0,0.0,0.0,0.0,0.0,0.0,0.0,7
15.76421405,-0.0052610492,0.0019521656,-0.34787748,-0.93752321,-0.0052610492,0.0019521656,15.799,7.899,7.967952575105333,5.430608215666036,4.85208017701193,4.7333361123076845,0.0,0.0,0.0,0.0,0.0,0.0,0.0,0.0,0.0,0.0,0.0,8.989314181221118,10.2663911031419,10.49320327653398,10.528112527348872,0.0,0.0,0.0,0.0,0.0,0.0,0.0,0.0,0.0,0.0,0.0,7
15.77591973,-0.014836535,0.0077229584,-0.46166273,-0.88689783,-0.014836535,0.0077229584,15.799,7.899,7.967952575105333,5.430608215666036,4.85208017701193,4.7333361123076845,0.0,0.0,0.0,0.0,0.0,0.0,0.0,0.0,0.0,0.0,0.0,8.989314181221118,10.2663911031419,10.49320327653398,10.528112527348872,0.0,0.0,0.0,0.0,0.0,0.0,0.0,0.0,0.0,0.0,0.0,7
15.78762542,-0.022355201,0.01540215,-0.56714362,-0.82317139,-0.022355201,0.01540215,15.799,7.899,7.967952575105333,5.430608215666036,4.85208017701193,4.7333361123076845,0.0,0.0,0.0,0.0,0.0,0.0,0.0,0.0,0.0,0.0,0.0,8.989314181221118,10.2663911031419,10.49320327653398,10.528112527348872,0.0,0.0,0.0,0.0,0.0,0.0,0.0,0.0,0.0,0.0,0.0,7
15.7993311,-0.027366833,0.024265002,-0.66298667,-0.74773721,-0.027366833,0.024265002,15.799,7.899,7.967952575105333,5.430608215666036,4.85208017701193,4.7333361123076845,0.0,0.0,0.0,0.0,0.0,0.0,0.0,0.0,0.0,0.0,0.0,8.989314181221118,10.2663911031419,10.49320327653398,10.528112527348872,0.0,0.0,0.0,0.0,0.0,0.0,0.0,0.0,0.0,0.0,0.0,7
15.81103679,-0.029664303,0.033517954,-0.74809297,-0.66208268,-0.029664303,0.033517954,15.799,7.899,7.967952575105333,5.430608215666036,4.85208017701193,4.7333361123076845,0.0,0.0,0.0,0.0,0.0,0.0,0.0,0.0,0.0,0.0,0.0,8.989314181221118,10.2663911031419,10.49320327653398,10.528112527348872,0.0,0.0,0.0,0.0,0.0,0.0,0.0,0.0,0.0,0.0,0.0,7
15.82274247,-0.029279987,0.042371312,-0.82159069,-0.5677465,-0.029279987,0.042371312,15.799,7.899,7.967952575105333,5.430608215666036,4.85208017701193,4.7333361123076845,0.0,0.0,0.0,0.0,0.0,0.0,0.0,0.0,0.0,0.0,0.0,8.989314181221118,10.2663911031419,10.49320327653398,10.528112527348872,0.0,0.0,0.0,0.0,0.0,0.0,0.0,0.0,0.0,0.0,0.0,7
15.83444816,-0.026463396,0.050103304,-0.88281848,-0.46628411,-0.026463396,0.050103304,15.799,7.899,7.967952575105333,5.430608215666036,4.85208017701193,4.7333361123076845,0.0,0.0,0.0,0.0,0.0,0.0,0.0,0.0,0.0,0.0,0.0,8.989314181221118,10.2663911031419,10.49320327653398,10.528112527348872,0.0,0.0,0.0,0.0,0.0,0.0,0.0,0.0,0.0,0.0,0.0,7
15.84615385,-0.021644677,0.056111816,-0.93130416,-0.35924301,-0.021644677,0.056111816,15.799,7.899,7.967952575105333,5.430608215666036,4.85208017701193,4.7333361123076845,0.0,0.0,0.0,0.0,0.0,0.0,0.0,0.0,0.0,0.0,0.0,8.989314181221118,10.2663911031419,10.49320327653398,10.528112527348872,0.0,0.0,0.0,0.0,0.0,0.0,0.0,0.0,0.0,0.0,0.0,7
15.85785953,-0.015388729,0.059951943,-0.96674279,-0.24814781,-0.015388729,0.059951943,15.799,7.899,7.967952575105333,5.430608215666036,4.85208017701193,4.7333361123076845,0.0,0.0,0.0,0.0,0.0,0.0,0.0,0.0,0.0,0.0,0.0,8.989314181221118,10.2663911031419,10.49320327653398,10.528112527348872,0.0,0.0,0.0,0.0,0.0,0.0,0.0,0.0,0.0,0.0,0.0,7
15.86956522,-0.0083443386,0.061358886,-0.98897775,-0.1344934,-0.0083443386,0.061358886,15.799,7.899,7.967952575105333,5.430608215666036,4.85208017701193,4.7333361123076845,0.0,0.0,0.0,0.0,0.0,0.0,0.0,0.0,0.0,0.0,0.0,8.989314181221118,10.2663911031419,10.49320327653398,10.528112527348872,0.0,0.0,0.0,0.0,0.0,0.0,0.0,0.0,0.0,0.0,0.0,7
15.8812709,-0.0011920727,0.060256713,-0.99798693,-0.019743409,-0.0011920727,0.060256713,15.799,7.899,7.967952575105333,5.430608215666036,4.85208017701193,4.7333361123076845,0.0,0.0,0.0,0.0,0.0,0.0,0.0,0.0,0.0,0.0,0.0,8.989314181221118,10.2663911031419,10.49320327653398,10.528112527348872,0.0,0.0,0.0,0.0,0.0,0.0,0.0,0.0,0.0,0.0,0.0,7
15.89297659,0.0054059682,0.056754077,-0.993875,0.094669086,0.0054059682,0.056754077,15.799,7.899,7.967952575105333,5.430608215666036,4.85208017701193,4.7333361123076845,0.0,0.0,0.0,0.0,0.0,0.0,0.0,0.0,0.0,0.0,0.0,8.989314181221118,10.2663911031419,10.49320327653398,10.528112527348872,0.0,0.0,0.0,0.0,0.0,0.0,0.0,0.0,0.0,0.0,0.0,7
15.90468227,0.01085201,0.051128291,-0.97687135,0.20734152,0.01085201,0.051128291,15.799,7.899,7.967952575105333,5.430608215666036,4.85208017701193,4.7333361123076845,0.0,0.0,0.0,0.0,0.0,0.0,0.0,0.0,0.0,0.0,0.0,8.989314181221118,10.2663911031419,10.49320327653398,10.528112527348872,0.0,0.0,0.0,0.0,0.0,0.0,0.0,0.0,0.0,0.0,0.0,7
15.91638796,0.014651933,0.043799418,-0.94733217,0.31690485,0.014651933,0.043799418,15.799,7.899,7.967952575105333,5.430608215666036,4.85208017701193,4.7333361123076845,0.0,0.0,0.0,0.0,0.0,0.0,0.0,0.0,0.0,0.0,0.0,8.989314181221118,10.2663911031419,10.49320327653398,10.528112527348872,0.0,0.0,0.0,0.0,0.0,0.0,0.0,0.0,0.0,0.0,0.0,7
15.92809365,0.016446256,0.03529623,-0.90574467,0.42203115,0.016446256,0.03529623,15.799,7.899,7.967952575105333,5.430608215666036,4.85208017701193,4.7333361123076845,0.0,0.0,0.0,0.0,0.0,0.0,0.0,0.0,0.0,0.0,0.0,8.989314181221118,10.2663911031419,10.49320327653398,10.528112527348872,0.0,0.0,0.0,0.0,0.0,0.0,0.0,0.0,0.0,0.0,0.0,7
15.93979933,0.016031256,0.026216216,-0.85273071,0.52144611,0.016031256,0.026216216,15.799,7.899,7.967952575105333,5.430608215666036,4.85208017701193,4.7333361123076845,0.0,0.0,0.0,0.0,0.0,0.0,0.0,0.0,0.0,0.0,0.0,8.989314181221118,10.2663911031419,10.49320327653398,10.528112527348872,0.0,0.0,0.0,0.0,0.0,0.0,0.0,0.0,0.0,0.0,0.0,7
15.95150502,0.013369147,0.017182124,-0.78904778,0.61394596,0.013369147,0.017182124,15.799,7.899,7.967952575105333,5.430608215666036,4.85208017701193,4.7333361123076845,0.0,0.0,0.0,0.0,0.0,0.0,0.0,0.0,0.0,0.0,0.0,8.989314181221118,10.2663911031419,10.49320327653398,10.528112527348872,0.0,0.0,0.0,0.0,0.0,0.0,0.0,0.0,0.0,0.0,0.0,7
15.9632107,0.0085867772,0.0087978513,-0.71558524,0.69841723,0.0085867772,0.0087978513,15.799,7.899,7.967952575105333,5.430608215666036,4.85208017701193,4.7333361123076845,0.0,0.0,0.0,0.0,0.0,0.0,0.0,0.0,0.0,0.0,0.0,8.989314181221118,10.2663911031419,10.49320327653398,10.528112527348872,0.0,0.0,0.0,0.0,0.0,0.0,0.0,0.0,0.0,0.0,0.0,7
15.97491639,0.0019630418,0.0016066291,-0.63335476,0.77385743,0.0019630418,0.0016066291,15.799,7.899,7.967952575105333,5.430608215666036,4.85208017701193,4.7333361123076845,0.0,0.0,0.0,0.0,0.0,0.0,0.0,0.0,0.0,0.0,0.0,8.989314181221118,10.2663911031419,10.49320327653398,10.528112527348872,0.0,0.0,0.0,0.0,0.0,0.0,0.0,0.0,0.0,0.0,0.0,7
15.98662207,-0.0060939705,-0.0039456091,-0.54347498,0.83939398,-0.0060939705,-0.0039456091,15.799,7.899,7.967952575105333,5.430608215666036,4.85208017701193,4.7333361123076845,0.0,0.0,0.0,0.0,0.0,0.0,0.0,0.0,0.0,0.0,0.0,8.989314181221118,10.2663911031419,10.49320327653398,10.528112527348872,0.0,0.0,0.0,0.0,0.0,0.0,0.0,0.0,0.0,0.0,0.0,7
15.99832776,-0.01507828,-0.0075391609,-0.44715103,0.89429959,-0.01507828,-0.0075391609,15.799,7.899,7.967952575105333,5.430608215666036,4.85208017701193,4.7333361123076845,0.0,0.0,0.0,0.0,0.0,0.0,0.0,0.0,0.0,0.0,0.0,8.989314181221118,10.2663911031419,10.49320327653398,10.528112527348872,0.0,0.0,0.0,0.0,0.0,0.0,0.0,0.0,0.0,0.0,0.0,7
16.01003344,-0.024423283,-0.0089998972,-0.34565064,0.93800221,-0.024423283,-0.0089998972,15.799,7.899,7.967952575105333,5.430608215666036,4.85208017701193,4.7333361123076845,0.0,0.0,0.0,0.0,0.0,0.0,0.0,0.0,0.0,0.0,0.0,8.989314181221118,10.2663911031419,10.49320327653398,10.528112527348872,0.0,0.0,0.0,0.0,0.0,0.0,0.0,0.0,0.0,0.0,0.0,7
16.02173913,-0.03354208,-0.008307957,-0.24027891,0.97008863,-0.03354208,-0.008307957,15.799,7.899,7.967952575105333,5.430608215666036,4.85208017701193,4.7333361123076845,0.0,0.0,0.0,0.0,0.0,0.0,0.0,0.0,0.0,0.0,0.0,8.989314181221118,10.2663911031419,10.49320327653398,10.528112527348872,0.0,0.0,0.0,0.0,0.0,0.0,0.0,0.0,0.0,0.0,0.0,7
16.03344482,-0.04186788,-0.0055956472,-0.13235399,0.99030207,-0.04186788,-0.0055956472,15.799,7.899,7.967952575105333,5.430608215666036,4.85208017701193,4.7333361123076845,0.0,0.0,0.0,0.0,0.0,0.0,0.0,0.0,0.0,0.0,0.0,8.989314181221118,10.2663911031419,10.49320327653398,10.528112527348872,0.0,0.0,0.0,0.0,0.0,0.0,0.0,0.0,0.0,0.0,0.0,7
16.0451505,-0.048891665,-0.0011352508,-0.023185687,0.9985343,-0.048891665,-0.0011352508,15.799,7.899,7.967952575105333,5.430608215666036,4.85208017701193,4.7333361123076845,0.0,0.0,0.0,0.0,0.0,0.0,0.0,0.0,0.0,0.0,0.0,8.989314181221118,10.2663911031419,10.49320327653398,10.528112527348872,0.0,0.0,0.0,0.0,0.0,0.0,0.0,0.0,0.0,0.0,0.0,7
16.05685619,-0.05419481,0.0046818653,0.085941543,0.99481408,-0.05419481,0.0046818653,15.799,7.899,7.967952575105333,5.430608215666036,4.85208017701193,4.7333361123076845,0.0,0.0,0.0,0.0,0.0,0.0,0.0,0.0,0.0,0.0,0.0,8.989314181221118,10.2663911031419,10.49320327653398,10.528112527348872,0.0,0.0,0.0,0.0,0.0,0.0,0.0,0.0,0.0,0.0,0.0,7
16.06856187,-0.05747488,0.011373003,0.19378051,0.97929383,-0.05747488,0.011373003,15.799,7.899,7.967952575105333,5.430608215666036,4.85208017701193,4.7333361123076845,0.0,0.0,0.0,0.0,0.0,0.0,0.0,0.0,0.0,0.0,0.0,8.989314181221118,10.2663911031419,10.49320327653398,10.528112527348872,0.0,0.0,0.0,0.0,0.0,0.0,0.0,0.0,0.0,0.0,0.0,7
16.08026756,-0.05856352,0.018396691,0.29912819,0.95223642,-0.05856352,0.018396691,15.799,7.899,7.967952575105333,5.430608215666036,4.85208017701193,4.7333361123076845,0.0,0.0,0.0,0.0,0.0,0.0,0.0,0.0,0.0,0.0,0.0,8.989314181221118,10.2663911031419,10.49320327653398,10.528112527348872,0.0,0.0,0.0,0.0,0.0,0.0,0.0,0.0,0.0,0.0,0.0,7
