freq,s11_real,s11_imag,s21_real,s21_imag,s22_real,s22_imag,a,b,a2_1,a2_2,a2_3,a2_4,a2_5,a2_6,a2_7,a2_8,a2_9,a2_10,a2_11,a2_12,a2_13,a2_14,a2_15,l_1,l_2,l_3,l_4,l_5,l_6,l_7,l_8,l_9,l_10,l_11,l_12,l_13,l_14,l_15,order
14.85117057,0.20810625,0.97810605,0.00057752889,-0.00012287765,0.20810625,0.97810605,15.799,7.899,7.985497097513886,5.438211360795097,4.854724998970264,4.73479046055245,0.0,0.0,0.0,0.0,0.0,0.0,0.0,0.0,0.0,0.0,0.0,8.99103684402052,10.273572530051384,10.50034301273718,10.535654065578008,0.0,0.0,0.0,0.0,0.0,0.0,0.0,0.0,0.0,0.0,0.0,7
14.86287625,0.22308004,0.97479992,0.00063084475,-0.00014436693,0.22308004,0.97479992,15.799,7.899,7.985497097513886,5.438211360795097,4.854724998970264,4.73479046055245,0.0,0.0,0.0,0.0,0.0,0.0,0.0,0.0,0.0,0.0,0.0,8.99103684402052,10.273572530051384,10.50034301273718,10.535654065578008,0.0,0.0,0.0,0.0,0.0,0.0,0.0,0.0,0.0,0.0,0.0,7
14.87458194,0.2383705,0.97117403,0.00068959906,-0.00016925913,0.2383705,0.97117403,15.799,7.899,7.985497097513886,5.438211360795097,4.854724998970264,4.73479046055245,0.0,0.0,0.0,0.0,0.0,0.0,0.0,0.0,0.0,0.0,0.0,8.99103684402052,10.273572530051384,10.50034301273718,10.535654065578008,0.0,0.0,0.0,0.0,0.0,0.0,0.0,0.0,0.0,0.0,0.0,7
14.88628763,0.25398604,0.96720757,0.00075439555,-0.00019810219,0.25398604,0.96720757,15.799,7.899,7.985497097513886,5.438211360795097,4.854724998970264,4.73479046055245,0.0,0.0,0.0,0.0,0.0,0.0,0.0,0.0,0.0,0.0,0.0,8.99103684402052,10.273572530051384,10.50034301273718,10.535654065578008,0.0,0.0,0.0,0.0,0.0,0.0,0.0,0.0,0.0,0.0,0.0,7
14.89799331,0.26993518,0.96287811,0.00082590933,-0.00023153708,0.26993518,0.96287811,15.799,7.899,7.985497097513886,5.438211360795097,4.854724998970264,4.73479046055245,0.0,0.0,0.0,0.0,0.0,0.0,0.0,0.0,0.0,0.0,0.0,8.99103684402052,10.273572530051384,10.50034301273718,10.535654065578008,0.0,0.0,0.0,0.0,0.0,0.0,0.0,0.0,0.0,0.0,0.0,7
14.909699,0.2862265,0.95816152,0.00090489565,-0.00027031467,0.2862265,0.95816152,15.799,7.899,7.985497097513886,5.438211360795097,4.854724998970264,4.73479046055245,0.0,0.0,0.0,0.0,0.0,0.0,0.0,0.0,0.0,0.0,0.0,8.99103684402052,10.273572530051384,10.50034301273718,10.535654065578008,0.0,0.0,0.0,0.0,0.0,0.0,0.0,0.0,0.0,0.0,0.0,7
14.92140468,0.30286864,0.95303174,0.00099219951,-0.00031531596,0.30286864,0.95303174,15.799,7.899,7.985497097513886,5.438211360795097,4.854724998970264,4.73479046055245,0.0,0.0,0.0,0.0,0.0,0.0,0.0,0.0,0.0,0.0,0.0,8.99103684402052,10.273572530051384,10.50034301273718,10.535654065578008,0.0,0.0,0.0,0.0,0.0,0.0,0.0,0.0,0.0,0.0,0.0,7
14.93311037,0.31987024,0.94746066,0.0010887665,-0.00036757619,0.31987024,0.94746066,15.799,7.899,7.985497097513886,5.438211360795097,4.854724998970264,4.73479046055245,0.0,0.0,0.0,0.0,0.0,0.0,0.0,0.0,0.0,0.0,0.0,8.99103684402052,10.273572530051384,10.50034301273718,10.535654065578008,0.0,0.0,0.0,0.0,0.0,0.0,0.0,0.0,0.0,0.0,0.0,7
14.94481605,0.33723986,0.9414179,0.0011956545,-0.0004283139,0.33723986,0.9414179,15.799,7.899,7.985497097513886,5.438211360795097,4.854724998970264,4.73479046055245,0.0,0.0,0.0,0.0,0.0,0.0,0.0,0.0,0.0,0.0,0.0,8.99103684402052,10.273572530051384,10.50034301273718,10.535654065578008,0.0,0.0,0.0,0.0,0.0,0.0,0.0,0.0,0.0,0.0,0.0,7
14.95652174,0.35498597,0.93487057,0.0013140474,-0.00049896574,0.35498597,0.93487057,15.799,7.899,7.985497097513886,5.438211360795097,4.854724998970264,4.73479046055245,0.0,0.0,0.0,0.0,0.0,0.0,0.0,0.0,0.0,0.0,0.0,8.99103684402052,10.273572530051384,10.50034301273718,10.535654065578008,0.0,0.0,0.0,0.0,0.0,0.0,0.0,0.0,0.0,0.0,0.0,7
14.96822742,0.37311682,0.92778306,0.0014452687,-0.0005812286,0.37311682,0.92778306,15.799,7.899,7.985497097513886,5.438211360795097,4.854724998970264,4.73479046055245,0.0,0.0,0.0,0.0,0.0,0.0,0.0,0.0,0.0,0.0,0.0,8.99103684402052,10.273572530051384,10.50034301273718,10.535654065578008,0.0,0.0,0.0,0.0,0.0,0.0,0.0,0.0,0.0,0.0,0.0,7
14.97993311,0.39164038,0.92011674,0.0015907975,-0.00067711031,0.39164038,0.92011674,15.799,7.899,7.985497097513886,5.438211360795097,4.854724998970264,4.73479046055245,0.0,0.0,0.0,0.0,0.0,0.0,0.0,0.0,0.0,0.0,0.0,8.99103684402052,10.273572530051384,10.50034301273718,10.535654065578008,0.0,0.0,0.0,0.0,0.0,0.0,0.0,0.0,0.0,0.0,0.0,7
14.9916388,0.4105642,0.91182967,0.0017522853,-0.0007889912,0.4105642,0.91182967,15.799,7.899,7.985497097513886,5.438211360795097,4.854724998970264,4.73479046055245,0.0,0.0,0.0,0.0,0.0,0.0,0.0,0.0,0.0,0.0,0.0,8.99103684402052,10.273572530051384,10.50034301273718,10.535654065578008,0.0,0.0,0.0,0.0,0.0,0.0,0.0,0.0,0.0,0.0,0.0,7
15.55351171,0.024922135,-0.041760847,0.85769346,0.51185628,0.024922135,-0.041760847,15.799,7.899,7.985497097513886,5.438211360795097,4.854724998970264,4.73479046055245,0.0,0.0,0.0,0.0,0.0,0.0,0.0,0.0,0.0,0.0,0.0,8.99103684402052,10.273572530051384,10.50034301273718,10.535654065578008,0.0,0.0,0.0,0.0,0.0,0.0,0.0,0.0,0.0,0.0,0.0,7
15.56521739,0.011865269,-0.030691097,0.93221799,0.36039824,0.011865269,-0.030691097,15.799,7.899,7.985497097513886,5.438211360795097,4.854724998970264,4.73479046055245,0.0,0.0,0.0,0.0,0.0,0.0,0.0,0.0,0.0,0.0,0.0,8.99103684402052,10.273572530051384,10.50034301273718,10.535654065578008,0.0,0.0,0.0,0.0,0.0,0.0,0.0,0.0,0.0,0.0,0.0,7
15.57692308,0.0031832033,-0.015349148,0.97904485,0.20304051,0.0031832033,-0.015349148,15.799,7.899,7.985497097513886,5.438211360795097,4.854724998970264,4.73479046055245,0.0,0.0,0.0,0.0,0.0,0.0,0.0,0.0,0.0,0.0,0.0,8.99103684402052,10.273572530051384,10.50034301273718,10.535654065578008,0.0,0.0,0.0,0.0,0.0,0.0,0.0,0.0,0.0,0.0,0.0,7
15.58862876,-6.3990157e-05,0.0014397675,0.99901275,0.044400906,-6.3990157e-05,0.0014397675,15.799,7.899,7.985497097513886,5.438211360795097,4.854724998970264,4.73479046055245,0.0,0.0,0.0,0.0,0.0,0.0,0.0,0.0,0.0,0.0,0.0,8.99103684402052,10.273572530051384,10.50034301273718,10.535654065578008,0.0,0.0,0.0,0.0,0.0,0.0,0.0,0.0,0.0,0.0,0.0,7
15.60033445,0.0019200535,0.017130541,0.99362954,-0.11136962,0.0019200535,0.017130541,15.799,7.899,7.985497097513886,5.438211360795097,4.854724998970264,4.73479046055245,0.0,0.0,0.0,0.0,0.0,0.0,0.0,0.0,0.0,0.0,0.0,8.99103684402052,10.273572530051384,10.50034301273718,10.535654065578008,0.0,0.0,0.0,0.0,0.0,0.0,0.0,0.0,0.0,0.0,0.0,7
15.61204013,0.0080500262,0.029792979,0.96492094,-0.26072045,0.0080500262,0.029792979,15.799,7.899,7.985497097513886,5.438211360795097,4.854724998970264,4.73479046055245,0.0,0.0,0.0,0.0,0.0,0.0,0.0,0.0,0.0,0.0,0.0,8.99103684402052,10.273572530051384,10.50034301273718,10.535654065578008,0.0,0.0,0.0,0.0,0.0,0.0,0.0,0.0,0.0,0.0,0.0,7
15.62374582,0.016750934,0.038256477,0.91523741,-0.40074473,0.016750934,0.038256477,15.799,7.899,7.985497097513886,5.438211360795097,4.854724998970264,4.73479046055245,0.0,0.0,0.0,0.0,0.0,0.0,0.0,0.0,0.0,0.0,0.0,8.99103684402052,10.273572530051384,10.50034301273718,10.535654065578008,0.0,0.0,0.0,0.0,0.0,0.0,0.0,0.0,0.0,0.0,0.0,7
15.63545151,0.026302312,0.042106174,0.84707959,-0.52914216,0.026302312,0.042106174,15.799,7.899,7.985497097513886,5.438211360795097,4.854724998970264,4.73479046055245,0.0,0.0,0.0,0.0,0.0,0.0,0.0,0.0,0.0,0.0,0.0,8.99103684402052,10.273572530051384,10.50034301273718,10.535654065578008,0.0,0.0,0.0,0.0,0.0,0.0,0.0,0.0,0.0,0.0,0.0,7
15.64715719,0.035104082,0.041580695,0.76297475,-0.64413374,0.035104082,0.041580695,15.799,7.899,7.985497097513886,5.438211360795097,4.854724998970264,4.73479046055245,0.0,0.0,0.0,0.0,0.0,0.0,0.0,0.0,0.0,0.0,0.0,8.99103684402052,10.273572530051384,10.50034301273718,10.535654065578008,0.0,0.0,0.0,0.0,0.0,0.0,0.0,0.0,0.0,0.0,0.0,7
15.65886288,0.04185683,0.037417121,0.66540997,-0.74436384,0.04185683,0.037417121,15.799,7.899,7.985497097513886,5.438211360795097,4.854724998970264,4.73479046055245,0.0,0.0,0.0,0.0,0.0,0.0,0.0,0.0,0.0,0.0,0.0,8.99103684402052,10.273572530051384,10.50034301273718,10.535654065578008,0.0,0.0,0.0,0.0,0.0,0.0,0.0,0.0,0.0,0.0,0.0,7
15.67056856,0.045663792,0.030677629,0.55681092,-0.8288156,0.045663792,0.030677629,15.799,7.899,7.985497097513886,5.438211360795097,4.854724998970264,4.73479046055245,0.0,0.0,0.0,0.0,0.0,0.0,0.0,0.0,0.0,0.0,0.0,8.99103684402052,10.273572530051384,10.50034301273718,10.535654065578008,0.0,0.0,0.0,0.0,0.0,0.0,0.0,0.0,0.0,0.0,0.0,7
15.68227425,0.046067985,0.022580436,0.43954759,-0.89675291,0.046067985,0.022580436,15.799,7.899,7.985497097513886,5.438211360795097,4.854724998970264,4.73479046055245,0.0,0.0,0.0,0.0,0.0,0.0,0.0,0.0,0.0,0.0,0.0,8.99103684402052,10.273572530051384,10.50034301273718,10.535654065578008,0.0,0.0,0.0,0.0,0.0,0.0,0.0,0.0,0.0,0.0,0.0,7
15.69397993,0.043038598,0.014348547,0.31594869,-0.947691,0.043038598,0.014348547,15.799,7.899,7.985497097513886,5.438211360795097,4.854724998970264,4.73479046055245,0.0,0.0,0.0,0.0,0.0,0.0,0.0,0.0,0.0,0.0,0.0,8.99103684402052,10.273572530051384,10.50034301273718,10.535654065578008,0.0,0.0,0.0,0.0,0.0,0.0,0.0,0.0,0.0,0.0,0.0,7
15.70568562,0.036919371,0.0070841379,0.18831038,-0.98138982,0.036919371,0.0070841379,15.799,7.899,7.985497097513886,5.438211360795097,4.854724998970264,4.73479046055245,0.0,0.0,0.0,0.0,0.0,0.0,0.0,0.0,0.0,0.0,0.0,8.99103684402052,10.273572530051384,10.50034301273718,10.535654065578008,0.0,0.0,0.0,0.0,0.0,0.0,0.0,0.0,0.0,0.0,0.0,7
15.7173913,0.028350082,0.0016731625,0.058891628,-0.99786034,0.028350082,0.0016731625,15.799,7.899,7.985497097513886,5.438211360795097,4.854724998970264,4.73479046055245,0.0,0.0,0.0,0.0,0.0,0.0,0.0,0.0,0.0,0.0,0.0,8.99103684402052,10.273572530051384,10.50034301273718,10.535654065578008,0.0,0.0,0.0,0.0,0.0,0.0,0.0,0.0,0.0,0.0,0.0,7
15.72909699,0.018171423,-0.0012772835,-0.070106142,-0.9973732,0.018171423,-0.0012772835,15.799,7.899,7.985497097513886,5.438211360795097,4.854724998970264,4.73479046055245,0.0,0.0,0.0,0.0,0.0,0.0,0.0,0.0,0.0,0.0,0.0,8.99103684402052,10.273572530051384,10.50034301273718,10.535654065578008,0.0,0.0,0.0,0.0,0.0,0.0,0.0,0.0,0.0,0.0,0.0,7
15.74080268,0.0073231526,-0.0014682138,-0.19657194,-0.98046096,0.0073231526,-0.0014682138,15.799,7.899,7.985497097513886,5.438211360795097,4.854724998970264,4.73479046055245,0.0,0.0,0.0,0.0,0.0,0.0,0.0,0.0,0.0,0.0,0.0,8.99103684402052,10.273572530051384,10.50034301273718,10.535654065578008,0.0,0.0,0.0,0.0,0.0,0.0,0.0,0.0,0.0,0.0,0.0,7
15.75250836,-0.0032549695,0.0010937646,-0.31852482,-0.9479083,-0.0032549695,0.0010937646,15.799,7.899,7.985497097513886,5.438211360795097,4.854724998970264,4.73479046055245,0.0,0.0,0.0,0.0,0.0,0.0,0.0,0.0,0.0,0.0,0.0,8.99103684402052,10.273572530051384,10.50034301273718,10.535654065578008,0.0,0.0,0.0,0.0,0.0,0.0,0.0,0.0,0.0,0.0,0.0,7
15.76421405,-0.012711,0.0061267285,-0.43415306,-0.9007286,-0.012711,0.0061267285,15.799,7.899,7.985497097513886,5.438211360795097,4.854724998970264,4.73479046055245,0.0,0.0,0.0,0.0,0.0,0.0,0.0,0.0,0.0,0.0,0.0,8.99103684402052,10.273572530051384,10.50034301273718,10.535654065578008,0.0,0.0,0.0,0.0,0.0,0.0,0.0,0.0,0.0,0.0,0.0,7
15.77591973,-0.02035072,0.013125332,-0.5418465,-0.84012853,-0.02035072,0.013125332,15.799,7.899,7.985497097513886,5.438211360795097,4.854724998970264,4.73479046055245,0.0,0.0,0.0,0.0,0.0,0.0,0.0,0.0,0.0,0.0,0.0,8.99103684402052,10.273572530051384,10.50034301273718,10.535654065578008,0.0,0.0,0.0,0.0,0.0,0.0,0.0,0.0,0.0,0.0,0.0,7
15.78762542,-0.025685498,0.021426782,-0.64021756,-0.76746507,-0.025685498,0.021426782,15.799,7.899,7.985497097513886,5.438211360795097,4.854724998970264,4.73479046055245,0.0,0.0,0.0,0.0,0.0,0.0,0.0,0.0,0.0,0.0,0.0,8.99103684402052,10.273572530051384,10.50034301273718,10.535654065578008,0.0,0.0,0.0,0.0,0.0,0.0,0.0,0.0,0.0,0.0,0.0,7
15.7993311,-0.028456754,0.030282991,-0.72810935,-0.68420021,-0.028456754,0.030282991,15.799,7.899,7.985497097513886,5.438211360795097,4.854724998970264,4.73479046055245,0.0,0.0,0.0,0.0,0.0,0.0,0.0,0.0,0.0,0.0,0.0,8.99103684402052,10.273572530051384,10.50034301273718,10.535654065578008,0.0,0.0,0.0,0.0,0.0,0.0,0.0,0.0,0.0,0.0,0.0,7
15.81103679,-0.028638178,0.038931665,-0.80459161,-0.59185853,-0.028638178,0.038931665,15.799,7.899,7.985497097513886,5.438211360795097,4.854724998970264,4.73479046055245,0.0,0.0,0.0,0.0,0.0,0.0,0.0,0.0,0.0,0.0,0.0,8.99103684402052,10.273572530051384,10.50034301273718,10.535654065578008,0.0,0.0,0.0,0.0,0.0,0.0,0.0,0.0,0.0,0.0,0.0,7
15.82274247,-0.026418838,0.046660504,-0.86894715,-0.49199156,-0.026418838,0.046660504,15.799,7.899,7.985497097513886,5.438211360795097,4.854724998970264,4.73479046055245,0.0,0.0,0.0,0.0,0.0,0.0,0.0,0.0,0.0,0.0,0.0,8.99103684402052,10.273572530051384,10.50034301273718,10.535654065578008,0.0,0.0,0.0,0.0,0.0,0.0,0.0,0.0,0.0,0.0,0.0,7
15.83444816,-0.02217135,0.052860425,-0.92065275,-0.38615116,-0.02217135,0.052860425,15.799,7.899,7.985497097513886,5.438211360795097,4.854724998970264,4.73479046055245,0.0,0.0,0.0,0.0,0.0,0.0,0.0,0.0,0.0,0.0,0.0,8.99103684402052,10.273572530051384,10.50034301273718,10.535654065578008,0.0,0.0,0.0,0.0,0.0,0.0,0.0,0.0,0.0,0.0,0.0,7
15.84615385,-0.016409699,0.057065524,-0.95935856,-0.27587208,-0.016409699,0.057065524,15.799,7.899,7.985497097513886,5.438211360795097,4.854724998970264,4.73479046055245,0.0,0.0,0.0,0.0,0.0,0.0,0.0,0.0,0.0,0.0,0.0,8.99103684402052,10.273572530051384,10.50034301273718,10.535654065578008,0.0,0.0,0.0,0.0,0.0,0.0,0.0,0.0,0.0,0.0,0.0,7
15.85785953,-0.0097410532,0.058978903,-0.98486926,-0.16266264,-0.0097410532,0.058978903,15.799,7.899,7.985497097513886,5.438211360795097,4.854724998970264,4.73479046055245,0.0,0.0,0.0,0.0,0.0,0.0,0.0,0.0,0.0,0.0,0.0,8.99103684402052,10.273572530051384,10.50034301273718,10.535654065578008,0.0,0.0,0.0,0.0,0.0,0.0,0.0,0.0,0.0,0.0,0.0,7
15.86956522,-0.0028154011,0.058484581,-0.99712964,-0.048001026,-0.0028154011,0.058484581,15.799,7.899,7.985497097513886,5.438211360795097,4.854724998970264,4.73479046055245,0.0,0.0,0.0,0.0,0.0,0.0,0.0,0.0,0.0,0.0,0.0,8.99103684402052,10.273572530051384,10.50034301273718,10.535654065578008,0.0,0.0,0.0,0.0,0.0,0.0,0.0,0.0,0.0,0.0,0.0,7
15.8812709,0.0037237817,0.055646368,-0.99621551,0.066665431,0.0037237817,0.055646368,15.799,7.899,7.985497097513886,5.438211360795097,4.854724998970264,4.73479046055245,0.0,0.0,0.0,0.0,0.0,0.0,0.0,0.0,0.0,0.0,0.0,8.99103684402052,10.273572530051384,10.50034301273718,10.535654065578008,0.0,0.0,0.0,0.0,0.0,0.0,0.0,0.0,0.0,0.0,0.0,7
15.89297659,0.0092851672,0.050695008,-0.98233,0.17992103,0.0092851672,0.050695008,15.799,7.899,7.985497097513886,5.438211360795097,4.854724998970264,4.73479046055245,0.0,0.0,0.0,0.0,0.0,0.0,0.0,0.0,0.0,0.0,0.0,8.99103684402052,10.273572530051384,10.50034301273718,10.535654065578008,0.0,0.0,0.0,0.0,0.0,0.0,0.0,0.0,0.0,0.0,0.0,7
15.90468227,0.01336929,0.044005148,-0.95580413,0.29038472,0.01336929,0.044005148,15.799,7.899,7.985497097513886,5.438211360795097,4.854724998970264,4.73479046055245,0.0,0.0,0.0,0.0,0.0,0.0,0.0,0.0,0.0,0.0,0.0,8.99103684402052,10.273572530051384,10.50034301273718,10.535654065578008,0.0,0.0,0.0,0.0,0.0,0.0,0.0,0.0,0.0,0.0,0.0,7
15.91638796,0.015600465,0.036063948,-0.9170996,0.39671696,0.015600465,0.036063948,15.799,7.899,7.985497097513886,5.438211360795097,4.854724998970264,4.73479046055245,0.0,0.0,0.0,0.0,0.0,0.0,0.0,0.0,0.0,0.0,0.0,8.99103684402052,10.273572530051384,10.50034301273718,10.535654065578008,0.0,0.0,0.0,0.0,0.0,0.0,0.0,0.0,0.0,0.0,0.0,7
15.92809365,0.015749367,0.027433441,-0.86681172,0.4976312,0.015749367,0.027433441,15.799,7.899,7.985497097513886,5.438211360795097,4.854724998970264,4.73479046055245,0.0,0.0,0.0,0.0,0.0,0.0,0.0,0.0,0.0,0.0,0.0,8.99103684402052,10.273572530051384,10.50034301273718,10.535654065578008,0.0,0.0,0.0,0.0,0.0,0.0,0.0,0.0,0.0,0.0,0.0,7
15.93979933,0.013745139,0.018709025,-0.80567011,0.59190939,0.013745139,0.018709025,15.799,7.899,7.985497097513886,5.438211360795097,4.854724998970264,4.73479046055245,0.0,0.0,0.0,0.0,0.0,0.0,0.0,0.0,0.0,0.0,0.0,8.99103684402052,10.273572530051384,10.50034301273718,10.535654065578008,0.0,0.0,0.0,0.0,0.0,0.0,0.0,0.0,0.0,0.0,0.0,7
15.95150502,0.0096764142,0.010476789,-0.73453537,0.67842052,0.0096764142,0.010476789,15.799,7.899,7.985497097513886,5.438211360795097,4.854724998970264,4.73479046055245,0.0,0.0,0.0,0.0,0.0,0.0,0.0,0.0,0.0,0.0,0.0,8.99103684402052,10.273572530051384,10.50034301273718,10.535654065578008,0.0,0.0,0.0,0.0,0.0,0.0,0.0,0.0,0.0,0.0,0.0,7
15.9632107,0.0037813537,0.0032725177,-0.65439055,0.7561402,0.0037813537,0.0032725177,15.799,7.899,7.985497097513886,5.438211360795097,4.854724998970264,4.73479046055245,0.0,0.0,0.0,0.0,0.0,0.0,0.0,0.0,0.0,0.0,0.0,8.99103684402052,10.273572530051384,10.50034301273718,10.535654065578008,0.0,0.0,0.0,0.0,0.0,0.0,0.0,0.0,0.0,0.0,0.0,7
15.97491639,-0.0035724856,-0.0024548305,-0.56632713,0.82416915,-0.0035724856,-0.0024548305,15.799,7.899,7.985497097513886,5.438211360795097,4.854724998970264,4.73479046055245,0.0,0.0,0.0,0.0,0.0,0.0,0.0,0.0,0.0,0.0,0.0,8.99103684402052,10.273572530051384,10.50034301273718,10.535654065578008,0.0,0.0,0.0,0.0,0.0,0.0,0.0,0.0,0.0,0.0,0.0,7
15.98662207,-0.011916813,-0.0063726641,-0.47152603,0.88174859,-0.011916813,-0.0063726641,15.799,7.899,7.985497097513886,5.438211360795097,4.854724998970264,4.73479046055245,0.0,0.0,0.0,0.0,0.0,0.0,0.0,0.0,0.0,0.0,0.0,8.99103684402052,10.273572530051384,10.50034301273718,10.535654065578008,0.0,0.0,0.0,0.0,0.0,0.0,0.0,0.0,0.0,0.0,0.0,7
15.99832776,-0.020717532,-0.0082853811,-0.37123519,0.92827074,-0.020717532,-0.0082853811,15.799,7.899,7.985497097513886,5.438211360795097,4.854724998970264,4.73479046055245,0.0,0.0,0.0,0.0,0.0,0.0,0.0,0.0,0.0,0.0,0.0,8.99103684402052,10.273572530051384,10.50034301273718,10.535654065578008,0.0,0.0,0.0,0.0,0.0,0.0,0.0,0.0,0.0,0.0,0.0,7
16.01003344,-0.029413215,-0.0081448904,-0.26674541,0.96328366,-0.029413215,-0.0081448904,15.799,7.899,7.985497097513886,5.438211360795097,4.854724998970264,4.73479046055245,0.0,0.0,0.0,0.0,0.0,0.0,0.0,0.0,0.0,0.0,0.0,8.99103684402052,10.273572530051384,10.50034301273718,10.535654065578008,0.0,0.0,0.0,0.0,0.0,0.0,0.0,0.0,0.0,0.0,0.0,7
16.02173913,-0.037454257,-0.006050707,-0.15936674,0.98649015,-0.037454257,-0.006050707,15.799,7.899,7.985497097513886,5.438211360795097,4.854724998970264,4.73479046055245,0.0,0.0,0.0,0.0,0.0,0.0,0.0,0.0,0.0,0.0,0.0,8.99103684402052,10.273572530051384,10.50034301273718,10.535654065578008,0.0,0.0,0.0,0.0,0.0,0.0,0.0,0.0,0.0,0.0,0.0,7
16.03344482,-0.044339974,-0.0022401145,-0.050407228,0.99774148,-0.044339974,-0.0022401145,15.799,7.899,7.985497097513886,5.438211360795097,4.854724998970264,4.73479046055245,0.0,0.0,0.0,0.0,0.0,0.0,0.0,0.0,0.0,0.0,0.0,8.99103684402052,10.273572530051384,10.50034301273718,10.535654065578008,0.0,0.0,0.0,0.0,0.0,0.0,0.0,0.0,0.0,0.0,0.0,7
16.0451505,-0.049651278,0.0029304163,0.05884451,0.99702733,-0.049651278,0.0029304163,15.799,7.899,7.985497097513886,5.438211360795097,4.854724998970264,4.73479046055245,0.0,0.0,0.0,0.0,0.0,0.0,0.0,0.0,0.0,0.0,0.0,8.99103684402052,10.273572530051384,10.50034301273718,10.535654065578008,0.0,0.0,0.0,0.0,0.0,0.0,0.0,0.0,0.0,0.0,0.0,7
16.05685619,-0.053077127,0.0090108829,0.16713199,0.98446357,-0.053077127,0.0090108829,15.799,7.899,7.985497097513886,5.438211360795097,4.854724998970264,4.73479046055245,0.0,0.0,0.0,0.0,0.0,0.0,0.0,0.0,0.0,0.0,0.0,8.99103684402052,10.273572530051384,10.50034301273718,10.535654065578008,0.0,0.0,0.0,0.0,0.0,0.0,0.0,0.0,0.0,0.0,0.0,7
16.06856187,-0.054433486,0.015488549,0.27323886,0.96027997,-0.054433486,0.015488549,15.799,7.899,7.985497097513886,5.438211360795097,4.854724998970264,4.73479046055245,0.0,0.0,0.0,0.0,0.0,0.0,0.0,0.0,0.0,0.0,0.0,8.99103684402052,10.273572530051384,10.50034301273718,10.535654065578008,0.0,0.0,0.0,0.0,0.0,0.0,0.0,0.0,0.0,0.0,0.0,7
16.08026756,-0.053674134,0.021821889,0.37599278,0.92480934,-0.053674134,0.021821889,15.799,7.899,7.985497097513886,5.438211360795097,4.854724998970264,4.73479046055245,0.0,0.0,0.0,0.0,0.0,0.0,0.0,0.0,0.0,0.0,0.0,8.99103684402052,10.273572530051384,10.50034301273718,10.535654065578008,0.0,0.0,0.0,0.0,0.0,0.0,0.0,0.0,0.0,0.0,0.0,7
