freq,s11_real,s11_imag,s21_real,s21_imag,s22_real,s22_imag,a,b,a2_1,a2_2,a2_3,a2_4,a2_5,a2_6,a2_7,a2_8,a2_9,a2_10,a2_11,a2_12,a2_13,a2_14,a2_15,l_1,l_2,l_3,l_4,l_5,l_6,l_7,l_8,l_9,l_10,l_11,l_12,l_13,l_14,l_15,order
14.85117057,0.23429502,0.97216528,0.00069236329,-0.00016686182,0.23429502,0.97216528,15.799,7.899,8.013617889479148,5.4182654744928085,4.89043451278265,4.759122104864783,0.0,0.0,0.0,0.0,0.0,0.0,0.0,0.0,0.0,0.0,0.0,8.99349439959256,10.291362384349148,10.513475630809706,10.558606285031916,0.0,0.0,0.0,0.0,0.0,0.0,0.0,0.0,0.0,0.0,0.0,7
14.86287625,0.24952483,0.96836808,0.00075737936,-0.00019515818,0.24952483,0.96836808,15.799,7.899,8.013617889479148,5.4182654744928085,4.89043451278265,4.759122104864783,0.0,0.0,0.0,0.0,0.0,0.0,0.0,0.0,0.0,0.0,0.0,8.99349439959256,10.291362384349148,10.513475630809706,10.558606285031916,0.0,0.0,0.0,0.0,0.0,0.0,0.0,0.0,0.0,0.0,0.0,7
14.87458194,0.26507249,0.9642281,0.00082915242,-0.00022793932,0.26507249,0.9642281,15.799,7.899,8.013617889479148,5.4182654744928085,4.89043451278265,4.759122104864783,0.0,0.0,0.0,0.0,0.0,0.0,0.0,0.0,0.0,0.0,0.0,8.99349439959256,10.291362384349148,10.513475630809706,10.558606285031916,0.0,0.0,0.0,0.0,0.0,0.0,0.0,0.0,0.0,0.0,0.0,7
14.88628763,0.2809462,0.95972305,0.00090844829,-0.00026593619,0.2809462,0.95972305,15.799,7.899,8.013617889479148,5.4182654744928085,4.89043451278265,4.759122104864783,0.0,0.0,0.0,0.0,0.0,0.0,0.0,0.0,0.0,0.0,0.0,8.99349439959256,10.291362384349148,10.513475630809706,10.558606285031916,0.0,0.0,0.0,0.0,0.0,0.0,0.0,0.0,0.0,0.0,0.0,7
14.89799331,0.29715424,0.95482892,0.00099612548,-0.00031000623,0.29715424,0.95482892,15.799,7.899,8.013617889479148,5.4182654744928085,4.89043451278265,4.759122104864783,0.0,0.0,0.0,0.0,0.0,0.0,0.0,0.0,0.0,0.0,0.0,8.99349439959256,10.291362384349148,10.513475630809706,10.558606285031916,0.0,0.0,0.0,0.0,0.0,0.0,0.0,0.0,0.0,0.0,0.0,7
14.909699,0.31370497,0.94951981,0.0010931468,-0.00036115685,0.31370497,0.94951981,15.799,7.899,8.013617889479148,5.4182654744928085,4.89043451278265,4.759122104864783,0.0,0.0,0.0,0.0,0.0,0.0,0.0,0.0,0.0,0.0,0.0,8.99349439959256,10.291362384349148,10.513475630809706,10.558606285031916,0.0,0.0,0.0,0.0,0.0,0.0,0.0,0.0,0.0,0.0,0.0,7
14.92140468,0.33060672,0.94376776,0.0012005923,-0.00042057368,0.33060672,0.94376776,15.799,7.899,8.013617889479148,5.4182654744928085,4.89043451278265,4.759122104864783,0.0,0.0,0.0,0.0,0.0,0.0,0.0,0.0,0.0,0.0,0.0,8.99349439959256,10.291362384349148,10.513475630809706,10.558606285031916,0.0,0.0,0.0,0.0,0.0,0.0,0.0,0.0,0.0,0.0,0.0,7
14.93311037,0.3478678,0.93754254,0.0013196738,-0.00048965459,0.3478678,0.93754254,15.799,7.899,8.013617889479148,5.4182654744928085,4.89043451278265,4.759122104864783,0.0,0.0,0.0,0.0,0.0,0.0,0.0,0.0,0.0,0.0,0.0,8.99349439959256,10.291362384349148,10.513475630809706,10.558606285031916,0.0,0.0,0.0,0.0,0.0,0.0,0.0,0.0,0.0,0.0,0.0,7
14.94481605,0.36549641,0.93081144,0.0014517508,-0.00057005068,0.36549641,0.93081144,15.799,7.899,8.013617889479148,5.4182654744928085,4.89043451278265,4.759122104864783,0.0,0.0,0.0,0.0,0.0,0.0,0.0,0.0,0.0,0.0,0.0,8.99349439959256,10.291362384349148,10.513475630809706,10.558606285031916,0.0,0.0,0.0,0.0,0.0,0.0,0.0,0.0,0.0,0.0,0.0,7
14.95652174,0.38350059,0.92353901,0.0015983483,-0.0006637159,0.38350059,0.92353901,15.799,7.899,8.013617889479148,5.4182654744928085,4.89043451278265,4.759122104864783,0.0,0.0,0.0,0.0,0.0,0.0,0.0,0.0,0.0,0.0,0.0,8.99349439959256,10.291362384349148,10.513475630809706,10.558606285031916,0.0,0.0,0.0,0.0,0.0,0.0,0.0,0.0,0.0,0.0,0.0,7
14.96822742,0.40188811,0.91568676,0.0017611765,-0.00077296725,0.40188811,0.91568676,15.799,7.899,8.013617889479148,5.4182654744928085,4.89043451278265,4.759122104864783,0.0,0.0,0.0,0.0,0.0,0.0,0.0,0.0,0.0,0.0,0.0,8.99349439959256,10.291362384349148,10.513475630809706,10.558606285031916,0.0,0.0,0.0,0.0,0.0,0.0,0.0,0.0,0.0,0.0,0.0,7
14.97993311,0.42066638,0.90721288,0.0019421512,-0.0009005579,0.42066638,0.90721288,15.799,7.899,8.013617889479148,5.4182654744928085,4.89043451278265,4.759122104864783,0.0,0.0,0.0,0.0,0.0,0.0,0.0,0.0,0.0,0.0,0.0,8.99349439959256,10.291362384349148,10.513475630809706,10.558606285031916,0.0,0.0,0.0,0.0,0.0,0.0,0.0,0.0,0.0,0.0,0.0,7
14.9916388,0.43984231,0.89807185,0.0021434173,-0.0010497664,0.43984231,0.89807185,15.799,7.899,8.013617889479148,5.4182654744928085,4.89043451278265,4.759122104864783,0.0,0.0,0.0,0.0,0.0,0.0,0.0,0.0,0.0,0.0,0.0,8.99349439959256,10.291362384349148,10.513475630809706,10.558606285031916,0.0,0.0,0.0,0.0,0.0,0.0,0.0,0.0,0.0,0.0,0.0,7
15.55351171,0.0095934514,-0.048293171,0.97964482,0.19460671,0.0095934514,-0.048293171,15.799,7.899,8.013617889479148,5.4182654744928085,4.89043451278265,4.759122104864783,0.0,0.0,0.0,0.0,0.0,0.0,0.0,0.0,0.0,0.0,0.0,8.99349439959256,10.291362384349148,10.513475630809706,10.558606285031916,0.0,0.0,0.0,0.0,0.0,0.0,0.0,0.0,0.0,0.0,0.0,7
15.56521739,0.00065482307,-0.018016254,0.99917772,0.036316352,0.00065482307,-0.018016254,15.799,7.899,8.013617889479148,5.4182654744928085,4.89043451278265,4.759122104864783,0.0,0.0,0.0,0.0,0.0,0.0,0.0,0.0,0.0,0.0,0.0,8.99349439959256,10.291362384349148,10.513475630809706,10.558606285031916,0.0,0.0,0.0,0.0,0.0,0.0,0.0,0.0,0.0,0.0,0.0,7
15.57692308,0.0013144853,0.010941011,0.99279975,-0.11927789,0.0013144853,0.010941011,15.799,7.899,8.013617889479148,5.4182654744928085,4.89043451278265,4.759122104864783,0.0,0.0,0.0,0.0,0.0,0.0,0.0,0.0,0.0,0.0,0.0,8.99349439959256,10.291362384349148,10.513475630809706,10.558606285031916,0.0,0.0,0.0,0.0,0.0,0.0,0.0,0.0,0.0,0.0,0.0,7
15.58862876,0.009910933,0.035582462,0.96267238,-0.26813719,0.009910933,0.035582462,15.799,7.899,8.013617889479148,5.4182654744928085,4.89043451278265,4.759122104864783,0.0,0.0,0.0,0.0,0.0,0.0,0.0,0.0,0.0,0.0,0.0,8.99349439959256,10.291362384349148,10.513475630809706,10.558606285031916,0.0,0.0,0.0,0.0,0.0,0.0,0.0,0.0,0.0,0.0,0.0,7
15.60033445,0.024101274,0.053962908,0.91147453,-0.40708884,0.024101274,0.053962908,15.799,7.899,8.013617889479148,5.4182654744928085,4.89043451278265,4.759122104864783,0.0,0.0,0.0,0.0,0.0,0.0,0.0,0.0,0.0,0.0,0.0,8.99349439959256,10.291362384349148,10.513475630809706,10.558606285031916,0.0,0.0,0.0,0.0,0.0,0.0,0.0,0.0,0.0,0.0,0.0,7
15.61204013,0.041322179,0.065186077,0.84207913,-0.53380332,0.041322179,0.065186077,15.799,7.899,8.013617889479148,5.4182654744928085,4.89043451278265,4.759122104864783,0.0,0.0,0.0,0.0,0.0,0.0,0.0,0.0,0.0,0.0,0.0,8.99349439959256,10.291362384349148,10.513475630809706,10.558606285031916,0.0,0.0,0.0,0.0,0.0,0.0,0.0,0.0,0.0,0.0,0.0,7
15.62374582,0.059143071,0.069263601,0.75731909,-0.64666255,0.059143071,0.069263601,15.799,7.899,8.013617889479148,5.4182654744928085,4.89043451278265,4.759122104864783,0.0,0.0,0.0,0.0,0.0,0.0,0.0,0.0,0.0,0.0,0.0,8.99349439959256,10.291362384349148,10.513475630809706,10.558606285031916,0.0,0.0,0.0,0.0,0.0,0.0,0.0,0.0,0.0,0.0,0.0,7
15.63545151,0.075497675,0.066906594,0.65985868,-0.74458723,0.075497675,0.066906594,15.799,7.899,8.013617889479148,5.4182654744928085,4.89043451278265,4.759122104864783,0.0,0.0,0.0,0.0,0.0,0.0,0.0,0.0,0.0,0.0,0.0,8.99349439959256,10.291362384349148,10.513475630809706,10.558606285031916,0.0,0.0,0.0,0.0,0.0,0.0,0.0,0.0,0.0,0.0,0.0,7
15.64715719,0.088808756,0.059302938,0.55215402,-0.82687491,0.088808756,0.059302938,15.799,7.899,8.013617889479148,5.4182654744928085,4.89043451278265,4.759122104864783,0.0,0.0,0.0,0.0,0.0,0.0,0.0,0.0,0.0,0.0,0.0,8.99349439959256,10.291362384349148,10.513475630809706,10.558606285031916,0.0,0.0,0.0,0.0,0.0,0.0,0.0,0.0,0.0,0.0,0.0,7
15.65886288,0.098031903,0.047911033,0.43647249,-0.89307673,0.098031903,0.047911033,15.799,7.899,8.013617889479148,5.4182654744928085,4.89043451278265,4.759122104864783,0.0,0.0,0.0,0.0,0.0,0.0,0.0,0.0,0.0,0.0,0.0,8.99349439959256,10.291362384349148,10.513475630809706,10.558606285031916,0.0,0.0,0.0,0.0,0.0,0.0,0.0,0.0,0.0,0.0,0.0,7
15.67056856,0.10264342,0.034283415,0.31494058,-0.94292174,0.10264342,0.034283415,15.799,7.899,8.013617889479148,5.4182654744928085,4.89043451278265,4.759122104864783,0.0,0.0,0.0,0.0,0.0,0.0,0.0,0.0,0.0,0.0,0.0,8.99349439959256,10.291362384349148,10.513475630809706,10.558606285031916,0.0,0.0,0.0,0.0,0.0,0.0,0.0,0.0,0.0,0.0,0.0,7
15.68227425,0.10259152,0.019923412,0.18959577,-0.97628453,0.10259152,0.019923412,15.799,7.899,8.013617889479148,5.4182654744928085,4.89043451278265,4.759122104864783,0.0,0.0,0.0,0.0,0.0,0.0,0.0,0.0,0.0,0.0,0.0,8.99349439959256,10.291362384349148,10.513475630809706,10.558606285031916,0.0,0.0,0.0,0.0,0.0,0.0,0.0,0.0,0.0,0.0,0.0,7
15.69397993,0.0982239,0.0061738341,0.062426363,-0.99318523,0.0982239,0.0061738341,15.799,7.899,8.013617889479148,5.4182654744928085,4.89043451278265,4.759122104864783,0.0,0.0,0.0,0.0,0.0,0.0,0.0,0.0,0.0,0.0,0.0,8.99349439959256,10.291362384349148,10.513475630809706,10.558606285031916,0.0,0.0,0.0,0.0,0.0,0.0,0.0,0.0,0.0,0.0,0.0,7
15.70568562,0.090200184,-0.0058640577,-0.064609071,-0.99380844,0.090200184,-0.0058640577,15.799,7.899,8.013617889479148,5.4182654744928085,4.89043451278265,4.759122104864783,0.0,0.0,0.0,0.0,0.0,0.0,0.0,0.0,0.0,0.0,0.0,8.99349439959256,10.291362384349148,10.513475630809706,10.558606285031916,0.0,0.0,0.0,0.0,0.0,0.0,0.0,0.0,0.0,0.0,0.0,7
15.7173913,0.079395989,-0.015382534,-0.18958442,-0.97852818,0.079395989,-0.015382534,15.799,7.899,8.013617889479148,5.4182654744928085,4.89043451278265,4.759122104864783,0.0,0.0,0.0,0.0,0.0,0.0,0.0,0.0,0.0,0.0,0.0,8.99349439959256,10.291362384349148,10.513475630809706,10.558606285031916,0.0,0.0,0.0,0.0,0.0,0.0,0.0,0.0,0.0,0.0,0.0,7
15.72909699,0.066804451,-0.021891234,-0.31062785,-0.94792841,0.066804451,-0.021891234,15.799,7.899,8.013617889479148,5.4182654744928085,4.89043451278265,4.759122104864783,0.0,0.0,0.0,0.0,0.0,0.0,0.0,0.0,0.0,0.0,0.0,8.99349439959256,10.291362384349148,10.513475630809706,10.558606285031916,0.0,0.0,0.0,0.0,0.0,0.0,0.0,0.0,0.0,0.0,0.0,7
15.74080268,0.053441491,-0.02521428,-0.42595652,-0.90281188,0.053441491,-0.02521428,15.799,7.899,8.013617889479148,5.4182654744928085,4.89043451278265,4.759122104864783,0.0,0.0,0.0,0.0,0.0,0.0,0.0,0.0,0.0,0.0,0.0,8.99349439959256,10.291362384349148,10.513475630809706,10.558606285031916,0.0,0.0,0.0,0.0,0.0,0.0,0.0,0.0,0.0,0.0,0.0,7
15.75250836,0.040261,-0.025463366,-0.53391674,-0.84419405,0.040261,-0.025463366,15.799,7.899,8.013617889479148,5.4182654744928085,4.89043451278265,4.759122104864783,0.0,0.0,0.0,0.0,0.0,0.0,0.0,0.0,0.0,0.0,0.0,8.99349439959256,10.291362384349148,10.513475630809706,10.558606285031916,0.0,0.0,0.0,0.0,0.0,0.0,0.0,0.0,0.0,0.0,0.0,7
15.76421405,0.028085446,-0.022991227,-0.63302217,-0.77328232,0.028085446,-0.022991227,15.799,7.899,8.013617889479148,5.4182654744928085,4.89043451278265,4.759122104864783,0.0,0.0,0.0,0.0,0.0,0.0,0.0,0.0,0.0,0.0,0.0,8.99349439959256,10.291362384349148,10.513475630809706,10.558606285031916,0.0,0.0,0.0,0.0,0.0,0.0,0.0,0.0,0.0,0.0,0.0,7
15.77591973,0.017555918,-0.018331359,-0.72198445,-0.69144356,0.017555918,-0.018331359,15.799,7.899,8.013617889479148,5.4182654744928085,4.89043451278265,4.759122104864783,0.0,0.0,0.0,0.0,0.0,0.0,0.0,0.0,0.0,0.0,0.0,8.99349439959256,10.291362384349148,10.513475630809706,10.558606285031916,0.0,0.0,0.0,0.0,0.0,0.0,0.0,0.0,0.0,0.0,0.0,7
15.78762542,0.0091035412,-0.012130673,-0.79973276,-0.60016455,0.0091035412,-0.012130673,15.799,7.899,8.013617889479148,5.4182654744928085,4.89043451278265,4.759122104864783,0.0,0.0,0.0,0.0,0.0,0.0,0.0,0.0,0.0,0.0,0.0,8.99349439959256,10.291362384349148,10.513475630809706,10.558606285031916,0.0,0.0,0.0,0.0,0.0,0.0,0.0,0.0,0.0,0.0,0.0,7
15.7993311,0.0029419534,-0.005081788,-0.86542129,-0.5010105,0.0029419534,-0.005081788,15.799,7.899,8.013617889479148,5.4182654744928085,4.89043451278265,4.759122104864783,0.0,0.0,0.0,0.0,0.0,0.0,0.0,0.0,0.0,0.0,0.0,8.99349439959256,10.291362384349148,10.513475630809706,10.558606285031916,0.0,0.0,0.0,0.0,0.0,0.0,0.0,0.0,0.0,0.0,0.0,7
15.81103679,-0.00092142732,0.0021392626,-0.91842591,-0.39558618,-0.00092142732,0.0021392626,15.799,7.899,8.013617889479148,5.4182654744928085,4.89043451278265,4.759122104864783,0.0,0.0,0.0,0.0,0.0,0.0,0.0,0.0,0.0,0.0,0.0,8.99349439959256,10.291362384349148,10.513475630809706,10.558606285031916,0.0,0.0,0.0,0.0,0.0,0.0,0.0,0.0,0.0,0.0,0.0,7
15.82274247,-0.0026590397,0.0089254638,-0.95833264,-0.28550275,-0.0026590397,0.0089254638,15.799,7.899,8.013617889479148,5.4182654744928085,4.89043451278265,4.759122104864783,0.0,0.0,0.0,0.0,0.0,0.0,0.0,0.0,0.0,0.0,0.0,8.99349439959256,10.291362384349148,10.513475630809706,10.558606285031916,0.0,0.0,0.0,0.0,0.0,0.0,0.0,0.0,0.0,0.0,0.0,7
15.83444816,-0.0025861242,0.014778656,-0.98492119,-0.17235183,-0.0025861242,0.014778656,15.799,7.899,8.013617889479148,5.4182654744928085,4.89043451278265,4.759122104864783,0.0,0.0,0.0,0.0,0.0,0.0,0.0,0.0,0.0,0.0,0.0,8.99349439959256,10.291362384349148,10.513475630809706,10.558606285031916,0.0,0.0,0.0,0.0,0.0,0.0,0.0,0.0,0.0,0.0,0.0,7
15.84615385,-0.0011174814,0.019335571,-0.99814683,-0.05768697,-0.0011174814,0.019335571,15.799,7.899,8.013617889479148,5.4182654744928085,4.89043451278265,4.759122104864783,0.0,0.0,0.0,0.0,0.0,0.0,0.0,0.0,0.0,0.0,0.0,8.99349439959256,10.291362384349148,10.513475630809706,10.558606285031916,0.0,0.0,0.0,0.0,0.0,0.0,0.0,0.0,0.0,0.0,0.0,7
15.85785953,0.0012778145,0.022380177,-0.99812313,0.056988655,0.0012778145,0.022380177,15.799,7.899,8.013617889479148,5.4182654744928085,4.89043451278265,4.759122104864783,0.0,0.0,0.0,0.0,0.0,0.0,0.0,0.0,0.0,0.0,0.0,8.99349439959256,10.291362384349148,10.513475630809706,10.558606285031916,0.0,0.0,0.0,0.0,0.0,0.0,0.0,0.0,0.0,0.0,0.0,7
15.86956522,0.0041202281,0.023843407,-0.98510721,0.17023014,0.0041202281,0.023843407,15.799,7.899,8.013617889479148,5.4182654744928085,4.89043451278265,4.759122104864783,0.0,0.0,0.0,0.0,0.0,0.0,0.0,0.0,0.0,0.0,0.0,8.99349439959256,10.291362384349148,10.513475630809706,10.558606285031916,0.0,0.0,0.0,0.0,0.0,0.0,0.0,0.0,0.0,0.0,0.0,7
15.8812709,0.0069592949,0.023791952,-0.95948817,0.2806563,0.0069592949,0.023791952,15.799,7.899,8.013617889479148,5.4182654744928085,4.89043451278265,4.759122104864783,0.0,0.0,0.0,0.0,0.0,0.0,0.0,0.0,0.0,0.0,0.0,8.99349439959256,10.291362384349148,10.513475630809706,10.558606285031916,0.0,0.0,0.0,0.0,0.0,0.0,0.0,0.0,0.0,0.0,0.0,7
15.89297659,0.0094067647,0.022408197,-0.92177849,0.38695453,0.0094067647,0.022408197,15.799,7.899,8.013617889479148,5.4182654744928085,4.89043451278265,4.759122104864783,0.0,0.0,0.0,0.0,0.0,0.0,0.0,0.0,0.0,0.0,0.0,8.99349439959256,10.291362384349148,10.513475630809706,10.558606285031916,0.0,0.0,0.0,0.0,0.0,0.0,0.0,0.0,0.0,0.0,0.0,7
15.90468227,0.01116188,0.019963539,-0.87260742,0.48788641,0.01116188,0.019963539,15.799,7.899,8.013617889479148,5.4182654744928085,4.89043451278265,4.759122104864783,0.0,0.0,0.0,0.0,0.0,0.0,0.0,0.0,0.0,0.0,0.0,8.99349439959256,10.291362384349148,10.513475630809706,10.558606285031916,0.0,0.0,0.0,0.0,0.0,0.0,0.0,0.0,0.0,0.0,0.0,7
15.91638796,0.012027888,0.01678746,-0.81271542,0.58229474,0.012027888,0.01678746,15.799,7.899,8.013617889479148,5.4182654744928085,4.89043451278265,4.759122104864783,0.0,0.0,0.0,0.0,0.0,0.0,0.0,0.0,0.0,0.0,0.0,8.99349439959256,10.291362384349148,10.513475630809706,10.558606285031916,0.0,0.0,0.0,0.0,0.0,0.0,0.0,0.0,0.0,0.0,0.0,7
15.92809365,0.011919409,0.013234705,-0.74294802,0.6691121,0.011919409,0.013234705,15.799,7.899,8.013617889479148,5.4182654744928085,4.89043451278265,4.759122104864783,0.0,0.0,0.0,0.0,0.0,0.0,0.0,0.0,0.0,0.0,0.0,8.99349439959256,10.291362384349148,10.513475630809706,10.558606285031916,0.0,0.0,0.0,0.0,0.0,0.0,0.0,0.0,0.0,0.0,0.0,7
15.93979933,0.01086082,0.0096528861,-0.66424848,0.74737061,0.01086082,0.0096528861,15.799,7.899,8.013617889479148,5.4182654744928085,4.89043451278265,4.759122104864783,0.0,0.0,0.0,0.0,0.0,0.0,0.0,0.0,0.0,0.0,0.0,8.99349439959256,10.291362384349148,10.513475630809706,10.558606285031916,0.0,0.0,0.0,0.0,0.0,0.0,0.0,0.0,0.0,0.0,0.0,7
15.95150502,0.0089762939,0.0063526899,-0.57764821,0.81621175,0.0089762939,0.0063526899,15.799,7.899,8.013617889479148,5.4182654744928085,4.89043451278265,4.759122104864783,0.0,0.0,0.0,0.0,0.0,0.0,0.0,0.0,0.0,0.0,0.0,8.99349439959256,10.291362384349148,10.513475630809706,10.558606285031916,0.0,0.0,0.0,0.0,0.0,0.0,0.0,0.0,0.0,0.0,0.0,7
15.9632107,0.0064726293,0.0035826027,-0.48425504,0.87489561,0.0064726293,0.0035826027,15.799,7.899,8.013617889479148,5.4182654744928085,4.89043451278265,4.759122104864783,0.0,0.0,0.0,0.0,0.0,0.0,0.0,0.0,0.0,0.0,0.0,8.99349439959256,10.291362384349148,10.513475630809706,10.558606285031916,0.0,0.0,0.0,0.0,0.0,0.0,0.0,0.0,0.0,0.0,0.0,7
15.97491639,0.0036164267,0.0015097288,-0.38523946,0.92280832,0.0036164267,0.0015097288,15.799,7.899,8.013617889479148,5.4182654744928085,4.89043451278265,4.759122104864783,0.0,0.0,0.0,0.0,0.0,0.0,0.0,0.0,0.0,0.0,0.0,8.99349439959256,10.291362384349148,10.513475630809706,10.558606285031916,0.0,0.0,0.0,0.0,0.0,0.0,0.0,0.0,0.0,0.0,0.0,7
15.98662207,0.00070746854,0.00020780125,-0.28181955,0.95946714,0.00070746854,0.00020780125,15.799,7.899,8.013617889479148,5.4182654744928085,4.89043451278265,4.759122104864783,0.0,0.0,0.0,0.0,0.0,0.0,0.0,0.0,0.0,0.0,0.0,8.99349439959256,10.291362384349148,10.513475630809706,10.558606285031916,0.0,0.0,0.0,0.0,0.0,0.0,0.0,0.0,0.0,0.0,0.0,7
15.99832776,-0.0019496446,-0.00034703758,-0.17524548,0.98452278,-0.0019496446,-0.00034703758,15.799,7.899,8.013617889479148,5.4182654744928085,4.89043451278265,4.759122104864783,0.0,0.0,0.0,0.0,0.0,0.0,0.0,0.0,0.0,0.0,0.0,8.99349439959256,10.291362384349148,10.513475630809706,10.558606285031916,0.0,0.0,0.0,0.0,0.0,0.0,0.0,0.0,0.0,0.0,0.0,7
16.01003344,-0.0040735243,-0.00027265926,-0.066784491,0.99775907,-0.0040735243,-0.00027265926,15.799,7.899,8.013617889479148,5.4182654744928085,4.89043451278265,4.759122104864783,0.0,0.0,0.0,0.0,0.0,0.0,0.0,0.0,0.0,0.0,0.0,8.99349439959256,10.291362384349148,10.513475630809706,10.558606285031916,0.0,0.0,0.0,0.0,0.0,0.0,0.0,0.0,0.0,0.0,0.0,7
16.02173913,-0.0054317326,0.00022993225,0.042292788,0.99909047,-0.0054317326,0.00022993225,15.799,7.899,8.013617889479148,5.4182654744928085,4.89043451278265,4.759122104864783,0.0,0.0,0.0,0.0,0.0,0.0,0.0,0.0,0.0,0.0,0.0,8.99349439959256,10.291362384349148,10.513475630809706,10.558606285031916,0.0,0.0,0.0,0.0,0.0,0.0,0.0,0.0,0.0,0.0,0.0,7
16.03344482,-0.0058625065,0.00089384961,0.15072431,0.98855805,-0.0058625065,0.00089384961,15.799,7.899,8.013617889479148,5.4182654744928085,4.89043451278265,4.759122104864783,0.0,0.0,0.0,0.0,0.0,0.0,0.0,0.0,0.0,0.0,0.0,8.99349439959256,10.291362384349148,10.513475630809706,10.558606285031916,0.0,0.0,0.0,0.0,0.0,0.0,0.0,0.0,0.0,0.0,0.0,7
16.0451505,-0.005291071,0.0014086523,0.25726661,0.96632495,-0.005291071,0.0014086523,15.799,7.899,8.013617889479148,5.4182654744928085,4.89043451278265,4.759122104864783,0.0,0.0,0.0,0.0,0.0,0.0,0.0,0.0,0.0,0.0,0.0,8.99349439959256,10.291362384349148,10.513475630809706,10.558606285031916,0.0,0.0,0.0,0.0,0.0,0.0,0.0,0.0,0.0,0.0,0.0,7
16.05685619,-0.0037395128,0.0014462256,0.36070319,0.93267204,-0.0037395128,0.0014462256,15.799,7.899,8.013617889479148,5.4182654744928085,4.89043451278265,4.759122104864783,0.0,0.0,0.0,0.0,0.0,0.0,0.0,0.0,0.0,0.0,0.0,8.99349439959256,10.291362384349148,10.513475630809706,10.558606285031916,0.0,0.0,0.0,0.0,0.0,0.0,0.0,0.0,0.0,0.0,0.0,7
16.06856187,-0.0013295674,0.0006885224,0.45985184,0.88799439,-0.0013295674,0.0006885224,15.799,7.899,8.013617889479148,5.4182654744928085,4.89043451278265,4.759122104864783,0.0,0.0,0.0,0.0,0.0,0.0,0.0,0.0,0.0,0.0,0.0,8.99349439959256,10.291362384349148,10.513475630809706,10.558606285031916,0.0,0.0,0.0,0.0,0.0,0.0,0.0,0.0,0.0,0.0,0.0,7
16.08026756,0.0017219437,-0.0011445973,0.55357174,0.83279893,0.0017219437,-0.0011445973,15.799,7.899,8.013617889479148,5.4182654744928085,4.89043451278265,4.759122104864783,0.0,0.0,0.0,0.0,0.0,0.0,0.0,0.0,0.0,0.0,0.0,8.99349439959256,10.291362384349148,10.513475630809706,10.558606285031916,0.0,0.0,0.0,0.0,0.0,0.0,0.0,0.0,0.0,0.0,0.0,7
