freq,s11_real,s11_imag,s21_real,s21_imag,s22_real,s22_imag,a,b,a2_1,a2_2,a2_3,a2_4,a2_5,a2_6,a2_7,a2_8,a2_9,a2_10,a2_11,a2_12,a2_13,a2_14,a2_15,l_1,l_2,l_3,l_4,l_5,l_6,l_7,l_8,l_9,l_10,l_11,l_12,l_13,l_14,l_15,order
14.85117057,0.21424991,0.97677869,0.00059722459,-0.00013099724,0.21424991,0.97677869,15.799,7.899,7.987950338315544,5.440768223346098,4.858227369549171,4.735830966810487,0.0,0.0,0.0,0.0,0.0,0.0,0.0,0.0,0.0,0.0,0.0,8.99452108270468,10.27661635598212,10.504080574974012,10.538051569572616,0.0,0.0,0.0,0.0,0.0,0.0,0.0,0.0,0.0,0.0,0.0,7
14.86287625,0.22935344,0.97334298,0.00065252654,-0.00015375794,0.22935344,0.97334298,15.799,7.899,7.987950338315544,5.440768223346098,4.858227369549171,4.735830966810487,0.0,0.0,0.0,0.0,0.0,0.0,0.0,0.0,0.0,0.0,0.0,8.99452108270468,10.27661635598212,10.504080574974012,10.538051569572616,0.0,0.0,0.0,0.0,0.0,0.0,0.0,0.0,0.0,0.0,0.0,7
14.87458194,0.24477701,0.96957912,0.00071348452,-0.00018012414,0.24477701,0.96957912,15.799,7.899,7.987950338315544,5.440768223346098,4.858227369549171,4.735830966810487,0.0,0.0,0.0,0.0,0.0,0.0,0.0,0.0,0.0,0.0,0.0,8.99452108270468,10.27661635598212,10.504080574974012,10.538051569572616,0.0,0.0,0.0,0.0,0.0,0.0,0.0,0.0,0.0,0.0,0.0,7
14.88628763,0.26052906,0.96546567,0.00078072756,-0.00021067783,0.26052906,0.96546567,15.799,7.899,7.987950338315544,5.440768223346098,4.858227369549171,4.735830966810487,0.0,0.0,0.0,0.0,0.0,0.0,0.0,0.0,0.0,0.0,0.0,8.99452108270468,10.27661635598212,10.504080574974012,10.538051569572616,0.0,0.0,0.0,0.0,0.0,0.0,0.0,0.0,0.0,0.0,0.0,7
14.89799331,0.27661813,0.96097951,0.00085495912,-0.00024610014,0.27661813,0.96097951,15.799,7.899,7.987950338315544,5.440768223346098,4.858227369549171,4.735830966810487,0.0,0.0,0.0,0.0,0.0,0.0,0.0,0.0,0.0,0.0,0.0,8.99452108270468,10.27661635598212,10.504080574974012,10.538051569572616,0.0,0.0,0.0,0.0,0.0,0.0,0.0,0.0,0.0,0.0,0.0,7
14.909699,0.29305284,0.95609575,0.0009369661,-0.00028718941,0.29305284,0.95609575,15.799,7.899,7.987950338315544,5.440768223346098,4.858227369549171,4.735830966810487,0.0,0.0,0.0,0.0,0.0,0.0,0.0,0.0,0.0,0.0,0.0,8.99452108270468,10.27661635598212,10.504080574974012,10.538051569572616,0.0,0.0,0.0,0.0,0.0,0.0,0.0,0.0,0.0,0.0,0.0,7
14.92140468,0.30984179,0.95078751,0.0010276289,-0.00033488279,0.30984179,0.95078751,15.799,7.899,7.987950338315544,5.440768223346098,4.858227369549171,4.735830966810487,0.0,0.0,0.0,0.0,0.0,0.0,0.0,0.0,0.0,0.0,0.0,8.99452108270468,10.27661635598212,10.504080574974012,10.538051569572616,0.0,0.0,0.0,0.0,0.0,0.0,0.0,0.0,0.0,0.0,0.0,7
14.93311037,0.32699361,0.9450258,0.0011279324,-0.00039028214,0.32699361,0.9450258,15.799,7.899,7.987950338315544,5.440768223346098,4.858227369549171,4.735830966810487,0.0,0.0,0.0,0.0,0.0,0.0,0.0,0.0,0.0,0.0,0.0,8.99452108270468,10.27661635598212,10.504080574974012,10.538051569572616,0.0,0.0,0.0,0.0,0.0,0.0,0.0,0.0,0.0,0.0,0.0,7
14.94481605,0.34451681,0.93877922,0.0012389787,-0.00045468517,0.34451681,0.93877922,15.799,7.899,7.987950338315544,5.440768223346098,4.858227369549171,4.735830966810487,0.0,0.0,0.0,0.0,0.0,0.0,0.0,0.0,0.0,0.0,0.0,8.99452108270468,10.27661635598212,10.504080574974012,10.538051569572616,0.0,0.0,0.0,0.0,0.0,0.0,0.0,0.0,0.0,0.0,0.0,7
14.95652174,0.36241976,0.93201383,0.0013620001,-0.00052962276,0.36241976,0.93201383,15.799,7.899,7.987950338315544,5.440768223346098,4.858227369549171,4.735830966810487,0.0,0.0,0.0,0.0,0.0,0.0,0.0,0.0,0.0,0.0,0.0,8.99452108270468,10.27661635598212,10.504080574974012,10.538051569572616,0.0,0.0,0.0,0.0,0.0,0.0,0.0,0.0,0.0,0.0,0.0,7
14.96822742,0.38071059,0.92469282,0.0014983741,-0.00061690421,0.38071059,0.92469282,15.799,7.899,7.987950338315544,5.440768223346098,4.858227369549171,4.735830966810487,0.0,0.0,0.0,0.0,0.0,0.0,0.0,0.0,0.0,0.0,0.0,8.99452108270468,10.27661635598212,10.504080574974012,10.538051569572616,0.0,0.0,0.0,0.0,0.0,0.0,0.0,0.0,0.0,0.0,0.0,7
14.97993311,0.3993971,0.91677626,0.0016496394,-0.00071867176,0.3993971,0.91677626,15.799,7.899,7.987950338315544,5.440768223346098,4.858227369549171,4.735830966810487,0.0,0.0,0.0,0.0,0.0,0.0,0.0,0.0,0.0,0.0,0.0,8.99452108270468,10.27661635598212,10.504080574974012,10.538051569572616,0.0,0.0,0.0,0.0,0.0,0.0,0.0,0.0,0.0,0.0,0.0,7
14.9916388,0.4184866,0.90822077,0.0018175125,-0.00083746669,0.4184866,0.90822077,15.799,7.899,7.987950338315544,5.440768223346098,4.858227369549171,4.735830966810487,0.0,0.0,0.0,0.0,0.0,0.0,0.0,0.0,0.0,0.0,0.0,8.99452108270468,10.27661635598212,10.504080574974012,10.538051569572616,0.0,0.0,0.0,0.0,0.0,0.0,0.0,0.0,0.0,0.0,0.0,7
15.55351171,0.016536488,-0.032060227,0.88816336,0.45810975,0.016536488,-0.032060227,15.799,7.899,7.987950338315544,5.440768223346098,4.858227369549171,4.735830966810487,0.0,0.0,0.0,0.0,0.0,0.0,0.0,0.0,0.0,0.0,0.0,8.99452108270468,10.27661635598212,10.504080574974012,10.538051569572616,0.0,0.0,0.0,0.0,0.0,0.0,0.0,0.0,0.0,0.0,0.0,7
15.56521739,0.0060329849,-0.018915671,0.95252875,0.30380056,0.0060329849,-0.018915671,15.799,7.899,7.987950338315544,5.440768223346098,4.858227369549171,4.735830966810487,0.0,0.0,0.0,0.0,0.0,0.0,0.0,0.0,0.0,0.0,0.0,8.99452108270468,10.27661635598212,10.504080574974012,10.538051569572616,0.0,0.0,0.0,0.0,0.0,0.0,0.0,0.0,0.0,0.0,0.0,7
15.57692308,0.00040151404,-0.002732284,0.9893706,0.14538979,0.00040151404,-0.002732284,15.799,7.899,7.987950338315544,5.440768223346098,4.858227369549171,4.735830966810487,0.0,0.0,0.0,0.0,0.0,0.0,0.0,0.0,0.0,0.0,0.0,8.99452108270468,10.27661635598212,10.504080574974012,10.538051569572616,0.0,0.0,0.0,0.0,0.0,0.0,0.0,0.0,0.0,0.0,0.0,7
15.58862876,0.00017400921,0.013745608,0.9998254,-0.012657049,0.00017400921,0.013745608,15.799,7.899,7.987950338315544,5.440768223346098,4.858227369549171,4.735830966810487,0.0,0.0,0.0,0.0,0.0,0.0,0.0,0.0,0.0,0.0,0.0,8.99452108270468,10.27661635598212,10.504080574974012,10.538051569572616,0.0,0.0,0.0,0.0,0.0,0.0,0.0,0.0,0.0,0.0,0.0,7
15.60033445,0.0047614913,0.028201674,0.98564128,-0.1664129,0.0047614913,0.028201674,15.799,7.899,7.987950338315544,5.440768223346098,4.858227369549171,4.735830966810487,0.0,0.0,0.0,0.0,0.0,0.0,0.0,0.0,0.0,0.0,0.0,8.99452108270468,10.27661635598212,10.504080574974012,10.538051569572616,0.0,0.0,0.0,0.0,0.0,0.0,0.0,0.0,0.0,0.0,0.0,7
15.61204013,0.01284793,0.039006202,0.94900198,-0.3125839,0.01284793,0.039006202,15.799,7.899,7.987950338315544,5.440768223346098,4.858227369549171,4.735830966810487,0.0,0.0,0.0,0.0,0.0,0.0,0.0,0.0,0.0,0.0,0.0,8.99452108270468,10.27661635598212,10.504080574974012,10.538051569572616,0.0,0.0,0.0,0.0,0.0,0.0,0.0,0.0,0.0,0.0,0.0,7
15.62374582,0.022768312,0.045298361,0.89233628,-0.44851491,0.022768312,0.045298361,15.799,7.899,7.987950338315544,5.440768223346098,4.858227369549171,4.735830966810487,0.0,0.0,0.0,0.0,0.0,0.0,0.0,0.0,0.0,0.0,0.0,8.99452108270468,10.27661635598212,10.504080574974012,10.538051569572616,0.0,0.0,0.0,0.0,0.0,0.0,0.0,0.0,0.0,0.0,0.0,7
15.63545151,0.032823834,0.046939299,0.81816266,-0.57212688,0.032823834,0.046939299,15.799,7.899,7.987950338315544,5.440768223346098,4.858227369549171,4.735830966810487,0.0,0.0,0.0,0.0,0.0,0.0,0.0,0.0,0.0,0.0,0.0,8.99452108270468,10.27661635598212,10.504080574974012,10.538051569572616,0.0,0.0,0.0,0.0,0.0,0.0,0.0,0.0,0.0,0.0,0.0,7
15.64715719,0.041513851,0.044385774,0.72898975,-0.68182142,0.041513851,0.044385774,15.799,7.899,7.987950338315544,5.440768223346098,4.858227369549171,4.735830966810487,0.0,0.0,0.0,0.0,0.0,0.0,0.0,0.0,0.0,0.0,0.0,8.99452108270468,10.27661635598212,10.504080574974012,10.538051569572616,0.0,0.0,0.0,0.0,0.0,0.0,0.0,0.0,0.0,0.0,0.0,7
15.65886288,0.047684282,0.038525932,0.62727066,-0.77638488,0.047684282,0.038525932,15.799,7.899,7.987950338315544,5.440768223346098,4.858227369549171,4.735830966810487,0.0,0.0,0.0,0.0,0.0,0.0,0.0,0.0,0.0,0.0,0.0,8.99452108270468,10.27661635598212,10.504080574974012,10.538051569572616,0.0,0.0,0.0,0.0,0.0,0.0,0.0,0.0,0.0,0.0,0.0,7
15.67056856,0.050603041,0.030506738,0.51539587,-0.85491272,0.050603041,0.030506738,15.799,7.899,7.987950338315544,5.440768223346098,4.858227369549171,4.735830966810487,0.0,0.0,0.0,0.0,0.0,0.0,0.0,0.0,0.0,0.0,0.0,8.99452108270468,10.27661635598212,10.504080574974012,10.538051569572616,0.0,0.0,0.0,0.0,0.0,0.0,0.0,0.0,0.0,0.0,0.0,7
15.68227425,0.049976588,0.021571572,0.39570559,-0.91676283,0.049976588,0.021571572,15.799,7.899,7.987950338315544,5.440768223346098,4.858227369549171,4.735830966810487,0.0,0.0,0.0,0.0,0.0,0.0,0.0,0.0,0.0,0.0,0.0,8.99452108270468,10.27661635598212,10.504080574974012,10.538051569572616,0.0,0.0,0.0,0.0,0.0,0.0,0.0,0.0,0.0,0.0,0.0,7
15.69397993,0.045921152,0.012918782,0.27050443,-0.96153612,0.045921152,0.012918782,15.799,7.899,7.987950338315544,5.440768223346098,4.858227369549171,4.735830966810487,0.0,0.0,0.0,0.0,0.0,0.0,0.0,0.0,0.0,0.0,0.0,8.99452108270468,10.27661635598212,10.504080574974012,10.538051569572616,0.0,0.0,0.0,0.0,0.0,0.0,0.0,0.0,0.0,0.0,0.0,7
15.70568562,0.038900524,0.0055875011,0.14206664,-0.98907664,0.038900524,0.0055875011,15.799,7.899,7.987950338315544,5.440768223346098,4.858227369549171,4.735830966810487,0.0,0.0,0.0,0.0,0.0,0.0,0.0,0.0,0.0,0.0,0.0,8.99452108270468,10.27661635598212,10.504080574974012,10.538051569572616,0.0,0.0,0.0,0.0,0.0,0.0,0.0,0.0,0.0,0.0,0.0,7
15.7173913,0.029640937,0.0003744455,0.012626156,-0.99948079,0.029640937,0.0003744455,15.799,7.899,7.987950338315544,5.440768223346098,4.858227369549171,4.735830966810487,0.0,0.0,0.0,0.0,0.0,0.0,0.0,0.0,0.0,0.0,0.0,8.99452108270468,10.27661635598212,10.504080574974012,10.538051569572616,0.0,0.0,0.0,0.0,0.0,0.0,0.0,0.0,0.0,0.0,0.0,7
15.72909699,0.01903298,-0.0022164184,-0.11564857,-0.99310535,0.01903298,-0.0022164184,15.799,7.899,7.987950338315544,5.440768223346098,4.858227369549171,4.735830966810487,0.0,0.0,0.0,0.0,0.0,0.0,0.0,0.0,0.0,0.0,0.0,8.99452108270468,10.27661635598212,10.504080574974012,10.538051569572616,0.0,0.0,0.0,0.0,0.0,0.0,0.0,0.0,0.0,0.0,0.0,7
15.74080268,0.0080302112,-0.0019914108,-0.24069066,-0.97056662,0.0080302112,-0.0019914108,15.799,7.899,7.987950338315544,5.440768223346098,4.858227369549171,4.735830966810487,0.0,0.0,0.0,0.0,0.0,0.0,0.0,0.0,0.0,0.0,0.0,8.99452108270468,10.27661635598212,10.504080574974012,10.538051569572616,0.0,0.0,0.0,0.0,0.0,0.0,0.0,0.0,0.0,0.0,0.0,7
15.75250836,-0.0024464007,0.00094573439,-0.36057523,-0.93272645,-0.0024464007,0.00094573439,15.799,7.899,7.987950338315544,5.440768223346098,4.858227369549171,4.735830966810487,0.0,0.0,0.0,0.0,0.0,0.0,0.0,0.0,0.0,0.0,0.0,8.99452108270468,10.27661635598212,10.504080574974012,10.538051569572616,0.0,0.0,0.0,0.0,0.0,0.0,0.0,0.0,0.0,0.0,0.0,7
15.76421405,-0.011590306,0.0062324179,-0.47355706,-0.88066483,-0.011590306,0.0062324179,15.799,7.899,7.987950338315544,5.440768223346098,4.858227369549171,4.735830966810487,0.0,0.0,0.0,0.0,0.0,0.0,0.0,0.0,0.0,0.0,0.0,8.99452108270468,10.27661635598212,10.504080574974012,10.538051569572616,0.0,0.0,0.0,0.0,0.0,0.0,0.0,0.0,0.0,0.0,0.0,7
15.77591973,-0.018771666,0.013304733,-0.57809972,-0.81564166,-0.018771666,0.013304733,15.799,7.899,7.987950338315544,5.440768223346098,4.858227369549171,4.735830966810487,0.0,0.0,0.0,0.0,0.0,0.0,0.0,0.0,0.0,0.0,0.0,8.99452108270468,10.27661635598212,10.504080574974012,10.538051569572616,0.0,0.0,0.0,0.0,0.0,0.0,0.0,0.0,0.0,0.0,0.0,7
15.78762542,-0.023576915,0.021466308,-0.67289261,-0.73905268,-0.023576915,0.021466308,15.799,7.899,7.987950338315544,5.440768223346098,4.858227369549171,4.735830966810487,0.0,0.0,0.0,0.0,0.0,0.0,0.0,0.0,0.0,0.0,0.0,8.99452108270468,10.27661635598212,10.504080574974012,10.538051569572616,0.0,0.0,0.0,0.0,0.0,0.0,0.0,0.0,0.0,0.0,0.0,7
15.7993311,-0.025825148,0.029960683,-0.75685503,-0.65238476,-0.025825148,0.029960683,15.799,7.899,7.987950338315544,5.440768223346098,4.858227369549171,4.735830966810487,0.0,0.0,0.0,0.0,0.0,0.0,0.0,0.0,0.0,0.0,0.0,8.99452108270468,10.27661635598212,10.504080574974012,10.538051569572616,0.0,0.0,0.0,0.0,0.0,0.0,0.0,0.0,0.0,0.0,0.0,7
15.81103679,-0.025563225,0.038040446,-0.82912893,-0.55717562,-0.025563225,0.038040446,15.799,7.899,7.987950338315544,5.440768223346098,4.858227369549171,4.735830966810487,0.0,0.0,0.0,0.0,0.0,0.0,0.0,0.0,0.0,0.0,0.0,8.99452108270468,10.27661635598212,10.504080574974012,10.538051569572616,0.0,0.0,0.0,0.0,0.0,0.0,0.0,0.0,0.0,0.0,0.0,7
15.82274247,-0.023043146,0.045027852,-0.88906342,-0.45498103,-0.023043146,0.045027852,15.799,7.899,7.987950338315544,5.440768223346098,4.858227369549171,4.735830966810487,0.0,0.0,0.0,0.0,0.0,0.0,0.0,0.0,0.0,0.0,0.0,8.99452108270468,10.27661635598212,10.504080574974012,10.538051569572616,0.0,0.0,0.0,0.0,0.0,0.0,0.0,0.0,0.0,0.0,0.0,7
15.83444816,-0.018686095,0.050363515,-0.93619518,-0.3473513,-0.018686095,0.050363515,15.799,7.899,7.987950338315544,5.440768223346098,4.858227369549171,4.735830966810487,0.0,0.0,0.0,0.0,0.0,0.0,0.0,0.0,0.0,0.0,0.0,8.99452108270468,10.27661635598212,10.504080574974012,10.538051569572616,0.0,0.0,0.0,0.0,0.0,0.0,0.0,0.0,0.0,0.0,0.0,7
15.84615385,-0.013037674,0.05364137,-0.97022842,-0.23581654,-0.013037674,0.05364137,15.799,7.899,7.987950338315544,5.440768223346098,4.858227369549171,4.735830966810487,0.0,0.0,0.0,0.0,0.0,0.0,0.0,0.0,0.0,0.0,0.0,8.99452108270468,10.27661635598212,10.504080574974012,10.538051569572616,0.0,0.0,0.0,0.0,0.0,0.0,0.0,0.0,0.0,0.0,0.0,7
15.85785953,-0.0067185443,0.054629454,-0.99101763,-0.12187923,-0.0067185443,0.054629454,15.799,7.899,7.987950338315544,5.440768223346098,4.858227369549171,4.735830966810487,0.0,0.0,0.0,0.0,0.0,0.0,0.0,0.0,0.0,0.0,0.0,8.99452108270468,10.27661635598212,10.504080574974012,10.538051569572616,0.0,0.0,0.0,0.0,0.0,0.0,0.0,0.0,0.0,0.0,0.0,7
15.86956522,-0.00037409004,0.053276985,-0.99855509,-0.0070114612,-0.00037409004,0.053276985,15.799,7.899,7.987950338315544,5.440768223346098,4.858227369549171,4.735830966810487,0.0,0.0,0.0,0.0,0.0,0.0,0.0,0.0,0.0,0.0,0.0,8.99452108270468,10.27661635598212,10.504080574974012,10.538051569572616,0.0,0.0,0.0,0.0,0.0,0.0,0.0,0.0,0.0,0.0,0.0,7
15.8812709,0.0053738511,0.049708783,-0.99296374,0.107346,0.0053738511,0.049708783,15.799,7.899,7.987950338315544,5.440768223346098,4.858227369549171,4.735830966810487,0.0,0.0,0.0,0.0,0.0,0.0,0.0,0.0,0.0,0.0,0.0,8.99452108270468,10.27661635598212,10.504080574974012,10.538051569572616,0.0,0.0,0.0,0.0,0.0,0.0,0.0,0.0,0.0,0.0,0.0,7
15.89297659,0.0099706797,0.044208464,-0.97449502,0.21978546,0.0099706797,0.044208464,15.799,7.899,7.987950338315544,5.440768223346098,4.858227369549171,4.735830966810487,0.0,0.0,0.0,0.0,0.0,0.0,0.0,0.0,0.0,0.0,0.0,8.99452108270468,10.27661635598212,10.504080574974012,10.538051569572616,0.0,0.0,0.0,0.0,0.0,0.0,0.0,0.0,0.0,0.0,0.0,7
15.90468227,0.012966032,0.037192062,-0.94353015,0.32893691,0.012966032,0.037192062,15.799,7.899,7.987950338315544,5.440768223346098,4.858227369549171,4.735830966810487,0.0,0.0,0.0,0.0,0.0,0.0,0.0,0.0,0.0,0.0,0.0,8.99452108270468,10.27661635598212,10.504080574974012,10.538051569572616,0.0,0.0,0.0,0.0,0.0,0.0,0.0,0.0,0.0,0.0,0.0,7
15.91638796,0.014042317,0.029174043,-0.90058289,0.4334768,0.014042317,0.029174043,15.799,7.899,7.987950338315544,5.440768223346098,4.858227369549171,4.735830966810487,0.0,0.0,0.0,0.0,0.0,0.0,0.0,0.0,0.0,0.0,0.0,8.99452108270468,10.27661635598212,10.504080574974012,10.538051569572616,0.0,0.0,0.0,0.0,0.0,0.0,0.0,0.0,0.0,0.0,0.0,7
15.92809365,0.0130334,0.020727931,-0.8463015,0.5321412,0.0130334,0.020727931,15.799,7.899,7.987950338315544,5.440768223346098,4.858227369549171,4.735830966810487,0.0,0.0,0.0,0.0,0.0,0.0,0.0,0.0,0.0,0.0,0.0,8.99452108270468,10.27661635598212,10.504080574974012,10.538051569572616,0.0,0.0,0.0,0.0,0.0,0.0,0.0,0.0,0.0,0.0,0.0,7
15.93979933,0.0099324779,0.012444092,-0.78146764,0.62374258,0.0099324779,0.012444092,15.799,7.899,7.987950338315544,5.440768223346098,4.858227369549171,4.735830966810487,0.0,0.0,0.0,0.0,0.0,0.0,0.0,0.0,0.0,0.0,0.0,8.99452108270468,10.27661635598212,10.504080574974012,10.538051569572616,0.0,0.0,0.0,0.0,0.0,0.0,0.0,0.0,0.0,0.0,0.0,7
15.95150502,0.0048888268,0.0048874587,-0.70699093,0.70718883,0.0048888268,0.0048874587,15.799,7.899,7.987950338315544,5.440768223346098,4.858227369549171,4.735830966810487,0.0,0.0,0.0,0.0,0.0,0.0,0.0,0.0,0.0,0.0,0.0,8.99452108270468,10.27661635598212,10.504080574974012,10.538051569572616,0.0,0.0,0.0,0.0,0.0,0.0,0.0,0.0,0.0,0.0,0.0,7
15.9632107,-0.0018062138,-0.0014419572,-0.62389794,0.78150241,-0.0018062138,-0.0014419572,15.799,7.899,7.987950338315544,5.440768223346098,4.858227369549171,4.735830966810487,0.0,0.0,0.0,0.0,0.0,0.0,0.0,0.0,0.0,0.0,0.0,8.99452108270468,10.27661635598212,10.504080574974012,10.538051569572616,0.0,0.0,0.0,0.0,0.0,0.0,0.0,0.0,0.0,0.0,0.0,7
15.97491639,-0.009742846,-0.0061430421,-0.53331606,0.84583764,-0.009742846,-0.0061430421,15.799,7.899,7.987950338315544,5.440768223346098,4.858227369549171,4.735830966810487,0.0,0.0,0.0,0.0,0.0,0.0,0.0,0.0,0.0,0.0,0.0,8.99452108270468,10.27661635598212,10.504080574974012,10.538051569572616,0.0,0.0,0.0,0.0,0.0,0.0,0.0,0.0,0.0,0.0,0.0,7
15.98662207,-0.018424114,-0.0089397575,-0.43645292,0.89949401,-0.018424114,-0.0089397575,15.799,7.899,7.987950338315544,5.440768223346098,4.858227369549171,4.735830966810487,0.0,0.0,0.0,0.0,0.0,0.0,0.0,0.0,0.0,0.0,0.0,8.99452108270468,10.27661635598212,10.504080574974012,10.538051569572616,0.0,0.0,0.0,0.0,0.0,0.0,0.0,0.0,0.0,0.0,0.0,7
15.99832776,-0.027302423,-0.0096978655,-0.33457306,0.9419243,-0.027302423,-0.0096978655,15.799,7.899,7.987950338315544,5.440768223346098,4.858227369549171,4.735830966810487,0.0,0.0,0.0,0.0,0.0,0.0,0.0,0.0,0.0,0.0,0.0,8.99452108270468,10.27661635598212,10.504080574974012,10.538051569572616,0.0,0.0,0.0,0.0,0.0,0.0,0.0,0.0,0.0,0.0,0.0,7
16.01003344,-0.035818473,-0.008431362,-0.22897392,0.97273681,-0.035818473,-0.008431362,15.799,7.899,7.987950338315544,5.440768223346098,4.858227369549171,4.735830966810487,0.0,0.0,0.0,0.0,0.0,0.0,0.0,0.0,0.0,0.0,0.0,8.99452108270468,10.27661635598212,10.504080574974012,10.538051569572616,0.0,0.0,0.0,0.0,0.0,0.0,0.0,0.0,0.0,0.0,0.0,7
16.02173913,-0.04343978,-0.0052986287,-0.12096303,0.99169192,-0.04343978,-0.0052986287,15.799,7.899,7.987950338315544,5.440768223346098,4.858227369549171,4.735830966810487,0.0,0.0,0.0,0.0,0.0,0.0,0.0,0.0,0.0,0.0,0.0,8.99452108270468,10.27661635598212,10.504080574974012,10.538051569572616,0.0,0.0,0.0,0.0,0.0,0.0,0.0,0.0,0.0,0.0,0.0,7
16.03344482,-0.04969618,-0.00058909031,-0.011838354,0.99869405,-0.04969618,-0.00058909031,15.799,7.899,7.987950338315544,5.440768223346098,4.858227369549171,4.735830966810487,0.0,0.0,0.0,0.0,0.0,0.0,0.0,0.0,0.0,0.0,0.0,8.99452108270468,10.27661635598212,10.504080574974012,10.538051569572616,0.0,0.0,0.0,0.0,0.0,0.0,0.0,0.0,0.0,0.0,0.0,7
16.0451505,-0.054210173,0.0052982292,0.097127091,0.99378042,-0.054210173,0.0052982292,15.799,7.899,7.987950338315544,5.440768223346098,4.858227369549171,4.735830966810487,0.0,0.0,0.0,0.0,0.0,0.0,0.0,0.0,0.0,0.0,0.0,8.99452108270468,10.27661635598212,10.504080574974012,10.538051569572616,0.0,0.0,0.0,0.0,0.0,0.0,0.0,0.0,0.0,0.0,0.0,7
16.05685619,-0.056720537,0.011882467,0.20469589,0.97710858,-0.056720537,0.011882467,15.799,7.899,7.987950338315544,5.440768223346098,4.858227369549171,4.735830966810487,0.0,0.0,0.0,0.0,0.0,0.0,0.0,0.0,0.0,0.0,0.0,8.99452108270468,10.27661635598212,10.504080574974012,10.538051569572616,0.0,0.0,0.0,0.0,0.0,0.0,0.0,0.0,0.0,0.0,0.0,7
16.06856187,-0.057098189,0.018633042,0.30967223,0.94894453,-0.057098189,0.018633042,15.799,7.899,7.987950338315544,5.440768223346098,4.858227369549171,4.735830966810487,0.0,0.0,0.0,0.0,0.0,0.0,0.0,0.0,0.0,0.0,0.0,8.99452108270468,10.27661635598212,10.504080574974012,10.538051569572616,0.0,0.0,0.0,0.0,0.0,0.0,0.0,0.0,0.0,0.0,0.0,7
16.08026756,-0.055353805,0.025004174,0.41090434,0.90965289,-0.055353805,0.025004174,15.799,7.899,7.987950338315544,5.440768223346098,4.858227369549171,4.735830966810487,0.0,0.0,0.0,0.0,0.0,0.0,0.0,0.0,0.0,0.0,0.0,8.99452108270468,10.27661635598212,10.504080574974012,10.538051569572616,0.0,0.0,0.0,0.0,0.0,0.0,0.0,0.0,0.0,0.0,0.0,7
