freq,s11_real,s11_imag,s21_real,s21_imag,s22_real,s22_imag,a,b,a2_1,a2_2,a2_3,a2_4,a2_5,a2_6,a2_7,a2_8,a2_9,a2_10,a2_11,a2_12,a2_13,a2_14,a2_15,l_1,l_2,l_3,l_4,l_5,l_6,l_7,l_8,l_9,l_10,l_11,l_12,l_13,l_14,l_15,order
14.85117057,0.2224268,0.97494919,0.00060934067,-0.00013901616,0.2224268,0.97494919,15.799,7.899,7.993594667653085,5.442044877142419,4.857192368589002,4.737213400655215,0.0,0.0,0.0,0.0,0.0,0.0,0.0,0.0,0.0,0.0,0.0,8.996910718795403,10.280595613737718,10.505284178289536,10.540418755007478,0.0,0.0,0.0,0.0,0.0,0.0,0.0,0.0,0.0,0.0,0.0,7
14.86287625,0.23765319,0.97134983,0.00066579476,-0.00016289523,0.23765319,0.97134983,15.799,7.899,7.993594667653085,5.442044877142419,4.857192368589002,4.737213400655215,0.0,0.0,0.0,0.0,0.0,0.0,0.0,0.0,0.0,0.0,0.0,8.996910718795403,10.280595613737718,10.505284178289536,10.540418755007478,0.0,0.0,0.0,0.0,0.0,0.0,0.0,0.0,0.0,0.0,0.0,7
14.87458194,0.25320117,0.96741335,0.0007280208,-0.00019054494,0.25320117,0.96741335,15.799,7.899,7.993594667653085,5.442044877142419,4.857192368589002,4.737213400655215,0.0,0.0,0.0,0.0,0.0,0.0,0.0,0.0,0.0,0.0,0.0,8.996910718795403,10.280595613737718,10.505284178289536,10.540418755007478,0.0,0.0,0.0,0.0,0.0,0.0,0.0,0.0,0.0,0.0,0.0,7
14.88628763,0.26907908,0.96311773,0.00079665957,-0.00022257343,0.26907908,0.96311773,15.799,7.899,7.993594667653085,5.442044877142419,4.857192368589002,4.737213400655215,0.0,0.0,0.0,0.0,0.0,0.0,0.0,0.0,0.0,0.0,0.0,8.996910718795403,10.280595613737718,10.505284178289536,10.540418755007478,0.0,0.0,0.0,0.0,0.0,0.0,0.0,0.0,0.0,0.0,0.0,7
14.89799331,0.28529529,0.95843923,0.00087242733,-0.00025969243,0.28529529,0.95843923,15.799,7.899,7.993594667653085,5.442044877142419,4.857192368589002,4.737213400655215,0.0,0.0,0.0,0.0,0.0,0.0,0.0,0.0,0.0,0.0,0.0,8.996910718795403,10.280595613737718,10.505284178289536,10.540418755007478,0.0,0.0,0.0,0.0,0.0,0.0,0.0,0.0,0.0,0.0,0.0,7
14.909699,0.30185827,0.95335229,0.00095612485,-0.00030273614,0.30185827,0.95335229,15.799,7.899,7.993594667653085,5.442044877142419,4.857192368589002,4.737213400655215,0.0,0.0,0.0,0.0,0.0,0.0,0.0,0.0,0.0,0.0,0.0,8.996910718795403,10.280595613737718,10.505284178289536,10.540418755007478,0.0,0.0,0.0,0.0,0.0,0.0,0.0,0.0,0.0,0.0,0.0,7
14.92140468,0.31877641,0.9478293,0.0010486475,-0.00035268385,0.31877641,0.9478293,15.799,7.899,7.993594667653085,5.442044877142419,4.857192368589002,4.737213400655215,0.0,0.0,0.0,0.0,0.0,0.0,0.0,0.0,0.0,0.0,0.0,8.996910718795403,10.280595613737718,10.505284178289536,10.540418755007478,0.0,0.0,0.0,0.0,0.0,0.0,0.0,0.0,0.0,0.0,0.0,7
14.93311037,0.3360581,0.94184046,0.0011509963,-0.00041068698,0.3360581,0.94184046,15.799,7.899,7.993594667653085,5.442044877142419,4.857192368589002,4.737213400655215,0.0,0.0,0.0,0.0,0.0,0.0,0.0,0.0,0.0,0.0,0.0,8.996910718795403,10.280595613737718,10.505284178289536,10.540418755007478,0.0,0.0,0.0,0.0,0.0,0.0,0.0,0.0,0.0,0.0,0.0,7
14.94481605,0.35371157,0.93535357,0.0012642901,-0.00047810161,0.35371157,0.93535357,15.799,7.899,7.993594667653085,5.442044877142419,4.857192368589002,4.737213400655215,0.0,0.0,0.0,0.0,0.0,0.0,0.0,0.0,0.0,0.0,0.0,8.996910718795403,10.280595613737718,10.505284178289536,10.540418755007478,0.0,0.0,0.0,0.0,0.0,0.0,0.0,0.0,0.0,0.0,0.0,7
14.95652174,0.37174485,0.92833374,0.0013897794,-0.00055652758,0.37174485,0.92833374,15.799,7.899,7.993594667653085,5.442044877142419,4.857192368589002,4.737213400655215,0.0,0.0,0.0,0.0,0.0,0.0,0.0,0.0,0.0,0.0,0.0,8.996910718795403,10.280595613737718,10.505284178289536,10.540418755007478,0.0,0.0,0.0,0.0,0.0,0.0,0.0,0.0,0.0,0.0,0.0,7
14.96822742,0.39016568,0.92074317,0.00152886,-0.00064785569,0.39016568,0.92074317,15.799,7.899,7.993594667653085,5.442044877142419,4.857192368589002,4.737213400655215,0.0,0.0,0.0,0.0,0.0,0.0,0.0,0.0,0.0,0.0,0.0,8.996910718795403,10.280595613737718,10.505284178289536,10.540418755007478,0.0,0.0,0.0,0.0,0.0,0.0,0.0,0.0,0.0,0.0,0.0,7
14.97993311,0.40898138,0.91254086,0.0016830892,-0.00075432475,0.40898138,0.91254086,15.799,7.899,7.993594667653085,5.442044877142419,4.857192368589002,4.737213400655215,0.0,0.0,0.0,0.0,0.0,0.0,0.0,0.0,0.0,0.0,0.0,8.996910718795403,10.280595613737718,10.505284178289536,10.540418755007478,0.0,0.0,0.0,0.0,0.0,0.0,0.0,0.0,0.0,0.0,0.0,7
14.9916388,0.42819875,0.90368226,0.0018542017,-0.00087859071,0.42819875,0.90368226,15.799,7.899,7.993594667653085,5.442044877142419,4.857192368589002,4.737213400655215,0.0,0.0,0.0,0.0,0.0,0.0,0.0,0.0,0.0,0.0,0.0,8.996910718795403,10.280595613737718,10.505284178289536,10.540418755007478,0.0,0.0,0.0,0.0,0.0,0.0,0.0,0.0,0.0,0.0,0.0,7
15.55351171,0.014823549,-0.031616495,0.90487025,0.42425287,0.014823549,-0.031616495,15.799,7.899,7.993594667653085,5.442044877142419,4.857192368589002,4.737213400655215,0.0,0.0,0.0,0.0,0.0,0.0,0.0,0.0,0.0,0.0,0.0,8.996910718795403,10.280595613737718,10.505284178289536,10.540418755007478,0.0,0.0,0.0,0.0,0.0,0.0,0.0,0.0,0.0,0.0,0.0,7
15.56521739,0.0052505209,-0.01883374,0.96308373,0.26849108,0.0052505209,-0.01883374,15.799,7.899,7.993594667653085,5.442044877142419,4.857192368589002,4.737213400655215,0.0,0.0,0.0,0.0,0.0,0.0,0.0,0.0,0.0,0.0,0.0,8.996910718795403,10.280595613737718,10.505284178289536,10.540418755007478,0.0,0.0,0.0,0.0,0.0,0.0,0.0,0.0,0.0,0.0,0.0,7
15.57692308,0.00038386395,-0.0034790422,0.9939619,0.10966988,0.00038386395,-0.0034790422,15.799,7.899,7.993594667653085,5.442044877142419,4.857192368589002,4.737213400655215,0.0,0.0,0.0,0.0,0.0,0.0,0.0,0.0,0.0,0.0,0.0,8.996910718795403,10.280595613737718,10.505284178289536,10.540418755007478,0.0,0.0,0.0,0.0,0.0,0.0,0.0,0.0,0.0,0.0,0.0,7
15.58862876,0.00056799408,0.011848417,0.99878266,-0.047880038,0.00056799408,0.011848417,15.799,7.899,7.993594667653085,5.442044877142419,4.857192368589002,4.737213400655215,0.0,0.0,0.0,0.0,0.0,0.0,0.0,0.0,0.0,0.0,0.0,8.996910718795403,10.280595613737718,10.505284178289536,10.540418755007478,0.0,0.0,0.0,0.0,0.0,0.0,0.0,0.0,0.0,0.0,0.0,7
15.60033445,0.005118238,0.025016454,0.97938598,-0.20037734,0.005118238,0.025016454,15.799,7.899,7.993594667653085,5.442044877142419,4.857192368589002,4.737213400655215,0.0,0.0,0.0,0.0,0.0,0.0,0.0,0.0,0.0,0.0,0.0,8.996910718795403,10.280595613737718,10.505284178289536,10.540418755007478,0.0,0.0,0.0,0.0,0.0,0.0,0.0,0.0,0.0,0.0,0.0,7
15.61204013,0.01270626,0.034580091,0.93800296,-0.34466391,0.01270626,0.034580091,15.799,7.899,7.993594667653085,5.442044877142419,4.857192368589002,4.737213400655215,0.0,0.0,0.0,0.0,0.0,0.0,0.0,0.0,0.0,0.0,0.0,8.996910718795403,10.280595613737718,10.505284178289536,10.540418755007478,0.0,0.0,0.0,0.0,0.0,0.0,0.0,0.0,0.0,0.0,0.0,7
15.62374582,0.021720101,0.039837608,0.87707934,-0.47819768,0.021720101,0.039837608,15.799,7.899,7.993594667653085,5.442044877142419,4.857192368589002,4.737213400655215,0.0,0.0,0.0,0.0,0.0,0.0,0.0,0.0,0.0,0.0,0.0,8.996910718795403,10.280595613737718,10.505284178289536,10.540418755007478,0.0,0.0,0.0,0.0,0.0,0.0,0.0,0.0,0.0,0.0,0.0,7
15.63545151,0.030558346,0.040769291,0.79913612,-0.59898707,0.030558346,0.040769291,15.799,7.899,7.993594667653085,5.442044877142419,4.857192368589002,4.737213400655215,0.0,0.0,0.0,0.0,0.0,0.0,0.0,0.0,0.0,0.0,0.0,8.996910718795403,10.280595613737718,10.505284178289536,10.540418755007478,0.0,0.0,0.0,0.0,0.0,0.0,0.0,0.0,0.0,0.0,0.0,7
15.64715719,0.037842436,0.037905883,0.70668292,-0.70550007,0.037842436,0.037905883,15.799,7.899,7.993594667653085,5.442044877142419,4.857192368589002,4.737213400655215,0.0,0.0,0.0,0.0,0.0,0.0,0.0,0.0,0.0,0.0,0.0,8.996910718795403,10.280595613737718,10.505284178289536,10.540418755007478,0.0,0.0,0.0,0.0,0.0,0.0,0.0,0.0,0.0,0.0,0.0,7
15.65886288,0.042548737,0.032165117,0.60217971,-0.7965768,0.042548737,0.032165117,15.799,7.899,7.993594667653085,5.442044877142419,4.857192368589002,4.737213400655215,0.0,0.0,0.0,0.0,0.0,0.0,0.0,0.0,0.0,0.0,0.0,8.996910718795403,10.280595613737718,10.505284178289536,10.540418755007478,0.0,0.0,0.0,0.0,0.0,0.0,0.0,0.0,0.0,0.0,0.0,7
15.67056856,0.044071159,0.024683299,0.48803156,-0.87136311,0.044071159,0.024683299,15.799,7.899,7.993594667653085,5.442044877142419,4.857192368589002,4.737213400655215,0.0,0.0,0.0,0.0,0.0,0.0,0.0,0.0,0.0,0.0,0.0,8.996910718795403,10.280595613737718,10.505284178289536,10.540418755007478,0.0,0.0,0.0,0.0,0.0,0.0,0.0,0.0,0.0,0.0,0.0,7
15.68227425,0.042227886,0.016658938,0.3665983,-0.92927121,0.042227886,0.016658938,15.799,7.899,7.993594667653085,5.442044877142419,4.857192368589002,4.737213400655215,0.0,0.0,0.0,0.0,0.0,0.0,0.0,0.0,0.0,0.0,0.0,8.996910718795403,10.280595613737718,10.505284178289536,10.540418755007478,0.0,0.0,0.0,0.0,0.0,0.0,0.0,0.0,0.0,0.0,0.0,7
15.69397993,0.037225262,0.0092185408,0.24020404,-0.9699646,0.037225262,0.0092185408,15.799,7.899,7.993594667653085,5.442044877142419,4.857192368589002,4.737213400655215,0.0,0.0,0.0,0.0,0.0,0.0,0.0,0.0,0.0,0.0,0.0,8.996910718795403,10.280595613737718,10.505284178289536,10.540418755007478,0.0,0.0,0.0,0.0,0.0,0.0,0.0,0.0,0.0,0.0,0.0,7
15.70568562,0.029590474,0.00331056,0.11113626,-0.99335904,0.029590474,0.00331056,15.799,7.899,7.993594667653085,5.442044877142419,4.857192368589002,4.737213400655215,0.0,0.0,0.0,0.0,0.0,0.0,0.0,0.0,0.0,0.0,0.0,8.996910718795403,10.280595613737718,10.505284178289536,10.540418755007478,0.0,0.0,0.0,0.0,0.0,0.0,0.0,0.0,0.0,0.0,0.0,7
15.7173913,0.020083651,-0.00036906216,-0.01836944,-0.99962947,0.020083651,-0.00036906216,15.799,7.899,7.993594667653085,5.442044877142419,4.857192368589002,4.737213400655215,0.0,0.0,0.0,0.0,0.0,0.0,0.0,0.0,0.0,0.0,0.0,8.996910718795403,10.280595613737718,10.505284178289536,10.540418755007478,0.0,0.0,0.0,0.0,0.0,0.0,0.0,0.0,0.0,0.0,0.0,7
15.72909699,0.0095994548,-0.0014183358,-0.146158,-0.98921367,0.0095994548,-0.0014183358,15.799,7.899,7.993594667653085,5.442044877142419,4.857192368589002,4.737213400655215,0.0,0.0,0.0,0.0,0.0,0.0,0.0,0.0,0.0,0.0,0.0,8.996910718795403,10.280595613737718,10.505284178289536,10.540418755007478,0.0,0.0,0.0,0.0,0.0,0.0,0.0,0.0,0.0,0.0,0.0,7
15.74080268,-0.00093213024,0.00026158346,-0.27019199,-0.96280598,-0.00093213024,0.00026158346,15.799,7.899,7.993594667653085,5.442044877142419,4.857192368589002,4.737213400655215,0.0,0.0,0.0,0.0,0.0,0.0,0.0,0.0,0.0,0.0,0.0,8.996910718795403,10.280595613737718,10.505284178289536,10.540418755007478,0.0,0.0,0.0,0.0,0.0,0.0,0.0,0.0,0.0,0.0,0.0,7
15.75250836,-0.010636943,0.0044863179,-0.38859061,-0.92133819,-0.010636943,0.0044863179,15.799,7.899,7.993594667653085,5.442044877142419,4.857192368589002,4.737213400655215,0.0,0.0,0.0,0.0,0.0,0.0,0.0,0.0,0.0,0.0,0.0,8.996910718795403,10.280595613737718,10.505284178289536,10.540418755007478,0.0,0.0,0.0,0.0,0.0,0.0,0.0,0.0,0.0,0.0,0.0,7
15.76421405,-0.018772395,0.010831933,-0.49966407,-0.86594808,-0.018772395,0.010831933,15.799,7.899,7.993594667653085,5.442044877142419,4.857192368589002,4.737213400655215,0.0,0.0,0.0,0.0,0.0,0.0,0.0,0.0,0.0,0.0,0.0,8.996910718795403,10.280595613737718,10.505284178289536,10.540418755007478,0.0,0.0,0.0,0.0,0.0,0.0,0.0,0.0,0.0,0.0,0.0,7
15.77591973,-0.024782806,0.018695313,-0.60193827,-0.79793898,-0.024782806,0.018695313,15.799,7.899,7.993594667653085,5.442044877142419,4.857192368589002,4.737213400655215,0.0,0.0,0.0,0.0,0.0,0.0,0.0,0.0,0.0,0.0,0.0,8.996910718795403,10.280595613737718,10.505284178289536,10.540418755007478,0.0,0.0,0.0,0.0,0.0,0.0,0.0,0.0,0.0,0.0,0.0,7
15.78762542,-0.028331967,0.027363506,-0.69416712,-0.71873538,-0.028331967,0.027363506,15.799,7.899,7.993594667653085,5.442044877142419,4.857192368589002,4.737213400655215,0.0,0.0,0.0,0.0,0.0,0.0,0.0,0.0,0.0,0.0,0.0,8.996910718795403,10.280595613737718,10.505284178289536,10.540418755007478,0.0,0.0,0.0,0.0,0.0,0.0,0.0,0.0,0.0,0.0,0.0,7
15.7993311,-0.029313225,0.036084583,-0.77533263,-0.62983962,-0.029313225,0.036084583,15.799,7.899,7.993594667653085,5.442044877142419,4.857192368589002,4.737213400655215,0.0,0.0,0.0,0.0,0.0,0.0,0.0,0.0,0.0,0.0,0.0,8.996910718795403,10.280595613737718,10.505284178289536,10.540418755007478,0.0,0.0,0.0,0.0,0.0,0.0,0.0,0.0,0.0,0.0,0.0,7
15.81103679,-0.027839483,0.044133734,-0.84463464,-0.53279406,-0.027839483,0.044133734,15.799,7.899,7.993594667653085,5.442044877142419,4.857192368589002,4.737213400655215,0.0,0.0,0.0,0.0,0.0,0.0,0.0,0.0,0.0,0.0,0.0,8.996910718795403,10.280595613737718,10.505284178289536,10.540418755007478,0.0,0.0,0.0,0.0,0.0,0.0,0.0,0.0,0.0,0.0,0.0,7
15.82274247,-0.024216899,0.050869922,-0.90147372,-0.4291514,-0.024216899,0.050869922,15.799,7.899,7.993594667653085,5.442044877142419,4.857192368589002,4.737213400655215,0.0,0.0,0.0,0.0,0.0,0.0,0.0,0.0,0.0,0.0,0.0,8.996910718795403,10.280595613737718,10.505284178289536,10.540418755007478,0.0,0.0,0.0,0.0,0.0,0.0,0.0,0.0,0.0,0.0,0.0,7
15.83444816,-0.018906711,0.055780198,-0.94543125,-0.32045414,-0.018906711,0.055780198,15.799,7.899,7.993594667653085,5.442044877142419,4.857192368589002,4.737213400655215,0.0,0.0,0.0,0.0,0.0,0.0,0.0,0.0,0.0,0.0,0.0,8.996910718795403,10.280595613737718,10.505284178289536,10.540418755007478,0.0,0.0,0.0,0.0,0.0,0.0,0.0,0.0,0.0,0.0,0.0,7
15.84615385,-0.012479544,0.058510314,-0.9762501,-0.20822237,-0.012479544,0.058510314,15.799,7.899,7.993594667653085,5.442044877142419,4.857192368589002,4.737213400655215,0.0,0.0,0.0,0.0,0.0,0.0,0.0,0.0,0.0,0.0,0.0,8.996910718795403,10.280595613737718,10.505284178289536,10.540418755007478,0.0,0.0,0.0,0.0,0.0,0.0,0.0,0.0,0.0,0.0,0.0,7
15.85785953,-0.0055662039,0.058881452,-0.99381877,-0.093948056,-0.0055662039,0.058881452,15.799,7.899,7.993594667653085,5.442044877142419,4.857192368589002,4.737213400655215,0.0,0.0,0.0,0.0,0.0,0.0,0.0,0.0,0.0,0.0,0.0,8.996910718795403,10.280595613737718,10.505284178289536,10.540418755007478,0.0,0.0,0.0,0.0,0.0,0.0,0.0,0.0,0.0,0.0,0.0,7
15.86956522,0.0011916609,0.056893705,-0.9981606,0.020906864,0.0011916609,0.056893705,15.799,7.899,7.993594667653085,5.442044877142419,4.857192368589002,4.737213400655215,0.0,0.0,0.0,0.0,0.0,0.0,0.0,0.0,0.0,0.0,0.0,8.996910718795403,10.280595613737718,10.505284178289536,10.540418755007478,0.0,0.0,0.0,0.0,0.0,0.0,0.0,0.0,0.0,0.0,0.0,7
15.8812709,0.0071881757,0.052717449,-0.98942818,0.13491138,0.0071881757,0.052717449,15.799,7.899,7.993594667653085,5.442044877142419,4.857192368589002,4.737213400655215,0.0,0.0,0.0,0.0,0.0,0.0,0.0,0.0,0.0,0.0,0.0,8.996910718795403,10.280595613737718,10.505284178289536,10.540418755007478,0.0,0.0,0.0,0.0,0.0,0.0,0.0,0.0,0.0,0.0,0.0,7
15.89297659,0.011894775,0.046674042,-0.96790241,0.24666775,0.011894775,0.046674042,15.799,7.899,7.993594667653085,5.442044877142419,4.857192368589002,4.737213400655215,0.0,0.0,0.0,0.0,0.0,0.0,0.0,0.0,0.0,0.0,0.0,8.996910718795403,10.280595613737718,10.505284178289536,10.540418755007478,0.0,0.0,0.0,0.0,0.0,0.0,0.0,0.0,0.0,0.0,0.0,7
15.90468227,0.014894654,0.039207579,-0.93399447,0.35481721,0.014894654,0.039207579,15.799,7.899,7.993594667653085,5.442044877142419,4.857192368589002,4.737213400655215,0.0,0.0,0.0,0.0,0.0,0.0,0.0,0.0,0.0,0.0,0.0,8.996910718795403,10.280595613737718,10.505284178289536,10.540418755007478,0.0,0.0,0.0,0.0,0.0,0.0,0.0,0.0,0.0,0.0,0.0,7
15.91638796,0.015908479,0.030849667,-0.8882486,0.45804982,0.015908479,0.030849667,15.799,7.899,7.993594667653085,5.442044877142419,4.857192368589002,4.737213400655215,0.0,0.0,0.0,0.0,0.0,0.0,0.0,0.0,0.0,0.0,0.0,8.996910718795403,10.280595613737718,10.505284178289536,10.540418755007478,0.0,0.0,0.0,0.0,0.0,0.0,0.0,0.0,0.0,0.0,0.0,7
15.92809365,0.01481008,0.022179519,-0.83134352,0.55511862,0.01481008,0.022179519,15.799,7.899,7.993594667653085,5.442044877142419,4.857192368589002,4.737213400655215,0.0,0.0,0.0,0.0,0.0,0.0,0.0,0.0,0.0,0.0,0.0,8.996910718795403,10.280595613737718,10.505284178289536,10.540418755007478,0.0,0.0,0.0,0.0,0.0,0.0,0.0,0.0,0.0,0.0,0.0,7
15.93979933,0.011631327,0.013781943,-0.76409034,0.64485713,0.011631327,0.013781943,15.799,7.899,7.993594667653085,5.442044877142419,4.857192368589002,4.737213400655215,0.0,0.0,0.0,0.0,0.0,0.0,0.0,0.0,0.0,0.0,0.0,8.996910718795403,10.280595613737718,10.505284178289536,10.540418755007478,0.0,0.0,0.0,0.0,0.0,0.0,0.0,0.0,0.0,0.0,0.0,7
15.95150502,0.0065560307,0.006205997,-0.68742589,0.72619843,0.0065560307,0.006205997,15.799,7.899,7.993594667653085,5.442044877142419,4.857192368589002,4.737213400655215,0.0,0.0,0.0,0.0,0.0,0.0,0.0,0.0,0.0,0.0,0.0,8.996910718795403,10.280595613737718,10.505284178289536,10.540418755007478,0.0,0.0,0.0,0.0,0.0,0.0,0.0,0.0,0.0,0.0,0.0,7
15.9632107,-9.6548716e-05,-7.2865744e-05,-0.60240052,0.79819396,-9.6548716e-05,-7.2865744e-05,15.799,7.899,7.993594667653085,5.442044877142419,4.857192368589002,4.737213400655215,0.0,0.0,0.0,0.0,0.0,0.0,0.0,0.0,0.0,0.0,0.0,8.996910718795403,10.280595613737718,10.505284178289536,10.540418755007478,0.0,0.0,0.0,0.0,0.0,0.0,0.0,0.0,0.0,0.0,0.0,7
15.97491639,-0.0078972631,-0.0046845759,-0.51016098,0.86002992,-0.0078972631,-0.0046845759,15.799,7.899,7.993594667653085,5.442044877142419,4.857192368589002,4.737213400655215,0.0,0.0,0.0,0.0,0.0,0.0,0.0,0.0,0.0,0.0,0.0,8.996910718795403,10.280595613737718,10.505284178289536,10.540418755007478,0.0,0.0,0.0,0.0,0.0,0.0,0.0,0.0,0.0,0.0,0.0,7
15.98662207,-0.01633965,-0.0073880217,-0.4119292,0.91103939,-0.01633965,-0.0073880217,15.799,7.899,7.993594667653085,5.442044877142419,4.857192368589002,4.737213400655215,0.0,0.0,0.0,0.0,0.0,0.0,0.0,0.0,0.0,0.0,0.0,8.996910718795403,10.280595613737718,10.505284178289536,10.540418755007478,0.0,0.0,0.0,0.0,0.0,0.0,0.0,0.0,0.0,0.0,0.0,7
15.99832776,-0.024876977,-0.0080849779,-0.30897895,0.95070909,-0.024876977,-0.0080849779,15.799,7.899,7.993594667653085,5.442044877142419,4.857192368589002,4.737213400655215,0.0,0.0,0.0,0.0,0.0,0.0,0.0,0.0,0.0,0.0,0.0,8.996910718795403,10.280595613737718,10.505284178289536,10.540418755007478,0.0,0.0,0.0,0.0,0.0,0.0,0.0,0.0,0.0,0.0,0.0,7
16.01003344,-0.032960954,-0.0068237709,-0.20261218,0.9786804,-0.032960954,-0.0068237709,15.799,7.899,7.993594667653085,5.442044877142419,4.857192368589002,4.737213400655215,0.0,0.0,0.0,0.0,0.0,0.0,0.0,0.0,0.0,0.0,0.0,8.996910718795403,10.280595613737718,10.505284178289536,10.540418755007478,0.0,0.0,0.0,0.0,0.0,0.0,0.0,0.0,0.0,0.0,0.0,7
16.02173913,-0.040079344,-0.0037928855,-0.094137109,0.99474492,-0.040079344,-0.0037928855,15.799,7.899,7.993594667653085,5.442044877142419,4.857192368589002,4.737213400655215,0.0,0.0,0.0,0.0,0.0,0.0,0.0,0.0,0.0,0.0,0.0,8.996910718795403,10.280595613737718,10.505284178289536,10.540418755007478,0.0,0.0,0.0,0.0,0.0,0.0,0.0,0.0,0.0,0.0,0.0,7
16.03344482,-0.045789989,0.00069454359,0.015150366,0.99883595,-0.045789989,0.00069454359,15.799,7.899,7.993594667653085,5.442044877142419,4.857192368589002,4.737213400655215,0.0,0.0,0.0,0.0,0.0,0.0,0.0,0.0,0.0,0.0,0.0,8.996910718795403,10.280595613737718,10.505284178289536,10.540418755007478,0.0,0.0,0.0,0.0,0.0,0.0,0.0,0.0,0.0,0.0,0.0,7
16.0451505,-0.049749263,0.0062238665,0.1239809,0.99101716,-0.049749263,0.0062238665,15.799,7.899,7.993594667653085,5.442044877142419,4.857192368589002,4.737213400655215,0.0,0.0,0.0,0.0,0.0,0.0,0.0,0.0,0.0,0.0,0.0,8.996910718795403,10.280595613737718,10.505284178289536,10.540418755007478,0.0,0.0,0.0,0.0,0.0,0.0,0.0,0.0,0.0,0.0,0.0,7
16.05685619,-0.051733511,0.012307852,0.23112129,0.97147059,-0.051733511,0.012307852,15.799,7.899,7.993594667653085,5.442044877142419,4.857192368589002,4.737213400655215,0.0,0.0,0.0,0.0,0.0,0.0,0.0,0.0,0.0,0.0,0.0,8.996910718795403,10.280595613737718,10.505284178289536,10.540418755007478,0.0,0.0,0.0,0.0,0.0,0.0,0.0,0.0,0.0,0.0,0.0,7
16.06856187,-0.051652583,0.018419456,0.3353798,0.94048558,-0.051652583,0.018419456,15.799,7.899,7.993594667653085,5.442044877142419,4.857192368589002,4.737213400655215,0.0,0.0,0.0,0.0,0.0,0.0,0.0,0.0,0.0,0.0,0.0,8.996910718795403,10.280595613737718,10.505284178289536,10.540418755007478,0.0,0.0,0.0,0.0,0.0,0.0,0.0,0.0,0.0,0.0,0.0,7
16.08026756,-0.049555082,0.024026493,0.43560826,0.89845003,-0.049555082,0.024026493,15.799,7.899,7.993594667653085,5.442044877142419,4.857192368589002,4.737213400655215,0.0,0.0,0.0,0.0,0.0,0.0,0.0,0.0,0.0,0.0,0.0,8.996910718795403,10.280595613737718,10.505284178289536,10.540418755007478,0.0,0.0,0.0,0.0,0.0,0.0,0.0,0.0,0.0,0.0,0.0,7
