freq,s11_real,s11_imag,s21_real,s21_imag,s22_real,s22_imag,a,b,a2_1,a2_2,a2_3,a2_4,a2_5,a2_6,a2_7,a2_8,a2_9,a2_10,a2_11,a2_12,a2_13,a2_14,a2_15,l_1,l_2,l_3,l_4,l_5,l_6,l_7,l_8,l_9,l_10,l_11,l_12,l_13,l_14,l_15,order
14.85117057,0.20870303,0.97797888,0.00057980731,-0.00012373227,0.20870303,0.97797888,15.799,7.899,7.985247142433047,5.4408708384283,4.854412231209089,4.734745200999783,0.0,0.0,0.0,0.0,0.0,0.0,0.0,0.0,0.0,0.0,0.0,8.990822126737717,10.273438302785673,10.500074335699544,10.535526705402804,0.0,0.0,0.0,0.0,0.0,0.0,0.0,0.0,0.0,0.0,0.0,7
14.86287625,0.2237011,0.97465758,0.00063334359,-0.00014536352,0.2237011,0.97465758,15.799,7.899,7.985247142433047,5.4408708384283,4.854412231209089,4.734745200999783,0.0,0.0,0.0,0.0,0.0,0.0,0.0,0.0,0.0,0.0,0.0,8.990822126737717,10.273438302785673,10.500074335699544,10.535526705402804,0.0,0.0,0.0,0.0,0.0,0.0,0.0,0.0,0.0,0.0,0.0,7
14.87458194,0.23901679,0.97101517,0.00069234113,-0.00017042077,0.23901679,0.97101517,15.799,7.899,7.985247142433047,5.4408708384283,4.854412231209089,4.734745200999783,0.0,0.0,0.0,0.0,0.0,0.0,0.0,0.0,0.0,0.0,0.0,8.990822126737717,10.273438302785673,10.500074335699544,10.535526705402804,0.0,0.0,0.0,0.0,0.0,0.0,0.0,0.0,0.0,0.0,0.0,7
14.88628763,0.25465853,0.96703072,0.00075740606,-0.00019945583,0.25465853,0.96703072,15.799,7.899,7.985247142433047,5.4408708384283,4.854412231209089,4.734745200999783,0.0,0.0,0.0,0.0,0.0,0.0,0.0,0.0,0.0,0.0,0.0,8.990822126737717,10.273438302785673,10.500074335699544,10.535526705402804,0.0,0.0,0.0,0.0,0.0,0.0,0.0,0.0,0.0,0.0,0.0,7
14.89799331,0.27063488,0.96268168,0.00082921617,-0.00023311425,0.27063488,0.96268168,15.799,7.899,7.985247142433047,5.4408708384283,4.854412231209089,4.734745200999783,0.0,0.0,0.0,0.0,0.0,0.0,0.0,0.0,0.0,0.0,0.0,8.990822126737717,10.273438302785673,10.500074335699544,10.535526705402804,0.0,0.0,0.0,0.0,0.0,0.0,0.0,0.0,0.0,0.0,0.0,7
14.909699,0.28695445,0.95794376,0.00090852957,-0.0002721523,0.28695445,0.95794376,15.799,7.899,7.985247142433047,5.4408708384283,4.854412231209089,4.734745200999783,0.0,0.0,0.0,0.0,0.0,0.0,0.0,0.0,0.0,0.0,0.0,8.990822126737717,10.273438302785673,10.500074335699544,10.535526705402804,0.0,0.0,0.0,0.0,0.0,0.0,0.0,0.0,0.0,0.0,0.0,7
14.92140468,0.3036259,0.95279075,0.00099619444,-0.00031745735,0.3036259,0.95279075,15.799,7.899,7.985247142433047,5.4408708384283,4.854412231209089,4.734745200999783,0.0,0.0,0.0,0.0,0.0,0.0,0.0,0.0,0.0,0.0,0.0,8.990822126737717,10.273438302785673,10.500074335699544,10.535526705402804,0.0,0.0,0.0,0.0,0.0,0.0,0.0,0.0,0.0,0.0,0.0,7
14.93311037,0.32065788,0.94719438,0.0010931598,-0.00037007218,0.32065788,0.94719438,15.799,7.899,7.985247142433047,5.4408708384283,4.854412231209089,4.734745200999783,0.0,0.0,0.0,0.0,0.0,0.0,0.0,0.0,0.0,0.0,0.0,8.990822126737717,10.273438302785673,10.500074335699544,10.535526705402804,0.0,0.0,0.0,0.0,0.0,0.0,0.0,0.0,0.0,0.0,0.0,7
14.94481605,0.33805898,0.94112406,0.0012004872,-0.00043122423,0.33805898,0.94112406,15.799,7.899,7.985247142433047,5.4408708384283,4.854412231209089,4.734745200999783,0.0,0.0,0.0,0.0,0.0,0.0,0.0,0.0,0.0,0.0,0.0,8.990822126737717,10.273438302785673,10.500074335699544,10.535526705402804,0.0,0.0,0.0,0.0,0.0,0.0,0.0,0.0,0.0,0.0,0.0,7
14.95652174,0.35583769,0.93454671,0.0013193645,-0.00050236077,0.35583769,0.93454671,15.799,7.899,7.985247142433047,5.4408708384283,4.854412231209089,4.734745200999783,0.0,0.0,0.0,0.0,0.0,0.0,0.0,0.0,0.0,0.0,0.0,8.990822126737717,10.273438302785673,10.500074335699544,10.535526705402804,0.0,0.0,0.0,0.0,0.0,0.0,0.0,0.0,0.0,0.0,0.0,7
14.96822742,0.37400225,0.92742647,0.0014511192,-0.00058519124,0.37400225,0.92742647,15.799,7.899,7.985247142433047,5.4408708384283,4.854412231209089,4.734745200999783,0.0,0.0,0.0,0.0,0.0,0.0,0.0,0.0,0.0,0.0,0.0,8.990822126737717,10.273438302785673,10.500074335699544,10.535526705402804,0.0,0.0,0.0,0.0,0.0,0.0,0.0,0.0,0.0,0.0,0.0,7
14.97993311,0.39256064,0.91972448,0.0015972349,-0.00068173846,0.39256064,0.91972448,15.799,7.899,7.985247142433047,5.4408708384283,4.854412231209089,4.734745200999783,0.0,0.0,0.0,0.0,0.0,0.0,0.0,0.0,0.0,0.0,0.0,8.990822126737717,10.273438302785673,10.500074335699544,10.535526705402804,0.0,0.0,0.0,0.0,0.0,0.0,0.0,0.0,0.0,0.0,0.0,7
14.9916388,0.41152039,0.91139851,0.0017593673,-0.00079440059,0.41152039,0.91139851,15.799,7.899,7.985247142433047,5.4408708384283,4.854412231209089,4.734745200999783,0.0,0.0,0.0,0.0,0.0,0.0,0.0,0.0,0.0,0.0,0.0,8.990822126737717,10.273438302785673,10.500074335699544,10.535526705402804,0.0,0.0,0.0,0.0,0.0,0.0,0.0,0.0,0.0,0.0,0.0,7
15.55351171,0.022120877,-0.037339954,0.85954657,0.50921123,0.022120877,-0.037339954,15.799,7.899,7.985247142433047,5.4408708384283,4.854412231209089,4.734745200999783,0.0,0.0,0.0,0.0,0.0,0.0,0.0,0.0,0.0,0.0,0.0,8.990822126737717,10.273438302785673,10.500074335699544,10.535526705402804,0.0,0.0,0.0,0.0,0.0,0.0,0.0,0.0,0.0,0.0,0.0,7
15.56521739,0.010166519,-0.026547155,0.93348494,0.35748812,0.010166519,-0.026547155,15.799,7.899,7.985247142433047,5.4408708384283,4.854412231209089,4.734745200999783,0.0,0.0,0.0,0.0,0.0,0.0,0.0,0.0,0.0,0.0,0.0,8.990822126737717,10.273438302785673,10.500074335699544,10.535526705402804,0.0,0.0,0.0,0.0,0.0,0.0,0.0,0.0,0.0,0.0,0.0,7
15.57692308,0.0023980864,-0.011745295,0.97971588,0.20003272,0.0023980864,-0.011745295,15.799,7.899,7.985247142433047,5.4408708384283,4.854412231209089,4.734745200999783,0.0,0.0,0.0,0.0,0.0,0.0,0.0,0.0,0.0,0.0,0.0,8.990822126737717,10.273438302785673,10.500074335699544,10.535526705402804,0.0,0.0,0.0,0.0,0.0,0.0,0.0,0.0,0.0,0.0,0.0,7
15.58862876,-0.00017913714,0.0043194776,0.99913181,0.041435941,-0.00017913714,0.0043194776,15.799,7.899,7.985247142433047,5.4408708384283,4.854412231209089,4.734745200999783,0.0,0.0,0.0,0.0,0.0,0.0,0.0,0.0,0.0,0.0,0.0,8.990822126737717,10.273438302785673,10.500074335699544,10.535526705402804,0.0,0.0,0.0,0.0,0.0,0.0,0.0,0.0,0.0,0.0,0.0,7
15.60033445,0.0022059512,0.019188009,0.99327099,-0.11419149,0.0022059512,0.019188009,15.799,7.899,7.985247142433047,5.4408708384283,4.854412231209089,4.734745200999783,0.0,0.0,0.0,0.0,0.0,0.0,0.0,0.0,0.0,0.0,0.0,8.990822126737717,10.273438302785673,10.500074335699544,10.535526705402804,0.0,0.0,0.0,0.0,0.0,0.0,0.0,0.0,0.0,0.0,0.0,7
15.61204013,0.0084702841,0.031012339,0.96416743,-0.26333944,0.0084702841,0.031012339,15.799,7.899,7.985247142433047,5.4408708384283,4.854412231209089,4.734745200999783,0.0,0.0,0.0,0.0,0.0,0.0,0.0,0.0,0.0,0.0,0.0,8.990822126737717,10.273438302785673,10.500074335699544,10.535526705402804,0.0,0.0,0.0,0.0,0.0,0.0,0.0,0.0,0.0,0.0,0.0,7
15.62374582,0.017062917,0.03869268,0.91416379,-0.40313311,0.017062917,0.03869268,15.799,7.899,7.985247142433047,5.4408708384283,4.854412231209089,4.734745200999783,0.0,0.0,0.0,0.0,0.0,0.0,0.0,0.0,0.0,0.0,0.0,8.990822126737717,10.273438302785673,10.500074335699544,10.535526705402804,0.0,0.0,0.0,0.0,0.0,0.0,0.0,0.0,0.0,0.0,0.0,7
15.63545151,0.026302231,0.041869583,0.84574465,-0.53129193,0.026302231,0.041869583,15.799,7.899,7.985247142433047,5.4408708384283,4.854412231209089,4.734745200999783,0.0,0.0,0.0,0.0,0.0,0.0,0.0,0.0,0.0,0.0,0.0,8.990822126737717,10.273438302785673,10.500074335699544,10.535526705402804,0.0,0.0,0.0,0.0,0.0,0.0,0.0,0.0,0.0,0.0,0.0,7
15.64715719,0.034635329,0.040820755,0.76141995,-0.64604467,0.034635329,0.040820755,15.799,7.899,7.985247142433047,5.4408708384283,4.854412231209089,4.734745200999783,0.0,0.0,0.0,0.0,0.0,0.0,0.0,0.0,0.0,0.0,0.0,8.990822126737717,10.273438302785673,10.500074335699544,10.535526705402804,0.0,0.0,0.0,0.0,0.0,0.0,0.0,0.0,0.0,0.0,0.0,7
15.65886288,0.040813264,0.03630699,0.6636632,-0.74603434,0.040813264,0.03630699,15.799,7.899,7.985247142433047,5.4408708384283,4.854412231209089,4.734745200999783,0.0,0.0,0.0,0.0,0.0,0.0,0.0,0.0,0.0,0.0,0.0,8.990822126737717,10.273438302785673,10.500074335699544,10.535526705402804,0.0,0.0,0.0,0.0,0.0,0.0,0.0,0.0,0.0,0.0,0.0,7
15.67056856,0.043989481,0.029400558,0.55489285,-0.83023759,0.043989481,0.029400558,15.799,7.899,7.985247142433047,5.4408708384283,4.854412231209089,4.734745200999783,0.0,0.0,0.0,0.0,0.0,0.0,0.0,0.0,0.0,0.0,0.0,8.990822126737717,10.273438302785673,10.500074335699544,10.535526705402804,0.0,0.0,0.0,0.0,0.0,0.0,0.0,0.0,0.0,0.0,0.0,7
15.68227425,0.043754509,0.021317998,0.43747853,-0.8979107,0.043754509,0.021317998,15.799,7.899,7.985247142433047,5.4408708384283,4.854412231209089,4.734745200999783,0.0,0.0,0.0,0.0,0.0,0.0,0.0,0.0,0.0,0.0,0.0,8.990822126737717,10.273438302785673,10.500074335699544,10.535526705402804,0.0,0.0,0.0,0.0,0.0,0.0,0.0,0.0,0.0,0.0,0.0,7
15.69397993,0.040120569,0.013270593,0.31375423,-0.94856339,0.040120569,0.013270593,15.799,7.899,7.985247142433047,5.4408708384283,4.854412231209089,4.734745200999783,0.0,0.0,0.0,0.0,0.0,0.0,0.0,0.0,0.0,0.0,0.0,8.990822126737717,10.273438302785673,10.500074335699544,10.535526705402804,0.0,0.0,0.0,0.0,0.0,0.0,0.0,0.0,0.0,0.0,0.0,7
15.70568562,0.033468494,0.0063403916,0.18602496,-0.98195436,0.033468494,0.0063403916,15.799,7.899,7.985247142433047,5.4408708384283,4.854412231209089,4.734745200999783,0.0,0.0,0.0,0.0,0.0,0.0,0.0,0.0,0.0,0.0,0.0,8.990822126737717,10.273438302785673,10.500074335699544,10.535526705402804,0.0,0.0,0.0,0.0,0.0,0.0,0.0,0.0,0.0,0.0,0.0,7
15.7173913,0.024467965,0.0013865313,0.05655945,-0.9980984,0.024467965,0.0013865313,15.799,7.899,7.985247142433047,5.4408708384283,4.854412231209089,4.734745200999783,0.0,0.0,0.0,0.0,0.0,0.0,0.0,0.0,0.0,0.0,0.0,8.990822126737717,10.273438302785673,10.500074335699544,10.535526705402804,0.0,0.0,0.0,0.0,0.0,0.0,0.0,0.0,0.0,0.0,0.0,7
15.72909699,0.013981401,-0.0010154758,-0.072432545,-0.99727479,0.013981401,-0.0010154758,15.799,7.899,7.985247142433047,5.4408708384283,4.854412231209089,4.734745200999783,0.0,0.0,0.0,0.0,0.0,0.0,0.0,0.0,0.0,0.0,0.0,8.990822126737717,10.273438302785673,10.500074335699544,10.535526705402804,0.0,0.0,0.0,0.0,0.0,0.0,0.0,0.0,0.0,0.0,0.0,7
15.74080268,0.0029615328,-0.00060085685,-0.19883511,-0.9800283,0.0029615328,-0.00060085685,15.799,7.899,7.985247142433047,5.4408708384283,4.854412231209089,4.734745200999783,0.0,0.0,0.0,0.0,0.0,0.0,0.0,0.0,0.0,0.0,0.0,8.990822126737717,10.273438302785673,10.500074335699544,10.535526705402804,0.0,0.0,0.0,0.0,0.0,0.0,0.0,0.0,0.0,0.0,0.0,7
15.75250836,-0.0076476864,0.0025891786,-0.32066694,-0.9471576,-0.0076476864,0.0025891786,15.799,7.899,7.985247142433047,5.4408708384283,4.854412231209089,4.734745200999783,0.0,0.0,0.0,0.0,0.0,0.0,0.0,0.0,0.0,0.0,0.0,8.990822126737717,10.273438302785673,10.500074335699544,10.535526705402804,0.0,0.0,0.0,0.0,0.0,0.0,0.0,0.0,0.0,0.0,0.0,7
15.76421405,-0.016998316,0.008239859,-0.43612072,-0.89968988,-0.016998316,0.008239859,15.799,7.899,7.985247142433047,5.4408708384283,4.854412231209089,4.734745200999783,0.0,0.0,0.0,0.0,0.0,0.0,0.0,0.0,0.0,0.0,0.0,8.990822126737717,10.273438302785673,10.500074335699544,10.535526705402804,0.0,0.0,0.0,0.0,0.0,0.0,0.0,0.0,0.0,0.0,0.0,7
15.77591973,-0.024407197,0.01581657,-0.54359496,-0.83884364,-0.024407197,0.01581657,15.799,7.899,7.985247142433047,5.4408708384283,4.854412231209089,4.734745200999783,0.0,0.0,0.0,0.0,0.0,0.0,0.0,0.0,0.0,0.0,0.0,8.990822126737717,10.273438302785673,10.500074335699544,10.535526705402804,0.0,0.0,0.0,0.0,0.0,0.0,0.0,0.0,0.0,0.0,0.0,7
15.78762542,-0.029402279,0.024632164,-0.64171393,-0.76598433,-0.029402279,0.024632164,15.799,7.899,7.985247142433047,5.4408708384283,4.854412231209089,4.734745200999783,0.0,0.0,0.0,0.0,0.0,0.0,0.0,0.0,0.0,0.0,0.0,8.990822126737717,10.273438302785673,10.500074335699544,10.535526705402804,0.0,0.0,0.0,0.0,0.0,0.0,0.0,0.0,0.0,0.0,0.0,7
15.7993311,-0.031745354,0.033919876,-0.72933424,-0.68257838,-0.031745354,0.033919876,15.799,7.899,7.985247142433047,5.4408708384283,4.854412231209089,4.734745200999783,0.0,0.0,0.0,0.0,0.0,0.0,0.0,0.0,0.0,0.0,0.0,8.990822126737717,10.273438302785673,10.500074335699544,10.535526705402804,0.0,0.0,0.0,0.0,0.0,0.0,0.0,0.0,0.0,0.0,0.0,7
15.81103679,-0.031432589,0.04290462,-0.80553927,-0.59015055,-0.031432589,0.04290462,15.799,7.899,7.985247142433047,5.4408708384283,4.854412231209089,4.734745200999783,0.0,0.0,0.0,0.0,0.0,0.0,0.0,0.0,0.0,0.0,0.0,8.990822126737717,10.273438302785673,10.500074335699544,10.535526705402804,0.0,0.0,0.0,0.0,0.0,0.0,0.0,0.0,0.0,0.0,0.0,7
15.82274247,-0.028676126,0.050866934,-0.86962425,-0.49024881,-0.028676126,0.050866934,15.799,7.899,7.985247142433047,5.4408708384283,4.854412231209089,4.734745200999783,0.0,0.0,0.0,0.0,0.0,0.0,0.0,0.0,0.0,0.0,0.0,8.990822126737717,10.273438302785673,10.500074335699544,10.535526705402804,0.0,0.0,0.0,0.0,0.0,0.0,0.0,0.0,0.0,0.0,0.0,7
15.83444816,-0.023871062,0.057195658,-0.92107615,-0.38441845,-0.023871062,0.057195658,15.799,7.899,7.985247142433047,5.4408708384283,4.854412231209089,4.734745200999783,0.0,0.0,0.0,0.0,0.0,0.0,0.0,0.0,0.0,0.0,0.0,8.990822126737717,10.273438302785673,10.500074335699544,10.535526705402804,0.0,0.0,0.0,0.0,0.0,0.0,0.0,0.0,0.0,0.0,0.0,7
15.84615385,-0.017552403,0.061427161,-0.9595524,-0.27418572,-0.017552403,0.061427161,15.799,7.899,7.985247142433047,5.4408708384283,4.854412231209089,4.734745200999783,0.0,0.0,0.0,0.0,0.0,0.0,0.0,0.0,0.0,0.0,0.0,8.990822126737717,10.273438302785673,10.500074335699544,10.535526705402804,0.0,0.0,0.0,0.0,0.0,0.0,0.0,0.0,0.0,0.0,0.0,7
15.85785953,-0.010346299,0.063270429,-0.98486184,-0.16104956,-0.010346299,0.063270429,15.799,7.899,7.985247142433047,5.4408708384283,4.854412231209089,4.734745200999783,0.0,0.0,0.0,0.0,0.0,0.0,0.0,0.0,0.0,0.0,0.0,8.990822126737717,10.273438302785673,10.500074335699544,10.535526705402804,0.0,0.0,0.0,0.0,0.0,0.0,0.0,0.0,0.0,0.0,0.0,7
15.86956522,-0.0029193361,0.062618264,-0.99695042,-0.046478984,-0.0029193361,0.062618264,15.799,7.899,7.985247142433047,5.4408708384283,4.854412231209089,4.734745200999783,0.0,0.0,0.0,0.0,0.0,0.0,0.0,0.0,0.0,0.0,0.0,8.990822126737717,10.273438302785673,10.500074335699544,10.535526705402804,0.0,0.0,0.0,0.0,0.0,0.0,0.0,0.0,0.0,0.0,0.0,7
15.8812709,0.0040709907,0.059545544,-0.99589253,0.068086863,0.0040709907,0.059545544,15.799,7.899,7.985247142433047,5.4408708384283,4.854412231209089,4.734745200999783,0.0,0.0,0.0,0.0,0.0,0.0,0.0,0.0,0.0,0.0,0.0,8.990822126737717,10.273438302785673,10.500074335699544,10.535526705402804,0.0,0.0,0.0,0.0,0.0,0.0,0.0,0.0,0.0,0.0,0.0,7
15.89297659,0.01002203,0.054295831,-0.98188799,0.18123879,0.01002203,0.054295831,15.799,7.899,7.985247142433047,5.4408708384283,4.854412231209089,4.734745200999783,0.0,0.0,0.0,0.0,0.0,0.0,0.0,0.0,0.0,0.0,0.0,8.990822126737717,10.273438302785673,10.500074335699544,10.535526705402804,0.0,0.0,0.0,0.0,0.0,0.0,0.0,0.0,0.0,0.0,0.0,7
15.90468227,0.014425769,0.047257875,-0.95526326,0.29160022,0.014425769,0.047257875,15.799,7.899,7.985247142433047,5.4408708384283,4.854412231209089,4.734745200999783,0.0,0.0,0.0,0.0,0.0,0.0,0.0,0.0,0.0,0.0,0.0,8.990822126737717,10.273438302785673,10.500074335699544,10.535526705402804,0.0,0.0,0.0,0.0,0.0,0.0,0.0,0.0,0.0,0.0,0.0,7
15.91638796,0.016900816,0.038933769,-0.91647511,0.39783401,0.016900816,0.038933769,15.799,7.899,7.985247142433047,5.4408708384283,4.854412231209089,4.734745200999783,0.0,0.0,0.0,0.0,0.0,0.0,0.0,0.0,0.0,0.0,0.0,8.990822126737717,10.273438302785673,10.500074335699544,10.535526705402804,0.0,0.0,0.0,0.0,0.0,0.0,0.0,0.0,0.0,0.0,0.0,7
15.92809365,0.017215028,0.029900852,-0.86611418,0.498654,0.017215028,0.029900852,15.799,7.899,7.985247142433047,5.4408708384283,4.854412231209089,4.734745200999783,0.0,0.0,0.0,0.0,0.0,0.0,0.0,0.0,0.0,0.0,0.0,8.990822126737717,10.273438302785673,10.500074335699544,10.535526705402804,0.0,0.0,0.0,0.0,0.0,0.0,0.0,0.0,0.0,0.0,0.0,7
15.93979933,0.015297601,0.020769712,-0.80490634,0.59284095,0.015297601,0.020769712,15.799,7.899,7.985247142433047,5.4408708384283,4.854412231209089,4.734745200999783,0.0,0.0,0.0,0.0,0.0,0.0,0.0,0.0,0.0,0.0,0.0,8.990822126737717,10.273438302785673,10.500074335699544,10.535526705402804,0.0,0.0,0.0,0.0,0.0,0.0,0.0,0.0,0.0,0.0,0.0,7
15.95150502,0.011240027,0.012141004,-0.73370975,0.67926156,0.011240027,0.012141004,15.799,7.899,7.985247142433047,5.4408708384283,4.854412231209089,4.734745200999783,0.0,0.0,0.0,0.0,0.0,0.0,0.0,0.0,0.0,0.0,0.0,8.990822126737717,10.273438302785673,10.500074335699544,10.535526705402804,0.0,0.0,0.0,0.0,0.0,0.0,0.0,0.0,0.0,0.0,0.0,7
15.9632107,0.0052859293,0.0045639331,-0.65350652,0.75688867,0.0052859293,0.0045639331,15.799,7.899,7.985247142433047,5.4408708384283,4.854412231209089,4.734745200999783,0.0,0.0,0.0,0.0,0.0,0.0,0.0,0.0,0.0,0.0,0.0,8.990822126737717,10.273438302785673,10.500074335699544,10.535526705402804,0.0,0.0,0.0,0.0,0.0,0.0,0.0,0.0,0.0,0.0,0.0,7
15.97491639,-0.0021893716,-0.0015007462,-0.56538869,0.82482033,-0.0021893716,-0.0015007462,15.799,7.899,7.985247142433047,5.4408708384283,4.854412231209089,4.734745200999783,0.0,0.0,0.0,0.0,0.0,0.0,0.0,0.0,0.0,0.0,0.0,8.990822126737717,10.273438302785673,10.500074335699544,10.535526705402804,0.0,0.0,0.0,0.0,0.0,0.0,0.0,0.0,0.0,0.0,0.0,7
15.98662207,-0.01070794,-0.0057106746,-0.47053904,0.88229572,-0.01070794,-0.0057106746,15.799,7.899,7.985247142433047,5.4408708384283,4.854412231209089,4.734745200999783,0.0,0.0,0.0,0.0,0.0,0.0,0.0,0.0,0.0,0.0,0.0,8.990822126737717,10.273438302785673,10.500074335699544,10.535526705402804,0.0,0.0,0.0,0.0,0.0,0.0,0.0,0.0,0.0,0.0,0.0,7
15.99832776,-0.019724659,-0.0078628011,-0.37020823,0.92870608,-0.019724659,-0.0078628011,15.799,7.899,7.985247142433047,5.4408708384283,4.854412231209089,4.734745200999783,0.0,0.0,0.0,0.0,0.0,0.0,0.0,0.0,0.0,0.0,0.0,8.990822126737717,10.273438302785673,10.500074335699544,10.535526705402804,0.0,0.0,0.0,0.0,0.0,0.0,0.0,0.0,0.0,0.0,0.0,7
16.01003344,-0.028666259,-0.0079040553,-0.26569026,0.96359974,-0.028666259,-0.0079040553,15.799,7.899,7.985247142433047,5.4408708384283,4.854412231209089,4.734745200999783,0.0,0.0,0.0,0.0,0.0,0.0,0.0,0.0,0.0,0.0,0.0,8.990822126737717,10.273438302785673,10.500074335699544,10.535526705402804,0.0,0.0,0.0,0.0,0.0,0.0,0.0,0.0,0.0,0.0,0.0,7
16.02173913,-0.036971018,-0.0059314483,-0.15829826,0.98668111,-0.036971018,-0.0059314483,15.799,7.899,7.985247142433047,5.4408708384283,4.854412231209089,4.734745200999783,0.0,0.0,0.0,0.0,0.0,0.0,0.0,0.0,0.0,0.0,0.0,8.990822126737717,10.273438302785673,10.500074335699544,10.535526705402804,0.0,0.0,0.0,0.0,0.0,0.0,0.0,0.0,0.0,0.0,0.0,7
16.03344482,-0.044126365,-0.0021821112,-0.049342834,0.99780428,-0.044126365,-0.0021821112,15.799,7.899,7.985247142433047,5.4408708384283,4.854412231209089,4.734745200999783,0.0,0.0,0.0,0.0,0.0,0.0,0.0,0.0,0.0,0.0,0.0,8.990822126737717,10.273438302785673,10.500074335699544,10.535526705402804,0.0,0.0,0.0,0.0,0.0,0.0,0.0,0.0,0.0,0.0,0.0,7
16.0451505,-0.049701976,0.0029855106,0.059885797,0.99696263,-0.049701976,0.0029855106,15.799,7.899,7.985247142433047,5.4408708384283,4.854412231209089,4.734745200999783,0.0,0.0,0.0,0.0,0.0,0.0,0.0,0.0,0.0,0.0,0.0,8.990822126737717,10.273438302785673,10.500074335699544,10.535526705402804,0.0,0.0,0.0,0.0,0.0,0.0,0.0,0.0,0.0,0.0,0.0,7
16.05685619,-0.053376547,0.0091176,0.16813073,0.98427632,-0.053376547,0.0091176,15.799,7.899,7.985247142433047,5.4408708384283,4.854412231209089,4.734745200999783,0.0,0.0,0.0,0.0,0.0,0.0,0.0,0.0,0.0,0.0,0.0,8.990822126737717,10.273438302785673,10.500074335699544,10.535526705402804,0.0,0.0,0.0,0.0,0.0,0.0,0.0,0.0,0.0,0.0,0.0,7
16.06856187,-0.054956977,0.015696076,0.2741765,0.95997949,-0.054956977,0.015696076,15.799,7.899,7.985247142433047,5.4408708384283,4.854412231209089,4.734745200999783,0.0,0.0,0.0,0.0,0.0,0.0,0.0,0.0,0.0,0.0,0.0,8.990822126737717,10.273438302785673,10.500074335699544,10.535526705402804,0.0,0.0,0.0,0.0,0.0,0.0,0.0,0.0,0.0,0.0,0.0,7
16.08026756,-0.054389315,0.022172841,0.37685295,0.92440901,-0.054389315,0.022172841,15.799,7.899,7.985247142433047,5.4408708384283,4.854412231209089,4.734745200999783,0.0,0.0,0.0,0.0,0.0,0.0,0.0,0.0,0.0,0.0,0.0,8.990822126737717,10.273438302785673,10.500074335699544,10.535526705402804,0.0,0.0,0.0,0.0,0.0,0.0,0.0,0.0,0.0,0.0,0.0,7
