freq,s11_real,s11_imag,s21_real,s21_imag,s22_real,s22_imag,a,b,a2_1,a2_2,a2_3,a2_4,a2_5,a2_6,a2_7,a2_8,a2_9,a2_10,a2_11,a2_12,a2_13,a2_14,a2_15,l_1,l_2,l_3,l_4,l_5,l_6,l_7,l_8,l_9,l_10,l_11,l_12,l_13,l_14,l_15,order
14.85117057,0.19354695,0.98109085,0.00055666298,-0.00010981697,0.19354695,0.98109085,15.799,7.899,7.974812217568896,5.433237488981627,4.854098430783636,4.735551734591908,0.0,0.0,0.0,0.0,0.0,0.0,0.0,0.0,0.0,0.0,0.0,8.988880459013195,10.269441349986272,10.496489037168098,10.53117832224778,0.0,0.0,0.0,0.0,0.0,0.0,0.0,0.0,0.0,0.0,0.0,7
14.86287625,0.20830333,0.97806408,0.00060800558,-0.00012949007,0.20830333,0.97806408,15.799,7.899,7.974812217568896,5.433237488981627,4.854098430783636,4.735551734591908,0.0,0.0,0.0,0.0,0.0,0.0,0.0,0.0,0.0,0.0,0.0,8.988880459013195,10.269441349986272,10.496489037168098,10.53117832224778,0.0,0.0,0.0,0.0,0.0,0.0,0.0,0.0,0.0,0.0,0.0,7
14.87458194,0.22337333,0.97473273,0.00066458796,-0.00015229941,0.22337333,0.97473273,15.799,7.899,7.974812217568896,5.433237488981627,4.854098430783636,4.735551734591908,0.0,0.0,0.0,0.0,0.0,0.0,0.0,0.0,0.0,0.0,0.0,8.988880459013195,10.269441349986272,10.496489037168098,10.53117832224778,0.0,0.0,0.0,0.0,0.0,0.0,0.0,0.0,0.0,0.0,0.0,7
14.88628763,0.23876551,0.97107696,0.00072699342,-0.00017875098,0.23876551,0.97107696,15.799,7.899,7.974812217568896,5.433237488981627,4.854098430783636,4.735551734591908,0.0,0.0,0.0,0.0,0.0,0.0,0.0,0.0,0.0,0.0,0.0,8.988880459013195,10.269441349986272,10.496489037168098,10.53117832224778,0.0,0.0,0.0,0.0,0.0,0.0,0.0,0.0,0.0,0.0,0.0,7
14.89799331,0.25448859,0.96707543,0.00079587478,-0.00020943667,0.25448859,0.96707543,15.799,7.899,7.974812217568896,5.433237488981627,4.854098430783636,4.735551734591908,0.0,0.0,0.0,0.0,0.0,0.0,0.0,0.0,0.0,0.0,0.0,8.988880459013195,10.269441349986272,10.496489037168098,10.53117832224778,0.0,0.0,0.0,0.0,0.0,0.0,0.0,0.0,0.0,0.0,0.0,7
14.909699,0.27055141,0.9627051,0.00087196291,-0.0002450499,0.27055141,0.9627051,15.799,7.899,7.974812217568896,5.433237488981627,4.854098430783636,4.735551734591908,0.0,0.0,0.0,0.0,0.0,0.0,0.0,0.0,0.0,0.0,0.0,8.988880459013195,10.269441349986272,10.496489037168098,10.53117832224778,0.0,0.0,0.0,0.0,0.0,0.0,0.0,0.0,0.0,0.0,0.0,7
14.92140468,0.28696287,0.95794119,0.00095607639,-0.00028640425,0.28696287,0.95794119,15.799,7.899,7.974812217568896,5.433237488981627,4.854098430783636,4.735551734591908,0.0,0.0,0.0,0.0,0.0,0.0,0.0,0.0,0.0,0.0,0.0,8.988880459013195,10.269441349986272,10.496489037168098,10.53117832224778,0.0,0.0,0.0,0.0,0.0,0.0,0.0,0.0,0.0,0.0,0.0,7
14.93311037,0.30373197,0.95275688,0.0010491322,-0.00033445571,0.30373197,0.95275688,15.799,7.899,7.974812217568896,5.433237488981627,4.854098430783636,4.735551734591908,0.0,0.0,0.0,0.0,0.0,0.0,0.0,0.0,0.0,0.0,0.0,8.988880459013195,10.269441349986272,10.496489037168098,10.53117832224778,0.0,0.0,0.0,0.0,0.0,0.0,0.0,0.0,0.0,0.0,0.0,7
14.94481605,0.32086769,0.94712325,0.0011521577,-0.00039032954,0.32086769,0.94712325,15.799,7.899,7.974812217568896,5.433237488981627,4.854098430783636,4.735551734591908,0.0,0.0,0.0,0.0,0.0,0.0,0.0,0.0,0.0,0.0,0.0,8.988880459013195,10.269441349986272,10.496489037168098,10.53117832224778,0.0,0.0,0.0,0.0,0.0,0.0,0.0,0.0,0.0,0.0,0.0,7
14.95652174,0.33837898,0.94100896,0.001266304,-0.00045535237,0.33837898,0.94100896,15.799,7.899,7.974812217568896,5.433237488981627,4.854098430783636,4.735551734591908,0.0,0.0,0.0,0.0,0.0,0.0,0.0,0.0,0.0,0.0,0.0,8.988880459013195,10.269441349986272,10.496489037168098,10.53117832224778,0.0,0.0,0.0,0.0,0.0,0.0,0.0,0.0,0.0,0.0,0.0,7
14.96822742,0.35627468,0.93438008,0.0013928605,-0.00053109107,0.35627468,0.93438008,15.799,7.899,7.974812217568896,5.433237488981627,4.854098430783636,4.735551734591908,0.0,0.0,0.0,0.0,0.0,0.0,0.0,0.0,0.0,0.0,0.0,8.988880459013195,10.269441349986272,10.496489037168098,10.53117832224778,0.0,0.0,0.0,0.0,0.0,0.0,0.0,0.0,0.0,0.0,0.0,7
14.97993311,0.37456345,0.92719981,0.0015332708,-0.00061939961,0.37456345,0.92719981,15.799,7.899,7.974812217568896,5.433237488981627,4.854098430783636,4.735551734591908,0.0,0.0,0.0,0.0,0.0,0.0,0.0,0.0,0.0,0.0,0.0,8.988880459013195,10.269441349986272,10.496489037168098,10.53117832224778,0.0,0.0,0.0,0.0,0.0,0.0,0.0,0.0,0.0,0.0,0.0,7
14.9916388,0.39325364,0.91942819,0.0016891506,-0.00072247578,0.39325364,0.91942819,15.799,7.899,7.974812217568896,5.433237488981627,4.854098430783636,4.735551734591908,0.0,0.0,0.0,0.0,0.0,0.0,0.0,0.0,0.0,0.0,0.0,8.988880459013195,10.269441349986272,10.496489037168098,10.53117832224778,0.0,0.0,0.0,0.0,0.0,0.0,0.0,0.0,0.0,0.0,0.0,7
15.55351171,0.033921778,-0.049055833,0.82104137,0.56774458,0.033921778,-0.049055833,15.799,7.899,7.974812217568896,5.433237488981627,4.854098430783636,4.735551734591908,0.0,0.0,0.0,0.0,0.0,0.0,0.0,0.0,0.0,0.0,0.0,8.988880459013195,10.269441349986272,10.496489037168098,10.53117832224778,0.0,0.0,0.0,0.0,0.0,0.0,0.0,0.0,0.0,0.0,0.0,7
15.56521739,0.017980846,-0.038767459,0.90634402,0.42037399,0.017980846,-0.038767459,15.799,7.899,7.974812217568896,5.433237488981627,4.854098430783636,4.735551734591908,0.0,0.0,0.0,0.0,0.0,0.0,0.0,0.0,0.0,0.0,0.0,8.988880459013195,10.269441349986272,10.496489037168098,10.53117832224778,0.0,0.0,0.0,0.0,0.0,0.0,0.0,0.0,0.0,0.0,0.0,7
15.57692308,0.0063292224,-0.023015651,0.96393154,0.26507775,0.0063292224,-0.023015651,15.799,7.899,7.974812217568896,5.433237488981627,4.854098430783636,4.735551734591908,0.0,0.0,0.0,0.0,0.0,0.0,0.0,0.0,0.0,0.0,0.0,8.988880459013195,10.269441349986272,10.496489037168098,10.53117832224778,0.0,0.0,0.0,0.0,0.0,0.0,0.0,0.0,0.0,0.0,0.0,7
15.58862876,0.00051477523,-0.0047990459,0.99428458,0.10665309,0.00051477523,-0.0047990459,15.799,7.899,7.974812217568896,5.433237488981627,4.854098430783636,4.735551734591908,0.0,0.0,0.0,0.0,0.0,0.0,0.0,0.0,0.0,0.0,0.0,8.988880459013195,10.269441349986272,10.496489037168098,10.53117832224778,0.0,0.0,0.0,0.0,0.0,0.0,0.0,0.0,0.0,0.0,0.0,7
15.60033445,0.00065881142,0.01302902,0.99863905,-0.05049611,0.00065881142,0.01302902,15.799,7.899,7.974812217568896,5.433237488981627,4.854098430783636,4.735551734591908,0.0,0.0,0.0,0.0,0.0,0.0,0.0,0.0,0.0,0.0,0.0,8.988880459013195,10.269441349986272,10.496489037168098,10.53117832224778,0.0,0.0,0.0,0.0,0.0,0.0,0.0,0.0,0.0,0.0,0.0,7
15.61204013,0.0058306225,0.028178298,0.97885058,-0.20254268,0.0058306225,0.028178298,15.799,7.899,7.974812217568896,5.433237488981627,4.854098430783636,4.735551734591908,0.0,0.0,0.0,0.0,0.0,0.0,0.0,0.0,0.0,0.0,0.0,8.988880459013195,10.269441349986272,10.496489037168098,10.53117832224778,0.0,0.0,0.0,0.0,0.0,0.0,0.0,0.0,0.0,0.0,0.0,7
15.62374582,0.014460667,0.039132232,0.93718757,-0.34632213,0.014460667,0.039132232,15.799,7.899,7.974812217568896,5.433237488981627,4.854098430783636,4.735551734591908,0.0,0.0,0.0,0.0,0.0,0.0,0.0,0.0,0.0,0.0,0.0,8.988880459013195,10.269441349986272,10.496489037168098,10.53117832224778,0.0,0.0,0.0,0.0,0.0,0.0,0.0,0.0,0.0,0.0,0.0,7
15.63545151,0.024721291,0.045187014,0.87612782,-0.47931935,0.024721291,0.045187014,15.799,7.899,7.974812217568896,5.433237488981627,4.854098430783636,4.735551734591908,0.0,0.0,0.0,0.0,0.0,0.0,0.0,0.0,0.0,0.0,0.0,8.988880459013195,10.269441349986272,10.496489037168098,10.53117832224778,0.0,0.0,0.0,0.0,0.0,0.0,0.0,0.0,0.0,0.0,0.0,7
15.64715719,0.034832389,0.046370738,0.79820428,-0.59958851,0.034832389,0.046370738,15.799,7.899,7.974812217568896,5.433237488981627,4.854098430783636,4.735551734591908,0.0,0.0,0.0,0.0,0.0,0.0,0.0,0.0,0.0,0.0,0.0,8.988880459013195,10.269441349986272,10.496489037168098,10.53117832224778,0.0,0.0,0.0,0.0,0.0,0.0,0.0,0.0,0.0,0.0,0.0,7
15.65886288,0.04327737,0.043293821,0.70591478,-0.70564654,0.04327737,0.043293821,15.799,7.899,7.974812217568896,5.433237488981627,4.854098430783636,4.735551734591908,0.0,0.0,0.0,0.0,0.0,0.0,0.0,0.0,0.0,0.0,0.0,8.988880459013195,10.269441349986272,10.496489037168098,10.53117832224778,0.0,0.0,0.0,0.0,0.0,0.0,0.0,0.0,0.0,0.0,0.0,7
15.67056856,0.048933874,0.036971226,0.60168757,-0.79637345,0.048933874,0.036971226,15.799,7.899,7.974812217568896,5.433237488981627,4.854098430783636,4.735551734591908,0.0,0.0,0.0,0.0,0.0,0.0,0.0,0.0,0.0,0.0,0.0,8.988880459013195,10.269441349986272,10.496489037168098,10.53117832224778,0.0,0.0,0.0,0.0,0.0,0.0,0.0,0.0,0.0,0.0,0.0,7
15.68227425,0.051132716,0.028643613,0.48788395,-0.87093871,0.051132716,0.028643613,15.799,7.899,7.974812217568896,5.433237488981627,4.854098430783636,4.735551734591908,0.0,0.0,0.0,0.0,0.0,0.0,0.0,0.0,0.0,0.0,0.0,8.988880459013195,10.269441349986272,10.496489037168098,10.53117832224778,0.0,0.0,0.0,0.0,0.0,0.0,0.0,0.0,0.0,0.0,0.0,7
15.69397993,0.049660361,0.019613531,0.36681684,-0.92875969,0.049660361,0.019613531,15.799,7.899,7.974812217568896,5.433237488981627,4.854098430783636,4.735551734591908,0.0,0.0,0.0,0.0,0.0,0.0,0.0,0.0,0.0,0.0,0.0,8.988880459013195,10.269441349986272,10.496489037168098,10.53117832224778,0.0,0.0,0.0,0.0,0.0,0.0,0.0,0.0,0.0,0.0,0.0,7
15.70568562,0.044718659,0.011105676,0.24076804,-0.96948835,0.044718659,0.011105676,15.799,7.899,7.974812217568896,5.433237488981627,4.854098430783636,4.735551734591908,0.0,0.0,0.0,0.0,0.0,0.0,0.0,0.0,0.0,0.0,0.0,8.988880459013195,10.269441349986272,10.496489037168098,10.53117832224778,0.0,0.0,0.0,0.0,0.0,0.0,0.0,0.0,0.0,0.0,0.0,7
15.7173913,0.036853461,0.0041563477,0.11199281,-0.9930167,0.036853461,0.0041563477,15.799,7.899,7.974812217568896,5.433237488981627,4.854098430783636,4.735551734591908,0.0,0.0,0.0,0.0,0.0,0.0,0.0,0.0,0.0,0.0,0.0,8.988880459013195,10.269441349986272,10.496489037168098,10.53117832224778,0.0,0.0,0.0,0.0,0.0,0.0,0.0,0.0,0.0,0.0,0.0,7
15.72909699,0.026862427,-0.00046475853,-0.017292602,-0.99948945,0.026862427,-0.00046475853,15.799,7.899,7.974812217568896,5.433237488981627,4.854098430783636,4.735551734591908,0.0,0.0,0.0,0.0,0.0,0.0,0.0,0.0,0.0,0.0,0.0,8.988880459013195,10.269441349986272,10.496489037168098,10.53117832224778,0.0,0.0,0.0,0.0,0.0,0.0,0.0,0.0,0.0,0.0,0.0,7
15.74080268,0.015691839,-0.0022989355,-0.14493952,-0.98931341,0.015691839,-0.0022989355,15.799,7.899,7.974812217568896,5.433237488981627,4.854098430783636,4.735551734591908,0.0,0.0,0.0,0.0,0.0,0.0,0.0,0.0,0.0,0.0,0.0,8.988880459013195,10.269441349986272,10.496489037168098,10.53117832224778,0.0,0.0,0.0,0.0,0.0,0.0,0.0,0.0,0.0,0.0,0.0,7
15.75250836,0.0043321201,-0.0012094962,-0.26890607,-0.9631559,0.0043321201,-0.0012094962,15.799,7.899,7.974812217568896,5.433237488981627,4.854098430783636,4.735551734591908,0.0,0.0,0.0,0.0,0.0,0.0,0.0,0.0,0.0,0.0,0.0,8.988880459013195,10.269441349986272,10.496489037168098,10.53117832224778,0.0,0.0,0.0,0.0,0.0,0.0,0.0,0.0,0.0,0.0,0.0,7
15.76421405,-0.0062787891,0.0026377016,-0.38729966,-0.92192873,-0.0062787891,0.0026377016,15.799,7.899,7.974812217568896,5.433237488981627,4.854098430783636,4.735551734591908,0.0,0.0,0.0,0.0,0.0,0.0,0.0,0.0,0.0,0.0,0.0,8.988880459013195,10.269441349986272,10.496489037168098,10.53117832224778,0.0,0.0,0.0,0.0,0.0,0.0,0.0,0.0,0.0,0.0,0.0,7
15.77591973,-0.015336409,0.0088189579,-0.49841531,-0.86675787,-0.015336409,0.0088189579,15.799,7.899,7.974812217568896,5.433237488981627,4.854098430783636,4.735551734591908,0.0,0.0,0.0,0.0,0.0,0.0,0.0,0.0,0.0,0.0,0.0,8.988880459013195,10.269441349986272,10.496489037168098,10.53117832224778,0.0,0.0,0.0,0.0,0.0,0.0,0.0,0.0,0.0,0.0,0.0,7
15.78762542,-0.022229543,0.016715481,-0.60076396,-0.79894249,-0.022229543,0.016715481,15.799,7.899,7.974812217568896,5.433237488981627,4.854098430783636,4.735551734591908,0.0,0.0,0.0,0.0,0.0,0.0,0.0,0.0,0.0,0.0,0.0,8.988880459013195,10.269441349986272,10.496489037168098,10.53117832224778,0.0,0.0,0.0,0.0,0.0,0.0,0.0,0.0,0.0,0.0,0.0,7
15.7993311,-0.026576211,0.025586077,-0.69308758,-0.71990879,-0.026576211,0.025586077,15.799,7.899,7.974812217568896,5.433237488981627,4.854098430783636,4.735551734591908,0.0,0.0,0.0,0.0,0.0,0.0,0.0,0.0,0.0,0.0,0.0,8.988880459013195,10.269441349986272,10.496489037168098,10.53117832224778,0.0,0.0,0.0,0.0,0.0,0.0,0.0,0.0,0.0,0.0,0.0,7
15.81103679,-0.028235811,0.034641862,-0.77436069,-0.63116416,-0.028235811,0.034641862,15.799,7.899,7.974812217568896,5.433237488981627,4.854098430783636,4.735551734591908,0.0,0.0,0.0,0.0,0.0,0.0,0.0,0.0,0.0,0.0,0.0,8.988880459013195,10.269441349986272,10.496489037168098,10.53117832224778,0.0,0.0,0.0,0.0,0.0,0.0,0.0,0.0,0.0,0.0,0.0,7
15.82274247,-0.027299929,0.043116232,-0.84378035,-0.53425688,-0.027299929,0.043116232,15.799,7.899,7.974812217568896,5.433237488981627,4.854098430783636,4.735551734591908,0.0,0.0,0.0,0.0,0.0,0.0,0.0,0.0,0.0,0.0,0.0,8.988880459013195,10.269441349986272,10.496489037168098,10.53117832224778,0.0,0.0,0.0,0.0,0.0,0.0,0.0,0.0,0.0,0.0,0.0,7
15.83444816,-0.024065814,0.050325087,-0.90074836,-0.43074426,-0.024065814,0.050325087,15.799,7.899,7.974812217568896,5.433237488981627,4.854098430783636,4.735551734591908,0.0,0.0,0.0,0.0,0.0,0.0,0.0,0.0,0.0,0.0,0.0,8.988880459013195,10.269441349986272,10.496489037168098,10.53117832224778,0.0,0.0,0.0,0.0,0.0,0.0,0.0,0.0,0.0,0.0,0.0,7
15.84615385,-0.018997164,0.055714152,-0.94484977,-0.32217068,-0.018997164,0.055714152,15.799,7.899,7.974812217568896,5.433237488981627,4.854098430783636,4.735551734591908,0.0,0.0,0.0,0.0,0.0,0.0,0.0,0.0,0.0,0.0,0.0,8.988880459013195,10.269441349986272,10.496489037168098,10.53117832224778,0.0,0.0,0.0,0.0,0.0,0.0,0.0,0.0,0.0,0.0,0.0,7
15.85785953,-0.012676922,0.058891989,-0.97583196,-0.21005481,-0.012676922,0.058891989,15.799,7.899,7.974812217568896,5.433237488981627,4.854098430783636,4.735551734591908,0.0,0.0,0.0,0.0,0.0,0.0,0.0,0.0,0.0,0.0,0.0,8.988880459013195,10.269441349986272,10.496489037168098,10.53117832224778,0.0,0.0,0.0,0.0,0.0,0.0,0.0,0.0,0.0,0.0,0.0,7
15.86956522,-0.0057562608,0.059648528,-0.99358701,-0.095884108,-0.0057562608,0.059648528,15.799,7.899,7.974812217568896,5.433237488981627,4.854098430783636,4.735551734591908,0.0,0.0,0.0,0.0,0.0,0.0,0.0,0.0,0.0,0.0,0.0,8.988880459013195,10.269441349986272,10.496489037168098,10.53117832224778,0.0,0.0,0.0,0.0,0.0,0.0,0.0,0.0,0.0,0.0,0.0,7
15.8812709,0.0010966857,0.057959827,-0.99813965,0.018886279,0.0010966857,0.057959827,15.799,7.899,7.974812217568896,5.433237488981627,4.854098430783636,4.735551734591908,0.0,0.0,0.0,0.0,0.0,0.0,0.0,0.0,0.0,0.0,0.0,8.988880459013195,10.269441349986272,10.496489037168098,10.53117832224778,0.0,0.0,0.0,0.0,0.0,0.0,0.0,0.0,0.0,0.0,0.0,7
15.89297659,0.0072454272,0.053980279,-0.98964084,0.13283315,0.0072454272,0.053980279,15.799,7.899,7.974812217568896,5.433237488981627,4.854098430783636,4.735551734591908,0.0,0.0,0.0,0.0,0.0,0.0,0.0,0.0,0.0,0.0,0.0,8.988880459013195,10.269441349986272,10.496489037168098,10.53117832224778,0.0,0.0,0.0,0.0,0.0,0.0,0.0,0.0,0.0,0.0,0.0,7
15.90468227,0.01212866,0.048023763,-0.96836666,0.24456622,0.01212866,0.048023763,15.799,7.899,7.974812217568896,5.433237488981627,4.854098430783636,4.735551734591908,0.0,0.0,0.0,0.0,0.0,0.0,0.0,0.0,0.0,0.0,0.0,8.988880459013195,10.269441349986272,10.496489037168098,10.53117832224778,0.0,0.0,0.0,0.0,0.0,0.0,0.0,0.0,0.0,0.0,0.0,7
15.91638796,0.015296731,0.040535459,-0.93472067,0.35273242,0.015296731,0.040535459,15.799,7.899,7.974812217568896,5.433237488981627,4.854098430783636,4.735551734591908,0.0,0.0,0.0,0.0,0.0,0.0,0.0,0.0,0.0,0.0,0.0,8.988880459013195,10.269441349986272,10.496489037168098,10.53117832224778,0.0,0.0,0.0,0.0,0.0,0.0,0.0,0.0,0.0,0.0,0.0,7
15.92809365,0.01643933,0.032056301,-0.88923758,0.45602486,0.01643933,0.032056301,15.799,7.899,7.974812217568896,5.433237488981627,4.854098430783636,4.735551734591908,0.0,0.0,0.0,0.0,0.0,0.0,0.0,0.0,0.0,0.0,0.0,8.988880459013195,10.269441349986272,10.496489037168098,10.53117832224778,0.0,0.0,0.0,0.0,0.0,0.0,0.0,0.0,0.0,0.0,0.0,7
15.93979933,0.015403063,0.023182316,-0.83258584,0.55319631,0.015403063,0.023182316,15.799,7.899,7.974812217568896,5.433237488981627,4.854098430783636,4.735551734591908,0.0,0.0,0.0,0.0,0.0,0.0,0.0,0.0,0.0,0.0,0.0,8.988880459013195,10.269441349986272,10.496489037168098,10.53117832224778,0.0,0.0,0.0,0.0,0.0,0.0,0.0,0.0,0.0,0.0,0.0,7
15.95150502,0.01219802,0.014521442,-0.76556692,0.64307669,0.01219802,0.014521442,15.799,7.899,7.974812217568896,5.433237488981627,4.854098430783636,4.735551734591908,0.0,0.0,0.0,0.0,0.0,0.0,0.0,0.0,0.0,0.0,0.0,8.988880459013195,10.269441349986272,10.496489037168098,10.53117832224778,0.0,0.0,0.0,0.0,0.0,0.0,0.0,0.0,0.0,0.0,0.0,7
15.9632107,0.0069930502,0.0066506047,-0.68910981,0.72459267,0.0069930502,0.0066506047,15.799,7.899,7.974812217568896,5.433237488981627,4.854098430783636,4.735551734591908,0.0,0.0,0.0,0.0,0.0,0.0,0.0,0.0,0.0,0.0,0.0,8.988880459013195,10.269441349986272,10.496489037168098,10.53117832224778,0.0,0.0,0.0,0.0,0.0,0.0,0.0,0.0,0.0,0.0,0.0,7
15.97491639,0.00010019655,7.598607e-05,-0.60425974,0.79678739,0.00010019655,7.598607e-05,15.799,7.899,7.974812217568896,5.433237488981627,4.854098430783636,4.735551734591908,0.0,0.0,0.0,0.0,0.0,0.0,0.0,0.0,0.0,0.0,0.0,8.988880459013195,10.269441349986272,10.496489037168098,10.53117832224778,0.0,0.0,0.0,0.0,0.0,0.0,0.0,0.0,0.0,0.0,0.0,7
15.98662207,-0.0080504459,-0.0048008221,-0.51216151,0.85883801,-0.0080504459,-0.0048008221,15.799,7.899,7.974812217568896,5.433237488981627,4.854098430783636,4.735551734591908,0.0,0.0,0.0,0.0,0.0,0.0,0.0,0.0,0.0,0.0,0.0,8.988880459013195,10.269441349986272,10.496489037168098,10.53117832224778,0.0,0.0,0.0,0.0,0.0,0.0,0.0,0.0,0.0,0.0,0.0,7
15.99832776,-0.016943453,-0.0077084673,-0.41403827,0.91006913,-0.016943453,-0.0077084673,15.799,7.899,7.974812217568896,5.433237488981627,4.854098430783636,4.735551734591908,0.0,0.0,0.0,0.0,0.0,0.0,0.0,0.0,0.0,0.0,0.0,8.988880459013195,10.269441349986272,10.496489037168098,10.53117832224778,0.0,0.0,0.0,0.0,0.0,0.0,0.0,0.0,0.0,0.0,0.0,7
16.01003344,-0.026015796,-0.0085216919,-0.31116757,0.94996068,-0.026015796,-0.0085216919,15.799,7.899,7.974812217568896,5.433237488981627,4.854098430783636,4.735551734591908,0.0,0.0,0.0,0.0,0.0,0.0,0.0,0.0,0.0,0.0,0.0,8.988880459013195,10.269441349986272,10.496489037168098,10.53117832224778,0.0,0.0,0.0,0.0,0.0,0.0,0.0,0.0,0.0,0.0,0.0,7
16.02173913,-0.034696674,-0.0072666285,-0.20485684,0.97814979,-0.034696674,-0.0072666285,15.799,7.899,7.974812217568896,5.433237488981627,4.854098430783636,4.735551734591908,0.0,0.0,0.0,0.0,0.0,0.0,0.0,0.0,0.0,0.0,0.0,8.988880459013195,10.269441349986272,10.496489037168098,10.53117832224778,0.0,0.0,0.0,0.0,0.0,0.0,0.0,0.0,0.0,0.0,0.0,7
16.03344482,-0.042446566,-0.0041156463,-0.096420252,0.99442671,-0.042446566,-0.0041156463,15.799,7.899,7.974812217568896,5.433237488981627,4.854098430783636,4.735551734591908,0.0,0.0,0.0,0.0,0.0,0.0,0.0,0.0,0.0,0.0,0.0,8.988880459013195,10.269441349986272,10.496489037168098,10.53117832224778,0.0,0.0,0.0,0.0,0.0,0.0,0.0,0.0,0.0,0.0,0.0,7
16.0451505,-0.048792879,0.00062735201,0.012841072,0.99872617,-0.048792879,0.00062735201,15.799,7.899,7.974812217568896,5.433237488981627,4.854098430783636,4.735551734591908,0.0,0.0,0.0,0.0,0.0,0.0,0.0,0.0,0.0,0.0,0.0,8.988880459013195,10.269441349986272,10.496489037168098,10.53117832224778,0.0,0.0,0.0,0.0,0.0,0.0,0.0,0.0,0.0,0.0,0.0,7
16.05685619,-0.053360062,0.0065496748,0.12165437,0.99111554,-0.053360062,0.0065496748,15.799,7.899,7.974812217568896,5.433237488981627,4.854098430783636,4.735551734591908,0.0,0.0,0.0,0.0,0.0,0.0,0.0,0.0,0.0,0.0,0.0,8.988880459013195,10.269441349986272,10.496489037168098,10.53117832224778,0.0,0.0,0.0,0.0,0.0,0.0,0.0,0.0,0.0,0.0,0.0,7
16.06856187,-0.055892652,0.013158749,0.2287856,0.97178187,-0.055892652,0.013158749,15.799,7.899,7.974812217568896,5.433237488981627,4.854098430783636,4.735551734591908,0.0,0.0,0.0,0.0,0.0,0.0,0.0,0.0,0.0,0.0,0.0,8.988880459013195,10.269441349986272,10.496489037168098,10.53117832224778,0.0,0.0,0.0,0.0,0.0,0.0,0.0,0.0,0.0,0.0,0.0,7
16.08026756,-0.056270305,0.019915158,0.33304519,0.94101963,-0.056270305,0.019915158,15.799,7.899,7.974812217568896,5.433237488981627,4.854098430783636,4.735551734591908,0.0,0.0,0.0,0.0,0.0,0.0,0.0,0.0,0.0,0.0,0.0,8.988880459013195,10.269441349986272,10.496489037168098,10.53117832224778,0.0,0.0,0.0,0.0,0.0,0.0,0.0,0.0,0.0,0.0,0.0,7
