freq,s11_real,s11_imag,s21_real,s21_imag,s22_real,s22_imag,a,b,a2_1,a2_2,a2_3,a2_4,a2_5,a2_6,a2_7,a2_8,a2_9,a2_10,a2_11,a2_12,a2_13,a2_14,a2_15,l_1,l_2,l_3,l_4,l_5,l_6,l_7,l_8,l_9,l_10,l_11,l_12,l_13,l_14,l_15,order
14.85117057,0.2370718,0.97149195,0.00056943042,-0.0001389573,0.2370718,0.97149195,15.799,7.899,8.007932555370383,5.440738898958227,4.890404967503869,4.75911551620016,0.0,0.0,0.0,0.0,0.0,0.0,0.0,0.0,0.0,0.0,0.0,8.993510410642186,10.291365260026591,10.513475351814774,10.193346132303928,0.0,0.0,0.0,0.0,0.0,0.0,0.0,0.0,0.0,0.0,0.0,7
14.86287625,0.25250233,0.96759607,0.00062076831,-0.00016199471,0.25250233,0.96759607,15.799,7.899,8.007932555370383,5.440738898958227,4.890404967503869,4.75911551620016,0.0,0.0,0.0,0.0,0.0,0.0,0.0,0.0,0.0,0.0,0.0,8.993510410642186,10.291365260026591,10.513475351814774,10.193346132303928,0.0,0.0,0.0,0.0,0.0,0.0,0.0,0.0,0.0,0.0,0.0,7
14.87458194,0.2682587,0.96334665,0.00067719037,-0.00018857408,0.2682587,0.96334665,15.799,7.899,8.007932555370383,5.440738898958227,4.890404967503869,4.75911551620016,0.0,0.0,0.0,0.0,0.0,0.0,0.0,0.0,0.0,0.0,0.0,8.993510410642186,10.291365260026591,10.513475351814774,10.193346132303928,0.0,0.0,0.0,0.0,0.0,0.0,0.0,0.0,0.0,0.0,0.0,7
14.88628763,0.28434925,0.95872045,0.00073923887,-0.00021925267,0.28434925,0.95872045,15.799,7.899,8.007932555370383,5.440738898958227,4.890404967503869,4.75911551620016,0.0,0.0,0.0,0.0,0.0,0.0,0.0,0.0,0.0,0.0,0.0,8.993510410642186,10.291365260026591,10.513475351814774,10.193346132303928,0.0,0.0,0.0,0.0,0.0,0.0,0.0,0.0,0.0,0.0,0.0,7
14.89799331,0.30078236,0.95369243,0.00080751645,-0.00025468033,0.30078236,0.95369243,15.799,7.899,8.007932555370383,5.440738898958227,4.890404967503869,4.75911551620016,0.0,0.0,0.0,0.0,0.0,0.0,0.0,0.0,0.0,0.0,0.0,8.993510410642186,10.291365260026591,10.513475351814774,10.193346132303928,0.0,0.0,0.0,0.0,0.0,0.0,0.0,0.0,0.0,0.0,0.0,7
14.909699,0.31756641,0.94823558,0.0008826927,-0.00029561594,0.31756641,0.94823558,15.799,7.899,8.007932555370383,5.440738898958227,4.890404967503869,4.75911551620016,0.0,0.0,0.0,0.0,0.0,0.0,0.0,0.0,0.0,0.0,0.0,8.993510410642186,10.291365260026591,10.513475351814774,10.193346132303928,0.0,0.0,0.0,0.0,0.0,0.0,0.0,0.0,0.0,0.0,0.0,7
14.92140468,0.33470972,0.94232073,0.00096551131,-0.00034294695,0.33470972,0.94232073,15.799,7.899,8.007932555370383,5.440738898958227,4.890404967503869,4.75911551620016,0.0,0.0,0.0,0.0,0.0,0.0,0.0,0.0,0.0,0.0,0.0,8.993510410642186,10.291365260026591,10.513475351814774,10.193346132303928,0.0,0.0,0.0,0.0,0.0,0.0,0.0,0.0,0.0,0.0,0.0,7
14.93311037,0.3522205,0.93591636,0.0010567978,-0.00039771273,0.3522205,0.93591636,15.799,7.899,8.007932555370383,5.440738898958227,4.890404967503869,4.75911551620016,0.0,0.0,0.0,0.0,0.0,0.0,0.0,0.0,0.0,0.0,0.0,8.993510410642186,10.291365260026591,10.513475351814774,10.193346132303928,0.0,0.0,0.0,0.0,0.0,0.0,0.0,0.0,0.0,0.0,0.0,7
14.94481605,0.37010678,0.92898838,0.0011574677,-0.00046113238,0.37010678,0.92898838,15.799,7.899,8.007932555370383,5.440738898958227,4.890404967503869,4.75911551620016,0.0,0.0,0.0,0.0,0.0,0.0,0.0,0.0,0.0,0.0,0.0,8.993510410642186,10.291365260026591,10.513475351814774,10.193346132303928,0.0,0.0,0.0,0.0,0.0,0.0,0.0,0.0,0.0,0.0,0.0,7
14.95652174,0.38837628,0.92149985,0.0012685352,-0.00053463815,0.38837628,0.92149985,15.799,7.899,8.007932555370383,5.440738898958227,4.890404967503869,4.75911551620016,0.0,0.0,0.0,0.0,0.0,0.0,0.0,0.0,0.0,0.0,0.0,8.993510410642186,10.291365260026591,10.513475351814774,10.193346132303928,0.0,0.0,0.0,0.0,0.0,0.0,0.0,0.0,0.0,0.0,0.0,7
14.96822742,0.40703635,0.91341069,0.0013911221,-0.00061991532,0.40703635,0.91341069,15.799,7.899,8.007932555370383,5.440738898958227,4.890404967503869,4.75911551620016,0.0,0.0,0.0,0.0,0.0,0.0,0.0,0.0,0.0,0.0,0.0,8.993510410642186,10.291365260026591,10.513475351814774,10.193346132303928,0.0,0.0,0.0,0.0,0.0,0.0,0.0,0.0,0.0,0.0,0.0,7
14.97993311,0.4260938,0.90467741,0.001526467,-0.00071895033,0.4260938,0.90467741,15.799,7.899,8.007932555370383,5.440738898958227,4.890404967503869,4.75911551620016,0.0,0.0,0.0,0.0,0.0,0.0,0.0,0.0,0.0,0.0,0.0,8.993510410642186,10.291365260026591,10.513475351814774,10.193346132303928,0.0,0.0,0.0,0.0,0.0,0.0,0.0,0.0,0.0,0.0,0.0,7
14.9916388,0.44555475,0.89525274,0.0016759332,-0.00083408847,0.44555475,0.89525274,15.799,7.899,8.007932555370383,5.440738898958227,4.890404967503869,4.75911551620016,0.0,0.0,0.0,0.0,0.0,0.0,0.0,0.0,0.0,0.0,0.0,8.993510410642186,10.291365260026591,10.513475351814774,10.193346132303928,0.0,0.0,0.0,0.0,0.0,0.0,0.0,0.0,0.0,0.0,0.0,7
15.55351171,-0.34782707,0.39861639,0.63940063,0.55793202,-0.34782707,0.39861639,15.799,7.899,8.007932555370383,5.440738898958227,4.890404967503869,4.75911551620016,0.0,0.0,0.0,0.0,0.0,0.0,0.0,0.0,0.0,0.0,0.0,8.993510410642186,10.291365260026591,10.513475351814774,10.193346132303928,0.0,0.0,0.0,0.0,0.0,0.0,0.0,0.0,0.0,0.0,0.0,7
15.56521739,-0.27569836,0.45799026,0.72405682,0.43586359,-0.27569836,0.45799026,15.799,7.899,8.007932555370383,5.440738898958227,4.890404967503869,4.75911551620016,0.0,0.0,0.0,0.0,0.0,0.0,0.0,0.0,0.0,0.0,0.0,8.993510410642186,10.291365260026591,10.513475351814774,10.193346132303928,0.0,0.0,0.0,0.0,0.0,0.0,0.0,0.0,0.0,0.0,0.0,7
15.57692308,-0.19819326,0.50414349,0.78228994,0.30754061,-0.19819326,0.50414349,15.799,7.899,8.007932555370383,5.440738898958227,4.890404967503869,4.75911551620016,0.0,0.0,0.0,0.0,0.0,0.0,0.0,0.0,0.0,0.0,0.0,8.993510410642186,10.291365260026591,10.513475351814774,10.193346132303928,0.0,0.0,0.0,0.0,0.0,0.0,0.0,0.0,0.0,0.0,0.0,7
15.58862876,-0.11702161,0.53662154,0.81648096,0.17805084,-0.11702161,0.53662154,15.799,7.899,8.007932555370383,5.440738898958227,4.890404967503869,4.75911551620016,0.0,0.0,0.0,0.0,0.0,0.0,0.0,0.0,0.0,0.0,0.0,8.993510410642186,10.291365260026591,10.513475351814774,10.193346132303928,0.0,0.0,0.0,0.0,0.0,0.0,0.0,0.0,0.0,0.0,0.0,7
15.60033445,-0.034166612,0.55524047,0.82941894,0.05103813,-0.034166612,0.55524047,15.799,7.899,8.007932555370383,5.440738898958227,4.890404967503869,4.75911551620016,0.0,0.0,0.0,0.0,0.0,0.0,0.0,0.0,0.0,0.0,0.0,8.993510410642186,10.291365260026591,10.513475351814774,10.193346132303928,0.0,0.0,0.0,0.0,0.0,0.0,0.0,0.0,0.0,0.0,0.0,7
15.61204013,0.048298255,0.56020066,0.82389129,-0.071032604,0.048298255,0.56020066,15.799,7.899,8.007932555370383,5.440738898958227,4.890404967503869,4.75911551620016,0.0,0.0,0.0,0.0,0.0,0.0,0.0,0.0,0.0,0.0,0.0,8.993510410642186,10.291365260026591,10.513475351814774,10.193346132303928,0.0,0.0,0.0,0.0,0.0,0.0,0.0,0.0,0.0,0.0,0.0,7
15.62374582,0.12836948,0.55208768,0.80243895,-0.18658027,0.12836948,0.55208768,15.799,7.899,8.007932555370383,5.440738898958227,4.890404967503869,4.75911551620016,0.0,0.0,0.0,0.0,0.0,0.0,0.0,0.0,0.0,0.0,0.0,8.993510410642186,10.291365260026591,10.513475351814774,10.193346132303928,0.0,0.0,0.0,0.0,0.0,0.0,0.0,0.0,0.0,0.0,0.0,7
15.63545151,0.20422266,0.53181487,0.76724165,-0.29462908,0.20422266,0.53181487,15.799,7.899,8.007932555370383,5.440738898958227,4.890404967503869,4.75911551620016,0.0,0.0,0.0,0.0,0.0,0.0,0.0,0.0,0.0,0.0,0.0,8.993510410642186,10.291365260026591,10.513475351814774,10.193346132303928,0.0,0.0,0.0,0.0,0.0,0.0,0.0,0.0,0.0,0.0,0.0,7
15.64715719,0.27427238,0.50054784,0.72009641,-0.39457278,0.27427238,0.50054784,15.799,7.899,8.007932555370383,5.440738898958227,4.890404967503869,4.75911551620016,0.0,0.0,0.0,0.0,0.0,0.0,0.0,0.0,0.0,0.0,0.0,8.993510410642186,10.291365260026591,10.513475351814774,10.193346132303928,0.0,0.0,0.0,0.0,0.0,0.0,0.0,0.0,0.0,0.0,0.0,7
15.65886288,0.33719681,0.45963304,0.66245574,-0.48599195,0.33719681,0.45963304,15.799,7.899,8.007932555370383,5.440738898958227,4.890404967503869,4.75911551620016,0.0,0.0,0.0,0.0,0.0,0.0,0.0,0.0,0.0,0.0,0.0,8.993510410642186,10.291365260026591,10.513475351814774,10.193346132303928,0.0,0.0,0.0,0.0,0.0,0.0,0.0,0.0,0.0,0.0,0.0,7
15.67056856,0.39194199,0.41053886,0.59549947,-0.56852414,0.39194199,0.41053886,15.799,7.899,8.007932555370383,5.440738898958227,4.890404967503869,4.75911551620016,0.0,0.0,0.0,0.0,0.0,0.0,0.0,0.0,0.0,0.0,0.0,8.993510410642186,10.291365260026591,10.513475351814774,10.193346132303928,0.0,0.0,0.0,0.0,0.0,0.0,0.0,0.0,0.0,0.0,0.0,7
15.68227425,0.4377175,0.35480935,0.52022146,-0.64178139,0.4377175,0.35480935,15.799,7.899,8.007932555370383,5.440738898958227,4.890404967503869,4.75911551620016,0.0,0.0,0.0,0.0,0.0,0.0,0.0,0.0,0.0,0.0,0.0,8.993510410642186,10.291365260026591,10.513475351814774,10.193346132303928,0.0,0.0,0.0,0.0,0.0,0.0,0.0,0.0,0.0,0.0,0.0,7
15.69397993,0.47399002,0.29402652,0.4375183,-0.70530816,0.47399002,0.29402652,15.799,7.899,8.007932555370383,5.440738898958227,4.890404967503869,4.75911551620016,0.0,0.0,0.0,0.0,0.0,0.0,0.0,0.0,0.0,0.0,0.0,8.993510410642186,10.291365260026591,10.513475351814774,10.193346132303928,0.0,0.0,0.0,0.0,0.0,0.0,0.0,0.0,0.0,0.0,0.0,7
15.70568562,0.50047749,0.22977662,0.34827172,-0.75857221,0.50047749,0.22977662,15.799,7.899,8.007932555370383,5.440738898958227,4.890404967503869,4.75911551620016,0.0,0.0,0.0,0.0,0.0,0.0,0.0,0.0,0.0,0.0,0.0,8.993510410642186,10.291365260026591,10.513475351814774,10.193346132303928,0.0,0.0,0.0,0.0,0.0,0.0,0.0,0.0,0.0,0.0,0.0,7
15.7173913,0.51714298,0.16361635,0.25341872,-0.80098176,0.51714298,0.16361635,15.799,7.899,8.007932555370383,5.440738898958227,4.890404967503869,4.75911551620016,0.0,0.0,0.0,0.0,0.0,0.0,0.0,0.0,0.0,0.0,0.0,8.993510410642186,10.291365260026591,10.513475351814774,10.193346132303928,0.0,0.0,0.0,0.0,0.0,0.0,0.0,0.0,0.0,0.0,0.0,7
15.72909699,0.52418576,0.097037166,0.15400537,-0.83192273,0.52418576,0.097037166,15.799,7.899,8.007932555370383,5.440738898958227,4.890404967503869,4.75911551620016,0.0,0.0,0.0,0.0,0.0,0.0,0.0,0.0,0.0,0.0,0.0,8.993510410642186,10.291365260026591,10.513475351814774,10.193346132303928,0.0,0.0,0.0,0.0,0.0,0.0,0.0,0.0,0.0,0.0,0.0,7
15.74080268,0.52202658,0.031427554,0.05122127,-0.85080958,0.52202658,0.031427554,15.799,7.899,8.007932555370383,5.440738898958227,4.890404967503869,4.75911551620016,0.0,0.0,0.0,0.0,0.0,0.0,0.0,0.0,0.0,0.0,0.0,8.993510410642186,10.291365260026591,10.513475351814774,10.193346132303928,0.0,0.0,0.0,0.0,0.0,0.0,0.0,0.0,0.0,0.0,0.0,7
15.75250836,0.51128441,-0.03196453,-0.053586983,-0.85714349,0.51128441,-0.03196453,15.799,7.899,8.007932555370383,5.440738898958227,4.890404967503869,4.75911551620016,0.0,0.0,0.0,0.0,0.0,0.0,0.0,0.0,0.0,0.0,0.0,8.993510410642186,10.291365260026591,10.513475351814774,10.193346132303928,0.0,0.0,0.0,0.0,0.0,0.0,0.0,0.0,0.0,0.0,0.0,7
15.76421405,0.49274326,-0.092065691,-0.15892338,-0.85057119,0.49274326,-0.092065691,15.799,7.899,8.007932555370383,5.440738898958227,4.890404967503869,4.75911551620016,0.0,0.0,0.0,0.0,0.0,0.0,0.0,0.0,0.0,0.0,0.0,8.993510410642186,10.291365260026591,10.513475351814774,10.193346132303928,0.0,0.0,0.0,0.0,0.0,0.0,0.0,0.0,0.0,0.0,0.0,7
15.77591973,0.46730959,-0.14800345,-0.26316971,-0.83093828,0.46730959,-0.14800345,15.799,7.899,8.007932555370383,5.440738898958227,4.890404967503869,4.75911551620016,0.0,0.0,0.0,0.0,0.0,0.0,0.0,0.0,0.0,0.0,0.0,8.993510410642186,10.291365260026591,10.513475351814774,10.193346132303928,0.0,0.0,0.0,0.0,0.0,0.0,0.0,0.0,0.0,0.0,0.0,7
15.78762542,0.43596269,-0.19912107,-0.36462894,-0.79833143,0.43596269,-0.19912107,15.799,7.899,8.007932555370383,5.440738898958227,4.890404967503869,4.75911551620016,0.0,0.0,0.0,0.0,0.0,0.0,0.0,0.0,0.0,0.0,0.0,8.993510410642186,10.291365260026591,10.513475351814774,10.193346132303928,0.0,0.0,0.0,0.0,0.0,0.0,0.0,0.0,0.0,0.0,0.0,7
15.7993311,0.39970218,-0.24497833,-0.46157993,-0.75310541,0.39970218,-0.24497833,15.799,7.899,8.007932555370383,5.440738898958227,4.890404967503869,4.75911551620016,0.0,0.0,0.0,0.0,0.0,0.0,0.0,0.0,0.0,0.0,0.0,8.993510410642186,10.291365260026591,10.513475351814774,10.193346132303928,0.0,0.0,0.0,0.0,0.0,0.0,0.0,0.0,0.0,0.0,0.0,7
15.81103679,0.35949758,-0.28533723,-0.55233795,-0.69589291,0.35949758,-0.28533723,15.799,7.899,8.007932555370383,5.440738898958227,4.890404967503869,4.75911551620016,0.0,0.0,0.0,0.0,0.0,0.0,0.0,0.0,0.0,0.0,0.0,8.993510410642186,10.291365260026591,10.513475351814774,10.193346132303928,0.0,0.0,0.0,0.0,0.0,0.0,0.0,0.0,0.0,0.0,0.0,7
15.82274247,0.31624513,-0.32013423,-0.63531499,-0.62759697,0.31624513,-0.32013423,15.799,7.899,8.007932555370383,5.440738898958227,4.890404967503869,4.75911551620016,0.0,0.0,0.0,0.0,0.0,0.0,0.0,0.0,0.0,0.0,0.0,8.993510410642186,10.291365260026591,10.513475351814774,10.193346132303928,0.0,0.0,0.0,0.0,0.0,0.0,0.0,0.0,0.0,0.0,0.0,7
15.83444816,0.2707361,-0.34944194,-0.70907491,-0.54936788,0.2707361,-0.34944194,15.799,7.899,8.007932555370383,5.440738898958227,4.890404967503869,4.75911551620016,0.0,0.0,0.0,0.0,0.0,0.0,0.0,0.0,0.0,0.0,0.0,8.993510410642186,10.291365260026591,10.513475351814774,10.193346132303928,0.0,0.0,0.0,0.0,0.0,0.0,0.0,0.0,0.0,0.0,0.0,7
15.84615385,0.22363924,-0.37342517,-0.77237964,-0.46256764,0.22363924,-0.37342517,15.799,7.899,8.007932555370383,5.440738898958227,4.890404967503869,4.75911551620016,0.0,0.0,0.0,0.0,0.0,0.0,0.0,0.0,0.0,0.0,0.0,8.993510410642186,10.291365260026591,10.513475351814774,10.193346132303928,0.0,0.0,0.0,0.0,0.0,0.0,0.0,0.0,0.0,0.0,0.0,7
15.85785953,0.17549815,-0.39229626,-0.82422403,-0.36872591,0.17549815,-0.39229626,15.799,7.899,8.007932555370383,5.440738898958227,4.890404967503869,4.75911551620016,0.0,0.0,0.0,0.0,0.0,0.0,0.0,0.0,0.0,0.0,0.0,8.993510410642186,10.291365260026591,10.513475351814774,10.193346132303928,0.0,0.0,0.0,0.0,0.0,0.0,0.0,0.0,0.0,0.0,0.0,7
15.86956522,0.12674239,-0.40627483,-0.86385856,-0.26949121,0.12674239,-0.40627483,15.799,7.899,8.007932555370383,5.440738898958227,4.890404967503869,4.75911551620016,0.0,0.0,0.0,0.0,0.0,0.0,0.0,0.0,0.0,0.0,0.0,8.993510410642186,10.291365260026591,10.513475351814774,10.193346132303928,0.0,0.0,0.0,0.0,0.0,0.0,0.0,0.0,0.0,0.0,0.0,7
15.8812709,0.077709455,-0.41555582,-0.89080045,-0.16658079,0.077709455,-0.41555582,15.799,7.899,8.007932555370383,5.440738898958227,4.890404967503869,4.75911551620016,0.0,0.0,0.0,0.0,0.0,0.0,0.0,0.0,0.0,0.0,0.0,8.993510410642186,10.291365260026591,10.513475351814774,10.193346132303928,0.0,0.0,0.0,0.0,0.0,0.0,0.0,0.0,0.0,0.0,0.0,7
15.89297659,0.02867394,-0.42028851,-0.904834,-0.061731774,0.02867394,-0.42028851,15.799,7.899,8.007932555370383,5.440738898958227,4.890404967503869,4.75911551620016,0.0,0.0,0.0,0.0,0.0,0.0,0.0,0.0,0.0,0.0,0.0,8.993510410642186,10.291365260026591,10.513475351814774,10.193346132303928,0.0,0.0,0.0,0.0,0.0,0.0,0.0,0.0,0.0,0.0,0.0,7
15.90468227,-0.020120585,-0.42056757,-0.90600184,0.043344489,-0.020120585,-0.42056757,15.799,7.899,8.007932555370383,5.440738898958227,4.890404967503869,4.75911551620016,0.0,0.0,0.0,0.0,0.0,0.0,0.0,0.0,0.0,0.0,0.0,8.993510410642186,10.291365260026591,10.513475351814774,10.193346132303928,0.0,0.0,0.0,0.0,0.0,0.0,0.0,0.0,0.0,0.0,0.0,7
15.91638796,-0.068430914,-0.41643554,-0.89458851,0.14700356,-0.068430914,-0.41643554,15.799,7.899,8.007932555370383,5.440738898958227,4.890404967503869,4.75911551620016,0.0,0.0,0.0,0.0,0.0,0.0,0.0,0.0,0.0,0.0,0.0,8.993510410642186,10.291365260026591,10.513475351814774,10.193346132303928,0.0,0.0,0.0,0.0,0.0,0.0,0.0,0.0,0.0,0.0,0.0,7
15.92809365,-0.11598833,-0.40789519,-0.87109763,0.24770373,-0.11598833,-0.40789519,15.799,7.899,8.007932555370383,5.440738898958227,4.890404967503869,4.75911551620016,0.0,0.0,0.0,0.0,0.0,0.0,0.0,0.0,0.0,0.0,0.0,8.993510410642186,10.291365260026591,10.513475351814774,10.193346132303928,0.0,0.0,0.0,0.0,0.0,0.0,0.0,0.0,0.0,0.0,0.0,7
15.93979933,-0.16248,-0.39492899,-0.8362241,0.34403575,-0.16248,-0.39492899,15.799,7.899,8.007932555370383,5.440738898958227,4.890404967503869,4.75911551620016,0.0,0.0,0.0,0.0,0.0,0.0,0.0,0.0,0.0,0.0,0.0,8.993510410642186,10.291365260026591,10.513475351814774,10.193346132303928,0.0,0.0,0.0,0.0,0.0,0.0,0.0,0.0,0.0,0.0,0.0,7
15.95150502,-0.20753892,-0.37752265,-0.79082248,0.43474596,-0.20753892,-0.37752265,15.799,7.899,8.007932555370383,5.440738898958227,4.890404967503869,4.75911551620016,0.0,0.0,0.0,0.0,0.0,0.0,0.0,0.0,0.0,0.0,0.0,8.993510410642186,10.291365260026591,10.513475351814774,10.193346132303928,0.0,0.0,0.0,0.0,0.0,0.0,0.0,0.0,0.0,0.0,0.0,7
15.9632107,-0.2507429,-0.35568965,-0.73587279,0.51875245,-0.2507429,-0.35568965,15.799,7.899,8.007932555370383,5.440738898958227,4.890404967503869,4.75911551620016,0.0,0.0,0.0,0.0,0.0,0.0,0.0,0.0,0.0,0.0,0.0,8.993510410642186,10.291365260026591,10.513475351814774,10.193346132303928,0.0,0.0,0.0,0.0,0.0,0.0,0.0,0.0,0.0,0.0,0.0,7
15.97491639,-0.2916215,-0.32949387,-0.67244532,0.59515375,-0.2916215,-0.32949387,15.799,7.899,8.007932555370383,5.440738898958227,4.890404967503869,4.75911551620016,0.0,0.0,0.0,0.0,0.0,0.0,0.0,0.0,0.0,0.0,0.0,8.993510410642186,10.291365260026591,10.513475351814774,10.193346132303928,0.0,0.0,0.0,0.0,0.0,0.0,0.0,0.0,0.0,0.0,0.0,7
15.98662207,-0.32966971,-0.29906808,-0.60166583,0.66323027,-0.32966971,-0.29906808,15.799,7.899,8.007932555370383,5.440738898958227,4.890404967503869,4.75911551620016,0.0,0.0,0.0,0.0,0.0,0.0,0.0,0.0,0.0,0.0,0.0,8.993510410642186,10.291365260026591,10.513475351814774,10.193346132303928,0.0,0.0,0.0,0.0,0.0,0.0,0.0,0.0,0.0,0.0,0.0,7
15.99832776,-0.36436622,-0.26462693,-0.52468293,0.72243869,-0.36436622,-0.26462693,15.799,7.899,8.007932555370383,5.440738898958227,4.890404967503869,4.75911551620016,0.0,0.0,0.0,0.0,0.0,0.0,0.0,0.0,0.0,0.0,0.0,8.993510410642186,10.291365260026591,10.513475351814774,10.193346132303928,0.0,0.0,0.0,0.0,0.0,0.0,0.0,0.0,0.0,0.0,0.0,7
16.01003344,-0.39519412,-0.22647368,-0.44263896,0.77240018,-0.39519412,-0.22647368,15.799,7.899,8.007932555370383,5.440738898958227,4.890404967503869,4.75911551620016,0.0,0.0,0.0,0.0,0.0,0.0,0.0,0.0,0.0,0.0,0.0,8.993510410642186,10.291365260026591,10.513475351814774,10.193346132303928,0.0,0.0,0.0,0.0,0.0,0.0,0.0,0.0,0.0,0.0,0.0,7
16.02173913,-0.42166208,-0.18500072,-0.35664585,0.81288349,-0.42166208,-0.18500072,15.799,7.899,8.007932555370383,5.440738898958227,4.890404967503869,4.75911551620016,0.0,0.0,0.0,0.0,0.0,0.0,0.0,0.0,0.0,0.0,0.0,8.993510410642186,10.291365260026591,10.513475351814774,10.193346132303928,0.0,0.0,0.0,0.0,0.0,0.0,0.0,0.0,0.0,0.0,0.0,7
16.03344482,-0.44332427,-0.14068461,-0.26776675,0.84378457,-0.44332427,-0.14068461,15.799,7.899,8.007932555370383,5.440738898958227,4.890404967503869,4.75911551620016,0.0,0.0,0.0,0.0,0.0,0.0,0.0,0.0,0.0,0.0,0.0,8.993510410642186,10.291365260026591,10.513475351814774,10.193346132303928,0.0,0.0,0.0,0.0,0.0,0.0,0.0,0.0,0.0,0.0,0.0,7
16.0451505,-0.45979766,-0.094076588,-0.17700406,0.8651042,-0.45979766,-0.094076588,15.799,7.899,8.007932555370383,5.440738898958227,4.890404967503869,4.75911551620016,0.0,0.0,0.0,0.0,0.0,0.0,0.0,0.0,0.0,0.0,0.0,8.993510410642186,10.291365260026591,10.513475351814774,10.193346132303928,0.0,0.0,0.0,0.0,0.0,0.0,0.0,0.0,0.0,0.0,0.0,7
16.05685619,-0.4707761,-0.04578979,-0.085293688,0.87692539,-0.4707761,-0.04578979,15.799,7.899,8.007932555370383,5.440738898958227,4.890404967503869,4.75911551620016,0.0,0.0,0.0,0.0,0.0,0.0,0.0,0.0,0.0,0.0,0.0,8.993510410642186,10.291365260026591,10.513475351814774,10.193346132303928,0.0,0.0,0.0,0.0,0.0,0.0,0.0,0.0,0.0,0.0,0.0,7
16.06856187,-0.47604078,0.0035157112,0.0064945885,0.8793922,-0.47604078,0.0035157112,15.799,7.899,8.007932555370383,5.440738898958227,4.890404967503869,4.75911551620016,0.0,0.0,0.0,0.0,0.0,0.0,0.0,0.0,0.0,0.0,0.0,8.993510410642186,10.291365260026591,10.513475351814774,10.193346132303928,0.0,0.0,0.0,0.0,0.0,0.0,0.0,0.0,0.0,0.0,0.0,7
16.08026756,-0.47546705,0.053148945,0.097551695,0.87269121,-0.47546705,0.053148945,15.799,7.899,8.007932555370383,5.440738898958227,4.890404967503869,4.75911551620016,0.0,0.0,0.0,0.0,0.0,0.0,0.0,0.0,0.0,0.0,0.0,8.993510410642186,10.291365260026591,10.513475351814774,10.193346132303928,0.0,0.0,0.0,0.0,0.0,0.0,0.0,0.0,0.0,0.0,0.0,7
