freq,s11_real,s11_imag,s21_real,s21_imag,s22_real,s22_imag,a,b,a2_1,a2_2,a2_3,a2_4,a2_5,a2_6,a2_7,a2_8,a2_9,a2_10,a2_11,a2_12,a2_13,a2_14,a2_15,l_1,l_2,l_3,l_4,l_5,l_6,l_7,l_8,l_9,l_10,l_11,l_12,l_13,l_14,l_15,order
14.85117057,0.18291829,0.98312798,0.00052161333,-9.7050049e-05,0.18291829,0.98312798,15.799,7.899,7.969972381798078,5.4309522332284565,4.849332574640064,4.729072385953631,0.0,0.0,0.0,0.0,0.0,0.0,0.0,0.0,0.0,0.0,0.0,8.9823593372067,10.26222580757551,10.49036184788348,10.525725029279878,0.0,0.0,0.0,0.0,0.0,0.0,0.0,0.0,0.0,0.0,0.0,7
14.86287625,0.19745936,0.9803109,0.0005694208,-0.00011469572,0.19745936,0.9803109,15.799,7.899,7.969972381798078,5.4309522332284565,4.849332574640064,4.729072385953631,0.0,0.0,0.0,0.0,0.0,0.0,0.0,0.0,0.0,0.0,0.0,8.9823593372067,10.26222580757551,10.49036184788348,10.525725029279878,0.0,0.0,0.0,0.0,0.0,0.0,0.0,0.0,0.0,0.0,0.0,7
14.87458194,0.21230848,0.97720249,0.00062207827,-0.00013515366,0.21230848,0.97720249,15.799,7.899,7.969972381798078,5.4309522332284565,4.849332574640064,4.729072385953631,0.0,0.0,0.0,0.0,0.0,0.0,0.0,0.0,0.0,0.0,0.0,8.9823593372067,10.26222580757551,10.49036184788348,10.525725029279878,0.0,0.0,0.0,0.0,0.0,0.0,0.0,0.0,0.0,0.0,0.0,7
14.88628763,0.22747412,0.97378388,0.00068012293,-0.00015887546,0.22747412,0.97378388,15.799,7.899,7.969972381798078,5.4309522332284565,4.849332574640064,4.729072385953631,0.0,0.0,0.0,0.0,0.0,0.0,0.0,0.0,0.0,0.0,0.0,8.9823593372067,10.26222580757551,10.49036184788348,10.525725029279878,0.0,0.0,0.0,0.0,0.0,0.0,0.0,0.0,0.0,0.0,0.0,7
14.89799331,0.24296491,0.97003477,0.00074415573,-0.00018638892,0.24296491,0.97003477,15.799,7.899,7.969972381798078,5.4309522332284565,4.849332574640064,4.729072385953631,0.0,0.0,0.0,0.0,0.0,0.0,0.0,0.0,0.0,0.0,0.0,8.9823593372067,10.26222580757551,10.49036184788348,10.525725029279878,0.0,0.0,0.0,0.0,0.0,0.0,0.0,0.0,0.0,0.0,0.0,7
14.909699,0.25878965,0.96593334,0.00081484927,-0.00021831171,0.25878965,0.96593334,15.799,7.899,7.969972381798078,5.4309522332284565,4.849332574640064,4.729072385953631,0.0,0.0,0.0,0.0,0.0,0.0,0.0,0.0,0.0,0.0,0.0,8.9823593372067,10.26222580757551,10.49036184788348,10.525725029279878,0.0,0.0,0.0,0.0,0.0,0.0,0.0,0.0,0.0,0.0,0.0,7
14.92140468,0.2749572,0.96145602,0.00089295668,-0.00025536776,0.2749572,0.96145602,15.799,7.899,7.969972381798078,5.4309522332284565,4.849332574640064,4.729072385953631,0.0,0.0,0.0,0.0,0.0,0.0,0.0,0.0,0.0,0.0,0.0,8.9823593372067,10.26222580757551,10.49036184788348,10.525725029279878,0.0,0.0,0.0,0.0,0.0,0.0,0.0,0.0,0.0,0.0,0.0,7
14.93311037,0.29147656,0.95657742,0.00097932146,-0.00029840684,0.29147656,0.95657742,15.799,7.899,7.969972381798078,5.4309522332284565,4.849332574640064,4.729072385953631,0.0,0.0,0.0,0.0,0.0,0.0,0.0,0.0,0.0,0.0,0.0,8.9823593372067,10.26222580757551,10.49036184788348,10.525725029279878,0.0,0.0,0.0,0.0,0.0,0.0,0.0,0.0,0.0,0.0,0.0,7
14.94481605,0.30835673,0.95127013,0.0010748886,-0.00034842798,0.30835673,0.95127013,15.799,7.899,7.969972381798078,5.4309522332284565,4.849332574640064,4.729072385953631,0.0,0.0,0.0,0.0,0.0,0.0,0.0,0.0,0.0,0.0,0.0,8.9823593372067,10.26222580757551,10.49036184788348,10.525725029279878,0.0,0.0,0.0,0.0,0.0,0.0,0.0,0.0,0.0,0.0,0.0,7
14.95652174,0.32560673,0.94550447,0.0011807168,-0.00040660763,0.32560673,0.94550447,15.799,7.899,7.969972381798078,5.4309522332284565,4.849332574640064,4.729072385953631,0.0,0.0,0.0,0.0,0.0,0.0,0.0,0.0,0.0,0.0,0.0,8.9823593372067,10.26222580757551,10.49036184788348,10.525725029279878,0.0,0.0,0.0,0.0,0.0,0.0,0.0,0.0,0.0,0.0,0.0,7
14.96822742,0.34323551,0.93924835,0.0012979922,-0.00047433355,0.34323551,0.93924835,15.799,7.899,7.969972381798078,5.4309522332284565,4.849332574640064,4.729072385953631,0.0,0.0,0.0,0.0,0.0,0.0,0.0,0.0,0.0,0.0,0.0,8.9823593372067,10.26222580757551,10.49036184788348,10.525725029279878,0.0,0.0,0.0,0.0,0.0,0.0,0.0,0.0,0.0,0.0,0.0,7
14.97993311,0.36125192,0.932467,0.0014280431,-0.00055324564,0.36125192,0.932467,15.799,7.899,7.969972381798078,5.4309522332284565,4.849332574640064,4.729072385953631,0.0,0.0,0.0,0.0,0.0,0.0,0.0,0.0,0.0,0.0,0.0,8.9823593372067,10.26222580757551,10.49036184788348,10.525725029279878,0.0,0.0,0.0,0.0,0.0,0.0,0.0,0.0,0.0,0.0,0.0,7
14.9916388,0.37966455,0.92512266,0.0015723567,-0.00064528534,0.37966455,0.92512266,15.799,7.899,7.969972381798078,5.4309522332284565,4.849332574640064,4.729072385953631,0.0,0.0,0.0,0.0,0.0,0.0,0.0,0.0,0.0,0.0,0.0,8.9823593372067,10.26222580757551,10.49036184788348,10.525725029279878,0.0,0.0,0.0,0.0,0.0,0.0,0.0,0.0,0.0,0.0,0.0,7
15.55351171,0.043095271,-0.047950041,0.74220765,0.66706177,0.043095271,-0.047950041,15.799,7.899,7.969972381798078,5.4309522332284565,4.849332574640064,4.729072385953631,0.0,0.0,0.0,0.0,0.0,0.0,0.0,0.0,0.0,0.0,0.0,8.9823593372067,10.26222580757551,10.49036184788348,10.525725029279878,0.0,0.0,0.0,0.0,0.0,0.0,0.0,0.0,0.0,0.0,0.0,7
15.56521739,0.02690997,-0.04317504,0.84755621,0.52826152,0.02690997,-0.04317504,15.799,7.899,7.969972381798078,5.4309522332284565,4.849332574640064,4.729072385953631,0.0,0.0,0.0,0.0,0.0,0.0,0.0,0.0,0.0,0.0,0.0,8.9823593372067,10.26222580757551,10.49036184788348,10.525725029279878,0.0,0.0,0.0,0.0,0.0,0.0,0.0,0.0,0.0,0.0,0.0,7
15.57692308,0.012762038,-0.031237871,0.92519715,0.37798354,0.012762038,-0.031237871,15.799,7.899,7.969972381798078,5.4309522332284565,4.849332574640064,4.729072385953631,0.0,0.0,0.0,0.0,0.0,0.0,0.0,0.0,0.0,0.0,0.0,8.9823593372067,10.26222580757551,10.49036184788348,10.525725029279878,0.0,0.0,0.0,0.0,0.0,0.0,0.0,0.0,0.0,0.0,0.0,7
15.58862876,0.0033617752,-0.014820211,0.97511194,0.22119167,0.0033617752,-0.014820211,15.799,7.899,7.969972381798078,5.4309522332284565,4.849332574640064,4.729072385953631,0.0,0.0,0.0,0.0,0.0,0.0,0.0,0.0,0.0,0.0,0.0,8.9823593372067,10.26222580757551,10.49036184788348,10.525725029279878,0.0,0.0,0.0,0.0,0.0,0.0,0.0,0.0,0.0,0.0,0.0,7
15.60033445,-0.00019510804,0.0031108801,0.99803416,0.062594664,-0.00019510804,0.0031108801,15.799,7.899,7.969972381798078,5.4309522332284565,4.849332574640064,4.729072385953631,0.0,0.0,0.0,0.0,0.0,0.0,0.0,0.0,0.0,0.0,0.0,8.9823593372067,10.26222580757551,10.49036184788348,10.525725029279878,0.0,0.0,0.0,0.0,0.0,0.0,0.0,0.0,0.0,0.0,0.0,7
15.61204013,0.0018679913,0.019873674,0.99541332,-0.093562134,0.0018679913,0.019873674,15.799,7.899,7.969972381798078,5.4309522332284565,4.849332574640064,4.729072385953631,0.0,0.0,0.0,0.0,0.0,0.0,0.0,0.0,0.0,0.0,0.0,8.9823593372067,10.26222580757551,10.49036184788348,10.525725029279878,0.0,0.0,0.0,0.0,0.0,0.0,0.0,0.0,0.0,0.0,0.0,7
15.62374582,0.0084025214,0.033425933,0.96925119,-0.24364777,0.0084025214,0.033425933,15.799,7.899,7.969972381798078,5.4309522332284565,4.849332574640064,4.729072385953631,0.0,0.0,0.0,0.0,0.0,0.0,0.0,0.0,0.0,0.0,0.0,8.9823593372067,10.26222580757551,10.49036184788348,10.525725029279878,0.0,0.0,0.0,0.0,0.0,0.0,0.0,0.0,0.0,0.0,0.0,7
15.63545151,0.017743074,0.042519806,0.92189265,-0.38469624,0.017743074,0.042519806,15.799,7.899,7.969972381798078,5.4309522332284565,4.849332574640064,4.729072385953631,0.0,0.0,0.0,0.0,0.0,0.0,0.0,0.0,0.0,0.0,0.0,8.9823593372067,10.26222580757551,10.49036184788348,10.525725029279878,0.0,0.0,0.0,0.0,0.0,0.0,0.0,0.0,0.0,0.0,0.0,7
15.64715719,0.028067321,0.046700177,0.85583719,-0.51436759,0.028067321,0.046700177,15.799,7.899,7.969972381798078,5.4309522332284565,4.849332574640064,4.729072385953631,0.0,0.0,0.0,0.0,0.0,0.0,0.0,0.0,0.0,0.0,0.0,8.9823593372067,10.26222580757551,10.49036184788348,10.525725029279878,0.0,0.0,0.0,0.0,0.0,0.0,0.0,0.0,0.0,0.0,0.0,7
15.65886288,0.037674364,0.046199349,0.77360652,-0.63085594,0.037674364,0.046199349,15.799,7.899,7.969972381798078,5.4309522332284565,4.849332574640064,4.729072385953631,0.0,0.0,0.0,0.0,0.0,0.0,0.0,0.0,0.0,0.0,0.0,8.9823593372067,10.26222580757551,10.49036184788348,10.525725029279878,0.0,0.0,0.0,0.0,0.0,0.0,0.0,0.0,0.0,0.0,0.0,7
15.67056856,0.045173756,0.041776469,0.67767444,-0.73278333,0.045173756,0.041776469,15.799,7.899,7.969972381798078,5.4309522332284565,4.849332574640064,4.729072385953631,0.0,0.0,0.0,0.0,0.0,0.0,0.0,0.0,0.0,0.0,0.0,8.9823593372067,10.26222580757551,10.49036184788348,10.525725029279878,0.0,0.0,0.0,0.0,0.0,0.0,0.0,0.0,0.0,0.0,0.0,7
15.68227425,0.049593183,0.034537909,0.57044692,-0.81910802,0.049593183,0.034537909,15.799,7.899,7.969972381798078,5.4309522332284565,4.849332574640064,4.729072385953631,0.0,0.0,0.0,0.0,0.0,0.0,0.0,0.0,0.0,0.0,0.0,8.9823593372067,10.26222580757551,10.49036184788348,10.525725029279878,0.0,0.0,0.0,0.0,0.0,0.0,0.0,0.0,0.0,0.0,0.0,7
15.69397993,0.050419137,0.025761974,0.45427184,-0.88906205,0.050419137,0.025761974,15.799,7.899,7.969972381798078,5.4309522332284565,4.849332574640064,4.729072385953631,0.0,0.0,0.0,0.0,0.0,0.0,0.0,0.0,0.0,0.0,0.0,8.9823593372067,10.26222580757551,10.49036184788348,10.525725029279878,0.0,0.0,0.0,0.0,0.0,0.0,0.0,0.0,0.0,0.0,0.0,7
15.70568562,0.047585356,0.016741562,0.33145839,-0.94212032,0.047585356,0.016741562,15.799,7.899,7.969972381798078,5.4309522332284565,4.849332574640064,4.729072385953631,0.0,0.0,0.0,0.0,0.0,0.0,0.0,0.0,0.0,0.0,0.0,8.9823593372067,10.26222580757551,10.49036184788348,10.525725029279878,0.0,0.0,0.0,0.0,0.0,0.0,0.0,0.0,0.0,0.0,0.0,7
15.7173913,0.041421954,0.0086525141,0.20429064,-0.97799524,0.041421954,0.0086525141,15.799,7.899,7.969972381798078,5.4309522332284565,4.849332574640064,4.729072385953631,0.0,0.0,0.0,0.0,0.0,0.0,0.0,0.0,0.0,0.0,0.0,8.9823593372067,10.26222580757551,10.49036184788348,10.525725029279878,0.0,0.0,0.0,0.0,0.0,0.0,0.0,0.0,0.0,0.0,0.0,7
15.72909699,0.032576313,0.0024522963,0.075026049,-0.99664631,0.032576313,0.0024522963,15.799,7.899,7.969972381798078,5.4309522332284565,4.849332574640064,4.729072385953631,0.0,0.0,0.0,0.0,0.0,0.0,0.0,0.0,0.0,0.0,0.0,8.9823593372067,10.26222580757551,10.49036184788348,10.525725029279878,0.0,0.0,0.0,0.0,0.0,0.0,0.0,0.0,0.0,0.0,0.0,7
15.74080268,0.02191588,-0.0011881923,-0.054123494,-0.99829301,0.02191588,-0.0011881923,15.799,7.899,7.969972381798078,5.4309522332284565,4.849332574640064,4.729072385953631,0.0,0.0,0.0,0.0,0.0,0.0,0.0,0.0,0.0,0.0,0.0,8.9823593372067,10.26222580757551,10.49036184788348,10.525725029279878,0.0,0.0,0.0,0.0,0.0,0.0,0.0,0.0,0.0,0.0,0.0,7
15.75250836,0.010422803,-0.0019185988,-0.1810253,-0.98342134,0.010422803,-0.0019185988,15.799,7.899,7.969972381798078,5.4309522332284565,4.849332574640064,4.729072385953631,0.0,0.0,0.0,0.0,0.0,0.0,0.0,0.0,0.0,0.0,0.0,8.9823593372067,10.26222580757551,10.49036184788348,10.525725029279878,0.0,0.0,0.0,0.0,0.0,0.0,0.0,0.0,0.0,0.0,0.0,7
15.76421405,-0.00090984189,0.00028998357,-0.30366793,-0.95277745,-0.00090984189,0.00028998357,15.799,7.899,7.969972381798078,5.4309522332284565,4.849332574640064,4.729072385953631,0.0,0.0,0.0,0.0,0.0,0.0,0.0,0.0,0.0,0.0,0.0,8.9823593372067,10.26222580757551,10.49036184788348,10.525725029279878,0.0,0.0,0.0,0.0,0.0,0.0,0.0,0.0,0.0,0.0,0.0,7
15.77591973,-0.011171223,0.0051735387,-0.42020384,-0.90734622,-0.011171223,0.0051735387,15.799,7.899,7.969972381798078,5.4309522332284565,4.849332574640064,4.729072385953631,0.0,0.0,0.0,0.0,0.0,0.0,0.0,0.0,0.0,0.0,0.0,8.9823593372067,10.26222580757551,10.49036184788348,10.525725029279878,0.0,0.0,0.0,0.0,0.0,0.0,0.0,0.0,0.0,0.0,0.0,7
15.78762542,-0.019608072,0.012227027,-0.52898547,-0.84831621,-0.019608072,0.012227027,15.799,7.899,7.969972381798078,5.4309522332284565,4.849332574640064,4.729072385953631,0.0,0.0,0.0,0.0,0.0,0.0,0.0,0.0,0.0,0.0,0.0,8.9823593372067,10.26222580757551,10.49036184788348,10.525725029279878,0.0,0.0,0.0,0.0,0.0,0.0,0.0,0.0,0.0,0.0,0.0,7
15.7993311,-0.025677393,0.02077195,-0.62858965,-0.77703555,-0.025677393,0.02077195,15.799,7.899,7.969972381798078,5.4309522332284565,4.849332574640064,4.729072385953631,0.0,0.0,0.0,0.0,0.0,0.0,0.0,0.0,0.0,0.0,0.0,8.9823593372067,10.26222580757551,10.49036184788348,10.525725029279878,0.0,0.0,0.0,0.0,0.0,0.0,0.0,0.0,0.0,0.0,0.0,7
15.81103679,-0.029074764,0.030031293,-0.71782807,-0.69496448,-0.029074764,0.030031293,15.799,7.899,7.969972381798078,5.4309522332284565,4.849332574640064,4.729072385953631,0.0,0.0,0.0,0.0,0.0,0.0,0.0,0.0,0.0,0.0,0.0,8.9823593372067,10.26222580757551,10.49036184788348,10.525725029279878,0.0,0.0,0.0,0.0,0.0,0.0,0.0,0.0,0.0,0.0,0.0,7
15.82274247,-0.02973918,0.039204108,-0.79574439,-0.60363026,-0.02973918,0.039204108,15.799,7.899,7.969972381798078,5.4309522332284565,4.849332574640064,4.729072385953631,0.0,0.0,0.0,0.0,0.0,0.0,0.0,0.0,0.0,0.0,0.0,8.9823593372067,10.26222580757551,10.49036184788348,10.525725029279878,0.0,0.0,0.0,0.0,0.0,0.0,0.0,0.0,0.0,0.0,0.0,7
15.83444816,-0.027837542,0.047533438,-0.86160066,-0.50458889,-0.027837542,0.047533438,15.799,7.899,7.969972381798078,5.4309522332284565,4.849332574640064,4.729072385953631,0.0,0.0,0.0,0.0,0.0,0.0,0.0,0.0,0.0,0.0,0.0,8.9823593372067,10.26222580757551,10.49036184788348,10.525725029279878,0.0,0.0,0.0,0.0,0.0,0.0,0.0,0.0,0.0,0.0,0.0,7
15.84615385,-0.023733145,0.054363145,-0.91485733,-0.39939636,-0.023733145,0.054363145,15.799,7.899,7.969972381798078,5.4309522332284565,4.849332574640064,4.729072385953631,0.0,0.0,0.0,0.0,0.0,0.0,0.0,0.0,0.0,0.0,0.0,8.9823593372067,10.26222580757551,10.49036184788348,10.525725029279878,0.0,0.0,0.0,0.0,0.0,0.0,0.0,0.0,0.0,0.0,0.0,7
15.85785953,-0.017942968,0.059181086,-0.95515096,-0.28958987,-0.017942968,0.059181086,15.799,7.899,7.969972381798078,5.4309522332284565,4.849332574640064,4.729072385953631,0.0,0.0,0.0,0.0,0.0,0.0,0.0,0.0,0.0,0.0,0.0,8.9823593372067,10.26222580757551,10.49036184788348,10.525725029279878,0.0,0.0,0.0,0.0,0.0,0.0,0.0,0.0,0.0,0.0,0.0,7
15.86956522,-0.01108835,0.061647706,-0.98227363,-0.17667801,-0.01108835,0.061647706,15.799,7.899,7.969972381798078,5.4309522332284565,4.849332574640064,4.729072385953631,0.0,0.0,0.0,0.0,0.0,0.0,0.0,0.0,0.0,0.0,0.0,8.9823593372067,10.26222580757551,10.49036184788348,10.525725029279878,0.0,0.0,0.0,0.0,0.0,0.0,0.0,0.0,0.0,0.0,0.0,7
15.8812709,-0.0038430676,0.061610211,-0.99615679,-0.062137393,-0.0038430676,0.061610211,15.799,7.899,7.969972381798078,5.4309522332284565,4.849332574640064,4.729072385953631,0.0,0.0,0.0,0.0,0.0,0.0,0.0,0.0,0.0,0.0,0.0,8.9823593372067,10.26222580757551,10.49036184788348,10.525725029279878,0.0,0.0,0.0,0.0,0.0,0.0,0.0,0.0,0.0,0.0,0.0,7
15.89297659,0.0031178577,0.059103261,-0.99686091,0.052587124,0.0031178577,0.059103261,15.799,7.899,7.969972381798078,5.4309522332284565,4.849332574640064,4.729072385953631,0.0,0.0,0.0,0.0,0.0,0.0,0.0,0.0,0.0,0.0,0.0,8.9823593372067,10.26222580757551,10.49036184788348,10.525725029279878,0.0,0.0,0.0,0.0,0.0,0.0,0.0,0.0,0.0,0.0,0.0,7
15.90468227,0.0091658846,0.054337483,-0.98457111,0.16608177,0.0091658846,0.054337483,15.799,7.899,7.969972381798078,5.4309522332284565,4.849332574640064,4.729072385953631,0.0,0.0,0.0,0.0,0.0,0.0,0.0,0.0,0.0,0.0,0.0,8.9823593372067,10.26222580757551,10.49036184788348,10.525725029279878,0.0,0.0,0.0,0.0,0.0,0.0,0.0,0.0,0.0,0.0,0.0,7
15.91638796,0.013760954,0.047677371,-0.95959768,0.27696534,0.013760954,0.047677371,15.799,7.899,7.969972381798078,5.4309522332284565,4.849332574640064,4.729072385953631,0.0,0.0,0.0,0.0,0.0,0.0,0.0,0.0,0.0,0.0,0.0,8.9823593372067,10.26222580757551,10.49036184788348,10.525725029279878,0.0,0.0,0.0,0.0,0.0,0.0,0.0,0.0,0.0,0.0,0.0,7
15.92809365,0.016485844,0.039610352,-0.92237957,0.38389473,0.016485844,0.039610352,15.799,7.899,7.969972381798078,5.4309522332284565,4.849332574640064,4.729072385953631,0.0,0.0,0.0,0.0,0.0,0.0,0.0,0.0,0.0,0.0,0.0,8.9823593372067,10.26222580757551,10.49036184788348,10.525725029279878,0.0,0.0,0.0,0.0,0.0,0.0,0.0,0.0,0.0,0.0,0.0,7
15.93979933,0.017071266,0.030709049,-0.87348851,0.48557528,0.017071266,0.030709049,15.799,7.899,7.969972381798078,5.4309522332284565,4.849332574640064,4.729072385953631,0.0,0.0,0.0,0.0,0.0,0.0,0.0,0.0,0.0,0.0,0.0,8.9823593372067,10.26222580757551,10.49036184788348,10.525725029279878,0.0,0.0,0.0,0.0,0.0,0.0,0.0,0.0,0.0,0.0,0.0,7
15.95150502,0.015410449,0.021589089,-0.81363124,0.5807759,0.015410449,0.021589089,15.799,7.899,7.969972381798078,5.4309522332284565,4.849332574640064,4.729072385953631,0.0,0.0,0.0,0.0,0.0,0.0,0.0,0.0,0.0,0.0,0.0,8.9823593372067,10.26222580757551,10.49036184788348,10.525725029279878,0.0,0.0,0.0,0.0,0.0,0.0,0.0,0.0,0.0,0.0,0.0,7
15.9632107,0.011562441,0.012865135,-0.74364785,0.66834772,0.011562441,0.012865135,15.799,7.899,7.969972381798078,5.4309522332284565,4.849332574640064,4.729072385953631,0.0,0.0,0.0,0.0,0.0,0.0,0.0,0.0,0.0,0.0,0.0,8.9823593372067,10.26222580757551,10.49036184788348,10.525725029279878,0.0,0.0,0.0,0.0,0.0,0.0,0.0,0.0,0.0,0.0,0.0,7
15.97491639,0.0057440389,0.0051080216,-0.66450474,0.74724451,0.0057440389,0.0051080216,15.799,7.899,7.969972381798078,5.4309522332284565,4.849332574640064,4.729072385953631,0.0,0.0,0.0,0.0,0.0,0.0,0.0,0.0,0.0,0.0,0.0,8.9823593372067,10.26222580757551,10.49036184788348,10.525725029279878,0.0,0.0,0.0,0.0,0.0,0.0,0.0,0.0,0.0,0.0,0.0,7
15.98662207,-0.0016889833,-0.0011940827,-0.57728172,0.81654243,-0.0016889833,-0.0011940827,15.799,7.899,7.969972381798078,5.4309522332284565,4.849332574640064,4.729072385953631,0.0,0.0,0.0,0.0,0.0,0.0,0.0,0.0,0.0,0.0,0.0,8.9823593372067,10.26222580757551,10.49036184788348,10.525725029279878,0.0,0.0,0.0,0.0,0.0,0.0,0.0,0.0,0.0,0.0,0.0,7
15.99832776,-0.010269863,-0.0056678059,-0.48315354,0.87545706,-0.010269863,-0.0056678059,15.799,7.899,7.969972381798078,5.4309522332284565,4.849332574640064,4.729072385953631,0.0,0.0,0.0,0.0,0.0,0.0,0.0,0.0,0.0,0.0,0.0,8.9823593372067,10.26222580757551,10.49036184788348,10.525725029279878,0.0,0.0,0.0,0.0,0.0,0.0,0.0,0.0,0.0,0.0,0.0,7
16.01003344,-0.019455818,-0.0080778483,-0.38336742,0.92335564,-0.019455818,-0.0080778483,15.799,7.899,7.969972381798078,5.4309522332284565,4.849332574640064,4.729072385953631,0.0,0.0,0.0,0.0,0.0,0.0,0.0,0.0,0.0,0.0,0.0,8.9823593372067,10.26222580757551,10.49036184788348,10.525725029279878,0.0,0.0,0.0,0.0,0.0,0.0,0.0,0.0,0.0,0.0,0.0,7
16.02173913,-0.028667262,-0.0083399938,-0.27921819,0.95976343,-0.028667262,-0.0083399938,15.799,7.899,7.969972381798078,5.4309522332284565,4.849332574640064,4.729072385953631,0.0,0.0,0.0,0.0,0.0,0.0,0.0,0.0,0.0,0.0,0.0,8.9823593372067,10.26222580757551,10.49036184788348,10.525725029279878,0.0,0.0,0.0,0.0,0.0,0.0,0.0,0.0,0.0,0.0,0.0,7
16.03344482,-0.037328288,-0.0065233432,-0.17202349,0.98436374,-0.037328288,-0.0065233432,15.799,7.899,7.969972381798078,5.4309522332284565,4.849332574640064,4.729072385953631,0.0,0.0,0.0,0.0,0.0,0.0,0.0,0.0,0.0,0.0,0.0,8.9823593372067,10.26222580757551,10.49036184788348,10.525725029279878,0.0,0.0,0.0,0.0,0.0,0.0,0.0,0.0,0.0,0.0,0.0,7
16.0451505,-0.044905529,-0.0028421347,-0.06310106,0.99699231,-0.044905529,-0.0028421347,15.799,7.899,7.969972381798078,5.4309522332284565,4.849332574640064,4.729072385953631,0.0,0.0,0.0,0.0,0.0,0.0,0.0,0.0,0.0,0.0,0.0,8.9823593372067,10.26222580757551,10.49036184788348,10.525725029279878,0.0,0.0,0.0,0.0,0.0,0.0,0.0,0.0,0.0,0.0,0.0,7
16.05685619,-0.050942859,0.0023617226,0.046250229,0.99762727,-0.050942859,0.0023617226,15.799,7.899,7.969972381798078,5.4309522332284565,4.849332574640064,4.729072385953631,0.0,0.0,0.0,0.0,0.0,0.0,0.0,0.0,0.0,0.0,0.0,8.9823593372067,10.26222580757551,10.49036184788348,10.525725029279878,0.0,0.0,0.0,0.0,0.0,0.0,0.0,0.0,0.0,0.0,0.0,7
16.06856187,-0.055089949,0.0086437255,0.15476447,0.98637637,-0.055089949,0.0086437255,15.799,7.899,7.969972381798078,5.4309522332284565,4.849332574640064,4.729072385953631,0.0,0.0,0.0,0.0,0.0,0.0,0.0,0.0,0.0,0.0,0.0,8.9823593372067,10.26222580757551,10.49036184788348,10.525725029279878,0.0,0.0,0.0,0.0,0.0,0.0,0.0,0.0,0.0,0.0,0.0,7
16.08026756,-0.057123302,0.015487476,0.26121776,0.96346372,-0.057123302,0.015487476,15.799,7.899,7.969972381798078,5.4309522332284565,4.849332574640064,4.729072385953631,0.0,0.0,0.0,0.0,0.0,0.0,0.0,0.0,0.0,0.0,0.0,8.9823593372067,10.26222580757551,10.49036184788348,10.525725029279878,0.0,0.0,0.0,0.0,0.0,0.0,0.0,0.0,0.0,0.0,0.0,7
