freq,s11_real,s11_imag,s21_real,s21_imag,s22_real,s22_imag,a,b,a2_1,a2_2,a2_3,a2_4,a2_5,a2_6,a2_7,a2_8,a2_9,a2_10,a2_11,a2_12,a2_13,a2_14,a2_15,l_1,l_2,l_3,l_4,l_5,l_6,l_7,l_8,l_9,l_10,l_11,l_12,l_13,l_14,l_15,order
14.85117057,-0.27761771,0.96069161,0.00019357456,5.5938583e-05,-0.27761771,0.96069161,15.799,7.899,7.389066614717544,5.406614561705814,4.616835799413556,4.698108967113482,0.0,0.0,0.0,0.0,0.0,0.0,0.0,0.0,0.0,0.0,0.0,9.14176183038412,10.31799207551599,10.522305827210864,10.555553173493973,0.0,0.0,0.0,0.0,0.0,0.0,0.0,0.0,0.0,0.0,0.0,7
14.86287625,-0.26848976,0.96328251,0.0002122032,5.9146082e-05,-0.26848976,0.96328251,15.799,7.899,7.389066614717544,5.406614561705814,4.616835799413556,4.698108967113482,0.0,0.0,0.0,0.0,0.0,0.0,0.0,0.0,0.0,0.0,0.0,9.14176183038412,10.31799207551599,10.522305827210864,10.555553173493973,0.0,0.0,0.0,0.0,0.0,0.0,0.0,0.0,0.0,0.0,0.0,7
14.87458194,-0.25912228,0.96584449,0.00023285896,6.2472734e-05,-0.25912228,0.96584449,15.799,7.899,7.389066614717544,5.406614561705814,4.616835799413556,4.698108967113482,0.0,0.0,0.0,0.0,0.0,0.0,0.0,0.0,0.0,0.0,0.0,9.14176183038412,10.31799207551599,10.522305827210864,10.555553173493973,0.0,0.0,0.0,0.0,0.0,0.0,0.0,0.0,0.0,0.0,0.0,7
14.88628763,-0.24950488,0.9683735,0.00025578963,6.5905109e-05,-0.24950488,0.9683735,15.799,7.899,7.389066614717544,5.406614561705814,4.616835799413556,4.698108967113482,0.0,0.0,0.0,0.0,0.0,0.0,0.0,0.0,0.0,0.0,0.0,9.14176183038412,10.31799207551599,10.522305827210864,10.555553173493973,0.0,0.0,0.0,0.0,0.0,0.0,0.0,0.0,0.0,0.0,0.0,7
14.89799331,-0.23962655,0.9708651,0.00028127677,6.9424044e-05,-0.23962655,0.9708651,15.799,7.899,7.389066614717544,5.406614561705814,4.616835799413556,4.698108967113482,0.0,0.0,0.0,0.0,0.0,0.0,0.0,0.0,0.0,0.0,0.0,9.14176183038412,10.31799207551599,10.522305827210864,10.555553173493973,0.0,0.0,0.0,0.0,0.0,0.0,0.0,0.0,0.0,0.0,0.0,7
14.909699,-0.22947559,0.97331436,0.00030964087,7.3003157e-05,-0.22947559,0.97331436,15.799,7.899,7.389066614717544,5.406614561705814,4.616835799413556,4.698108967113482,0.0,0.0,0.0,0.0,0.0,0.0,0.0,0.0,0.0,0.0,0.0,9.14176183038412,10.31799207551599,10.522305827210864,10.555553173493973,0.0,0.0,0.0,0.0,0.0,0.0,0.0,0.0,0.0,0.0,0.0,7
14.92140468,-0.2190396,0.97571591,0.00034124729,7.6607003e-05,-0.2190396,0.97571591,15.799,7.899,7.389066614717544,5.406614561705814,4.616835799413556,4.698108967113482,0.0,0.0,0.0,0.0,0.0,0.0,0.0,0.0,0.0,0.0,0.0,9.14176183038412,10.31799207551599,10.522305827210864,10.555553173493973,0.0,0.0,0.0,0.0,0.0,0.0,0.0,0.0,0.0,0.0,0.0,7
14.93311037,-0.20830538,0.97806376,0.00037651326,8.018878e-05,-0.20830538,0.97806376,15.799,7.899,7.389066614717544,5.406614561705814,4.616835799413556,4.698108967113482,0.0,0.0,0.0,0.0,0.0,0.0,0.0,0.0,0.0,0.0,0.0,9.14176183038412,10.31799207551599,10.522305827210864,10.555553173493973,0.0,0.0,0.0,0.0,0.0,0.0,0.0,0.0,0.0,0.0,0.0,7
14.94481605,-0.1972589,0.98035134,0.00041591602,8.3687481e-05,-0.1972589,0.98035134,15.799,7.899,7.389066614717544,5.406614561705814,4.616835799413556,4.698108967113482,0.0,0.0,0.0,0.0,0.0,0.0,0.0,0.0,0.0,0.0,0.0,9.14176183038412,10.31799207551599,10.522305827210864,10.555553173493973,0.0,0.0,0.0,0.0,0.0,0.0,0.0,0.0,0.0,0.0,0.0,7
14.95652174,-0.18588518,0.98257136,0.00046000241,8.7024348e-05,-0.18588518,0.98257136,15.799,7.899,7.389066614717544,5.406614561705814,4.616835799413556,4.698108967113482,0.0,0.0,0.0,0.0,0.0,0.0,0.0,0.0,0.0,0.0,0.0,9.14176183038412,10.31799207551599,10.522305827210864,10.555553173493973,0.0,0.0,0.0,0.0,0.0,0.0,0.0,0.0,0.0,0.0,0.0,7
14.96822742,-0.1741683,0.98471576,0.00050940019,9.0098452e-05,-0.1741683,0.98471576,15.799,7.899,7.389066614717544,5.406614561705814,4.616835799413556,4.698108967113482,0.0,0.0,0.0,0.0,0.0,0.0,0.0,0.0,0.0,0.0,0.0,9.14176183038412,10.31799207551599,10.522305827210864,10.555553173493973,0.0,0.0,0.0,0.0,0.0,0.0,0.0,0.0,0.0,0.0,0.0,7
14.97993311,-0.16209123,0.98677561,0.0005648313,9.2781172e-05,-0.16209123,0.98677561,15.799,7.899,7.389066614717544,5.406614561705814,4.616835799413556,4.698108967113482,0.0,0.0,0.0,0.0,0.0,0.0,0.0,0.0,0.0,0.0,0.0,9.14176183038412,10.31799207551599,10.522305827210864,10.555553173493973,0.0,0.0,0.0,0.0,0.0,0.0,0.0,0.0,0.0,0.0,0.0,7
14.9916388,-0.14963577,0.98874098,0.00062712756,9.4909301e-05,-0.14963577,0.98874098,15.799,7.899,7.389066614717544,5.406614561705814,4.616835799413556,4.698108967113482,0.0,0.0,0.0,0.0,0.0,0.0,0.0,0.0,0.0,0.0,0.0,9.14176183038412,10.31799207551599,10.522305827210864,10.555553173493973,0.0,0.0,0.0,0.0,0.0,0.0,0.0,0.0,0.0,0.0,0.0,7
15.55351171,0.07738387,0.01448662,-0.18343694,0.97987385,0.07738387,0.01448662,15.799,7.899,7.389066614717544,5.406614561705814,4.616835799413556,4.698108967113482,0.0,0.0,0.0,0.0,0.0,0.0,0.0,0.0,0.0,0.0,0.0,9.14176183038412,10.31799207551599,10.522305827210864,10.555553173493973,0.0,0.0,0.0,0.0,0.0,0.0,0.0,0.0,0.0,0.0,0.0,7
15.56521739,0.054564257,-0.0016959155,0.031019743,0.99802687,0.054564257,-0.0016959155,15.799,7.899,7.389066614717544,5.406614561705814,4.616835799413556,4.698108967113482,0.0,0.0,0.0,0.0,0.0,0.0,0.0,0.0,0.0,0.0,0.0,9.14176183038412,10.31799207551599,10.522305827210864,10.555553173493973,0.0,0.0,0.0,0.0,0.0,0.0,0.0,0.0,0.0,0.0,0.0,7
15.57692308,0.021302149,-0.0051839933,0.23639765,0.97140903,0.021302149,-0.0051839933,15.799,7.899,7.389066614717544,5.406614561705814,4.616835799413556,4.698108967113482,0.0,0.0,0.0,0.0,0.0,0.0,0.0,0.0,0.0,0.0,0.0,9.14176183038412,10.31799207551599,10.522305827210864,10.555553173493973,0.0,0.0,0.0,0.0,0.0,0.0,0.0,0.0,0.0,0.0,0.0,7
15.58862876,-0.011830124,0.0055511474,0.42475999,0.90521168,-0.011830124,0.0055511474,15.799,7.899,7.389066614717544,5.406614561705814,4.616835799413556,4.698108967113482,0.0,0.0,0.0,0.0,0.0,0.0,0.0,0.0,0.0,0.0,0.0,9.14176183038412,10.31799207551599,10.522305827210864,10.555553173493973,0.0,0.0,0.0,0.0,0.0,0.0,0.0,0.0,0.0,0.0,0.0,7
15.60033445,-0.036725734,0.026860509,0.58972712,0.80631982,-0.036725734,0.026860509,15.799,7.899,7.389066614717544,5.406614561705814,4.616835799413556,4.698108967113482,0.0,0.0,0.0,0.0,0.0,0.0,0.0,0.0,0.0,0.0,0.0,9.14176183038412,10.31799207551599,10.522305827210864,10.555553173493973,0.0,0.0,0.0,0.0,0.0,0.0,0.0,0.0,0.0,0.0,0.0,7
15.61204013,-0.049104761,0.052343926,0.72743157,0.6824164,-0.049104761,0.052343926,15.799,7.899,7.389066614717544,5.406614561705814,4.616835799413556,4.698108967113482,0.0,0.0,0.0,0.0,0.0,0.0,0.0,0.0,0.0,0.0,0.0,9.14176183038412,10.31799207551599,10.522305827210864,10.555553173493973,0.0,0.0,0.0,0.0,0.0,0.0,0.0,0.0,0.0,0.0,0.0,7
15.62374582,-0.048558763,0.075115765,0.83643628,0.5407162,-0.048558763,0.075115765,15.799,7.899,7.389066614717544,5.406614561705814,4.616835799413556,4.698108967113482,0.0,0.0,0.0,0.0,0.0,0.0,0.0,0.0,0.0,0.0,0.0,9.14176183038412,10.31799207551599,10.522305827210864,10.555553173493973,0.0,0.0,0.0,0.0,0.0,0.0,0.0,0.0,0.0,0.0,0.0,7
15.63545151,-0.037745104,0.089393547,0.91689784,0.38714656,-0.037745104,0.089393547,15.799,7.899,7.389066614717544,5.406614561705814,4.616835799413556,4.698108967113482,0.0,0.0,0.0,0.0,0.0,0.0,0.0,0.0,0.0,0.0,0.0,9.14176183038412,10.31799207551599,10.522305827210864,10.555553173493973,0.0,0.0,0.0,0.0,0.0,0.0,0.0,0.0,0.0,0.0,0.0,7
15.64715719,-0.021310358,0.091327783,0.96954806,0.22623363,-0.021310358,0.091327783,15.799,7.899,7.389066614717544,5.406614561705814,4.616835799413556,4.698108967113482,0.0,0.0,0.0,0.0,0.0,0.0,0.0,0.0,0.0,0.0,0.0,9.14176183038412,10.31799207551599,10.522305827210864,10.555553173493973,0.0,0.0,0.0,0.0,0.0,0.0,0.0,0.0,0.0,0.0,0.0,7
15.65886288,-0.0049053926,0.079300722,0.99493696,0.061544917,-0.0049053926,0.079300722,15.799,7.899,7.389066614717544,5.406614561705814,4.616835799413556,4.698108967113482,0.0,0.0,0.0,0.0,0.0,0.0,0.0,0.0,0.0,0.0,0.0,9.14176183038412,10.31799207551599,10.522305827210864,10.555553173493973,0.0,0.0,0.0,0.0,0.0,0.0,0.0,0.0,0.0,0.0,0.0,7
15.67056856,0.0056294306,0.053962496,0.99313761,-0.10360527,0.0056294306,0.053962496,15.799,7.899,7.389066614717544,5.406614561705814,4.616835799413556,4.698108967113482,0.0,0.0,0.0,0.0,0.0,0.0,0.0,0.0,0.0,0.0,0.0,9.14176183038412,10.31799207551599,10.522305827210864,10.555553173493973,0.0,0.0,0.0,0.0,0.0,0.0,0.0,0.0,0.0,0.0,0.0,7
15.68227425,0.0049962134,0.01814135,0.96393487,-0.26547221,0.0049962134,0.01814135,15.799,7.899,7.389066614717544,5.406614561705814,4.616835799413556,4.698108967113482,0.0,0.0,0.0,0.0,0.0,0.0,0.0,0.0,0.0,0.0,0.0,9.14176183038412,10.31799207551599,10.522305827210864,10.555553173493973,0.0,0.0,0.0,0.0,0.0,0.0,0.0,0.0,0.0,0.0,0.0,7
15.69397993,-0.010816973,-0.023400032,0.90740727,-0.41946094,-0.010816973,-0.023400032,15.799,7.899,7.389066614717544,5.406614561705814,4.616835799413556,4.698108967113482,0.0,0.0,0.0,0.0,0.0,0.0,0.0,0.0,0.0,0.0,0.0,9.14176183038412,10.31799207551599,10.522305827210864,10.555553173493973,0.0,0.0,0.0,0.0,0.0,0.0,0.0,0.0,0.0,0.0,0.0,7
15.70568562,-0.04380041,-0.064486386,0.82470926,-0.5601586,-0.04380041,-0.064486386,15.799,7.899,7.389066614717544,5.406614561705814,4.616835799413556,4.698108967113482,0.0,0.0,0.0,0.0,0.0,0.0,0.0,0.0,0.0,0.0,0.0,9.14176183038412,10.31799207551599,10.522305827210864,10.555553173493973,0.0,0.0,0.0,0.0,0.0,0.0,0.0,0.0,0.0,0.0,0.0,7
15.7173913,-0.093372011,-0.098419415,0.71875765,-0.68189642,-0.093372011,-0.098419415,15.799,7.899,7.389066614717544,5.406614561705814,4.616835799413556,4.698108967113482,0.0,0.0,0.0,0.0,0.0,0.0,0.0,0.0,0.0,0.0,0.0,9.14176183038412,10.31799207551599,10.522305827210864,10.555553173493973,0.0,0.0,0.0,0.0,0.0,0.0,0.0,0.0,0.0,0.0,0.0,7
15.72909699,-0.15627691,-0.11915156,0.59448881,-0.77972014,-0.15627691,-0.11915156,15.799,7.899,7.389066614717544,5.406614561705814,4.616835799413556,4.698108967113482,0.0,0.0,0.0,0.0,0.0,0.0,0.0,0.0,0.0,0.0,0.0,9.14176183038412,10.31799207551599,10.522305827210864,10.555553173493973,0.0,0.0,0.0,0.0,0.0,0.0,0.0,0.0,0.0,0.0,0.0,7
15.74080268,-0.22711509,-0.12244079,0.45847662,-0.85042705,-0.22711509,-0.12244079,15.799,7.899,7.389066614717544,5.406614561705814,4.616835799413556,4.698108967113482,0.0,0.0,0.0,0.0,0.0,0.0,0.0,0.0,0.0,0.0,0.0,9.14176183038412,10.31799207551599,10.522305827210864,10.555553173493973,0.0,0.0,0.0,0.0,0.0,0.0,0.0,0.0,0.0,0.0,0.0,7
15.75250836,-0.2994147,-0.10658761,0.31798144,-0.89324001,-0.2994147,-0.10658761,15.799,7.899,7.389066614717544,5.406614561705814,4.616835799413556,4.698108967113482,0.0,0.0,0.0,0.0,0.0,0.0,0.0,0.0,0.0,0.0,0.0,9.14176183038412,10.31799207551599,10.522305827210864,10.555553173493973,0.0,0.0,0.0,0.0,0.0,0.0,0.0,0.0,0.0,0.0,0.0,7
15.76421405,-0.36689827,-0.07249786,0.17978127,-0.90983978,-0.36689827,-0.07249786,15.799,7.899,7.389066614717544,5.406614561705814,4.616835799413556,4.698108967113482,0.0,0.0,0.0,0.0,0.0,0.0,0.0,0.0,0.0,0.0,0.0,9.14176183038412,10.31799207551599,10.522305827210864,10.555553173493973,0.0,0.0,0.0,0.0,0.0,0.0,0.0,0.0,0.0,0.0,0.0,7
15.77591973,-0.42451106,-0.023118245,0.049218979,-0.90378836,-0.42451106,-0.023118245,15.799,7.899,7.389066614717544,5.406614561705814,4.616835799413556,4.698108967113482,0.0,0.0,0.0,0.0,0.0,0.0,0.0,0.0,0.0,0.0,0.0,9.14176183038412,10.31799207551599,10.522305827210864,10.555553173493973,0.0,0.0,0.0,0.0,0.0,0.0,0.0,0.0,0.0,0.0,0.0,7
15.78762542,-0.46894252,0.037457071,-0.07026118,-0.87963245,-0.46894252,0.037457071,15.799,7.899,7.389066614717544,5.406614561705814,4.616835799413556,4.698108967113482,0.0,0.0,0.0,0.0,0.0,0.0,0.0,0.0,0.0,0.0,0.0,9.14176183038412,10.31799207551599,10.522305827210864,10.555553173493973,0.0,0.0,0.0,0.0,0.0,0.0,0.0,0.0,0.0,0.0,0.0,7
15.7993311,-0.49863249,0.10485999,-0.17707482,-0.84203,-0.49863249,0.10485999,15.799,7.899,7.389066614717544,5.406614561705814,4.616835799413556,4.698108967113482,0.0,0.0,0.0,0.0,0.0,0.0,0.0,0.0,0.0,0.0,0.0,9.14176183038412,10.31799207551599,10.522305827210864,10.555553173493973,0.0,0.0,0.0,0.0,0.0,0.0,0.0,0.0,0.0,0.0,0.0,7
15.81103679,-0.51343724,0.17507604,-0.27112753,-0.79512291,-0.51343724,0.17507604,15.799,7.899,7.389066614717544,5.406614561705814,4.616835799413556,4.698108967113482,0.0,0.0,0.0,0.0,0.0,0.0,0.0,0.0,0.0,0.0,0.0,9.14176183038412,10.31799207551599,10.522305827210864,10.555553173493973,0.0,0.0,0.0,0.0,0.0,0.0,0.0,0.0,0.0,0.0,0.0,7
15.82274247,-0.5141706,0.24476776,-0.35332542,-0.74221189,-0.5141706,0.24476776,15.799,7.899,7.389066614717544,5.406614561705814,4.616835799413556,4.698108967113482,0.0,0.0,0.0,0.0,0.0,0.0,0.0,0.0,0.0,0.0,0.0,9.14176183038412,10.31799207551599,10.522305827210864,10.555553173493973,0.0,0.0,0.0,0.0,0.0,0.0,0.0,0.0,0.0,0.0,0.0,7
15.83444816,-0.50217717,0.31135014,-0.42511985,-0.68567653,-0.50217717,0.31135014,15.799,7.899,7.389066614717544,5.406614561705814,4.616835799413556,4.698108967113482,0.0,0.0,0.0,0.0,0.0,0.0,0.0,0.0,0.0,0.0,0.0,9.14176183038412,10.31799207551599,10.522305827210864,10.555553173493973,0.0,0.0,0.0,0.0,0.0,0.0,0.0,0.0,0.0,0.0,0.0,7
15.84615385,-0.47901199,0.37291299,-0.4881575,-0.62704519,-0.47901199,0.37291299,15.799,7.899,7.389066614717544,5.406614561705814,4.616835799413556,4.698108967113482,0.0,0.0,0.0,0.0,0.0,0.0,0.0,0.0,0.0,0.0,0.0,9.14176183038412,10.31799207551599,10.522305827210864,10.555553173493973,0.0,0.0,0.0,0.0,0.0,0.0,0.0,0.0,0.0,0.0,0.0,7
15.85785953,-0.44623924,0.42807477,-0.54404529,-0.56713072,-0.44623924,0.42807477,15.799,7.899,7.389066614717544,5.406614561705814,4.616835799413556,4.698108967113482,0.0,0.0,0.0,0.0,0.0,0.0,0.0,0.0,0.0,0.0,0.0,9.14176183038412,10.31799207551599,10.522305827210864,10.555553173493973,0.0,0.0,0.0,0.0,0.0,0.0,0.0,0.0,0.0,0.0,0.0,7
15.86956522,-0.40533139,0.4758235,-0.59420783,-0.50617737,-0.40533139,0.4758235,15.799,7.899,7.389066614717544,5.406614561705814,4.616835799413556,4.698108967113482,0.0,0.0,0.0,0.0,0.0,0.0,0.0,0.0,0.0,0.0,0.0,9.14176183038412,10.31799207551599,10.522305827210864,10.555553173493973,0.0,0.0,0.0,0.0,0.0,0.0,0.0,0.0,0.0,0.0,0.0,7
15.8812709,-0.35764206,0.51537467,-0.63980689,-0.44399127,-0.35764206,0.51537467,15.799,7.899,7.389066614717544,5.406614561705814,4.616835799413556,4.698108967113482,0.0,0.0,0.0,0.0,0.0,0.0,0.0,0.0,0.0,0.0,0.0,9.14176183038412,10.31799207551599,10.522305827210864,10.555553173493973,0.0,0.0,0.0,0.0,0.0,0.0,0.0,0.0,0.0,0.0,0.0,7
15.89297659,-0.30442893,0.54605863,-0.68169476,-0.38004638,-0.30442893,0.54605863,15.799,7.899,7.389066614717544,5.406614561705814,4.616835799413556,4.698108967113482,0.0,0.0,0.0,0.0,0.0,0.0,0.0,0.0,0.0,0.0,0.0,9.14176183038412,10.31799207551599,10.522305827210864,10.555553173493973,0.0,0.0,0.0,0.0,0.0,0.0,0.0,0.0,0.0,0.0,0.0,7
15.90468227,-0.24690987,0.56724093,-0.72038037,-0.31356874,-0.24690987,0.56724093,15.799,7.899,7.389066614717544,5.406614561705814,4.616835799413556,4.698108967113482,0.0,0.0,0.0,0.0,0.0,0.0,0.0,0.0,0.0,0.0,0.0,9.14176183038412,10.31799207551599,10.522305827210864,10.555553173493973,0.0,0.0,0.0,0.0,0.0,0.0,0.0,0.0,0.0,0.0,0.0,7
15.91638796,-0.18634174,0.57827737,-0.75599403,-0.24360843,-0.18634174,0.57827737,15.799,7.899,7.389066614717544,5.406614561705814,4.616835799413556,4.698108967113482,0.0,0.0,0.0,0.0,0.0,0.0,0.0,0.0,0.0,0.0,0.0,9.14176183038412,10.31799207551599,10.522305827210864,10.555553173493973,0.0,0.0,0.0,0.0,0.0,0.0,0.0,0.0,0.0,0.0,0.0,7
15.92809365,-0.12411473,0.57850623,-0.78824303,-0.16911239,-0.12411473,0.57850623,15.799,7.899,7.389066614717544,5.406614561705814,4.616835799413556,4.698108967113482,0.0,0.0,0.0,0.0,0.0,0.0,0.0,0.0,0.0,0.0,0.0,9.14176183038412,10.31799207551599,10.522305827210864,10.555553173493973,0.0,0.0,0.0,0.0,0.0,0.0,0.0,0.0,0.0,0.0,0.0,7
15.93979933,-0.061855426,0.56728407,-0.81635729,-0.089013831,-0.061855426,0.56728407,15.799,7.899,7.389066614717544,5.406614561705814,4.616835799413556,4.698108967113482,0.0,0.0,0.0,0.0,0.0,0.0,0.0,0.0,0.0,0.0,0.0,9.14176183038412,10.31799207551599,10.522305827210864,10.555553173493973,0.0,0.0,0.0,0.0,0.0,0.0,0.0,0.0,0.0,0.0,0.0,7
15.95150502,-0.0015276516,0.54407474,-0.83903206,-0.0023558319,-0.0015276516,0.54407474,15.799,7.899,7.389066614717544,5.406614561705814,4.616835799413556,4.698108967113482,0.0,0.0,0.0,0.0,0.0,0.0,0.0,0.0,0.0,0.0,0.0,9.14176183038412,10.31799207551599,10.522305827210864,10.555553173493973,0.0,0.0,0.0,0.0,0.0,0.0,0.0,0.0,0.0,0.0,0.0,7
15.9632107,0.054488722,0.50860235,-0.85438642,0.091534032,0.054488722,0.50860235,15.799,7.899,7.389066614717544,5.406614561705814,4.616835799413556,4.698108967113482,0.0,0.0,0.0,0.0,0.0,0.0,0.0,0.0,0.0,0.0,0.0,9.14176183038412,10.31799207551599,10.522305827210864,10.555553173493973,0.0,0.0,0.0,0.0,0.0,0.0,0.0,0.0,0.0,0.0,0.0,7
15.97491639,0.10337417,0.46107398,-0.85997072,0.19280802,0.10337417,0.46107398,15.799,7.899,7.389066614717544,5.406614561705814,4.616835799413556,4.698108967113482,0.0,0.0,0.0,0.0,0.0,0.0,0.0,0.0,0.0,0.0,0.0,9.14176183038412,10.31799207551599,10.522305827210864,10.555553173493973,0.0,0.0,0.0,0.0,0.0,0.0,0.0,0.0,0.0,0.0,0.0,7
15.98662207,0.14194884,0.40246102,-0.85287123,0.30080945,0.14194884,0.40246102,15.799,7.899,7.389066614717544,5.406614561705814,4.616835799413556,4.698108967113482,0.0,0.0,0.0,0.0,0.0,0.0,0.0,0.0,0.0,0.0,0.0,9.14176183038412,10.31799207551599,10.522305827210864,10.555553173493973,0.0,0.0,0.0,0.0,0.0,0.0,0.0,0.0,0.0,0.0,0.0,7
15.99832776,0.16690916,0.3347955,-0.82996729,0.4137724,0.16690916,0.3347955,15.799,7.899,7.389066614717544,5.406614561705814,4.616835799413556,4.698108967113482,0.0,0.0,0.0,0.0,0.0,0.0,0.0,0.0,0.0,0.0,0.0,9.14176183038412,10.31799207551599,10.522305827210864,10.555553173493973,0.0,0.0,0.0,0.0,0.0,0.0,0.0,0.0,0.0,0.0,0.0,7
16.01003344,0.17525941,0.26139087,-0.78837946,0.52859888,0.17525941,0.26139087,15.799,7.899,7.389066614717544,5.406614561705814,4.616835799413556,4.698108967113482,0.0,0.0,0.0,0.0,0.0,0.0,0.0,0.0,0.0,0.0,0.0,9.14176183038412,10.31799207551599,10.522305827210864,10.555553173493973,0.0,0.0,0.0,0.0,0.0,0.0,0.0,0.0,0.0,0.0,0.0,7
16.02173913,0.1649181,0.18685548,-0.72608928,0.64084429,0.1649181,0.18685548,15.799,7.899,7.389066614717544,5.406614561705814,4.616835799413556,4.698108967113482,0.0,0.0,0.0,0.0,0.0,0.0,0.0,0.0,0.0,0.0,0.0,9.14176183038412,10.31799207551599,10.522305827210864,10.555553173493973,0.0,0.0,0.0,0.0,0.0,0.0,0.0,0.0,0.0,0.0,0.0,7
16.03344482,0.13538005,0.11676788,-0.64261245,0.74504143,0.13538005,0.11676788,15.799,7.899,7.389066614717544,5.406614561705814,4.616835799413556,4.698108967113482,0.0,0.0,0.0,0.0,0.0,0.0,0.0,0.0,0.0,0.0,0.0,9.14176183038412,10.31799207551599,10.522305827210864,10.555553173493973,0.0,0.0,0.0,0.0,0.0,0.0,0.0,0.0,0.0,0.0,0.0,7
16.0451505,0.088213348,0.056967993,-0.53950504,0.8354085,0.088213348,0.056967993,15.799,7.899,7.389066614717544,5.406614561705814,4.616835799413556,4.698108967113482,0.0,0.0,0.0,0.0,0.0,0.0,0.0,0.0,0.0,0.0,0.0,9.14176183038412,10.31799207551599,10.522305827210864,10.555553173493973,0.0,0.0,0.0,0.0,0.0,0.0,0.0,0.0,0.0,0.0,0.0,7
16.05685619,0.02714402,0.012585607,-0.42045624,0.90681936,0.02714402,0.012585607,15.799,7.899,7.389066614717544,5.406614561705814,4.616835799413556,4.698108967113482,0.0,0.0,0.0,0.0,0.0,0.0,0.0,0.0,0.0,0.0,0.0,9.14176183038412,10.31799207551599,10.522305827210864,10.555553173493973,0.0,0.0,0.0,0.0,0.0,0.0,0.0,0.0,0.0,0.0,0.0,7
16.06856187,-0.042402705,-0.012903308,-0.29083705,0.95574543,-0.042402705,-0.012903308,15.799,7.899,7.389066614717544,5.406614561705814,4.616835799413556,4.698108967113482,0.0,0.0,0.0,0.0,0.0,0.0,0.0,0.0,0.0,0.0,0.0,9.14176183038412,10.31799207551599,10.522305827210864,10.555553173493973,0.0,0.0,0.0,0.0,0.0,0.0,0.0,0.0,0.0,0.0,0.0,7
16.08026756,-0.11420684,-0.01825791,-0.15680311,0.98083446,-0.11420684,-0.01825791,15.799,7.899,7.389066614717544,5.406614561705814,4.616835799413556,4.698108967113482,0.0,0.0,0.0,0.0,0.0,0.0,0.0,0.0,0.0,0.0,0.0,9.14176183038412,10.31799207551599,10.522305827210864,10.555553173493973,0.0,0.0,0.0,0.0,0.0,0.0,0.0,0.0,0.0,0.0,0.0,7
