freq,s11_real,s11_imag,s21_real,s21_imag,s22_real,s22_imag,a,b,a2_1,a2_2,a2_3,a2_4,a2_5,a2_6,a2_7,a2_8,a2_9,a2_10,a2_11,a2_12,a2_13,a2_14,a2_15,l_1,l_2,l_3,l_4,l_5,l_6,l_7,l_8,l_9,l_10,l_11,l_12,l_13,l_14,l_15,order
14.85117057,0.19760721,0.98028111,0.00056167693,-0.00011322407,0.19760721,0.98028111,15.799,7.899,7.978773170779694,5.433345198912023,4.854931535582921,4.736460061541915,0.0,0.0,0.0,0.0,0.0,0.0,0.0,0.0,0.0,0.0,0.0,8.988769162579517,10.26958492967224,10.497192676558235,10.531821723314833,0.0,0.0,0.0,0.0,0.0,0.0,0.0,0.0,0.0,0.0,0.0,7
14.86287625,0.21240573,0.97718136,0.00061347047,-0.00013334745,0.21240573,0.97718136,15.799,7.899,7.978773170779694,5.433345198912023,4.854931535582921,4.736460061541915,0.0,0.0,0.0,0.0,0.0,0.0,0.0,0.0,0.0,0.0,0.0,8.988769162579517,10.26958492967224,10.497192676558235,10.531821723314833,0.0,0.0,0.0,0.0,0.0,0.0,0.0,0.0,0.0,0.0,0.0,7
14.87458194,0.22751776,0.97377369,0.0006705469,-0.00015667021,0.22751776,0.97377369,15.799,7.899,7.978773170779694,5.433345198912023,4.854931535582921,4.736460061541915,0.0,0.0,0.0,0.0,0.0,0.0,0.0,0.0,0.0,0.0,0.0,8.988769162579517,10.26958492967224,10.497192676558235,10.531821723314833,0.0,0.0,0.0,0.0,0.0,0.0,0.0,0.0,0.0,0.0,0.0,7
14.88628763,0.24295178,0.97003807,0.00073349372,-0.00018370785,0.24295178,0.97003807,15.799,7.899,7.978773170779694,5.433345198912023,4.854931535582921,4.736460061541915,0.0,0.0,0.0,0.0,0.0,0.0,0.0,0.0,0.0,0.0,0.0,8.988769162579517,10.26958492967224,10.497192676558235,10.531821723314833,0.0,0.0,0.0,0.0,0.0,0.0,0.0,0.0,0.0,0.0,0.0,7
14.89799331,0.25871641,0.96595296,0.0008029683,-0.00021506335,0.25871641,0.96595296,15.799,7.899,7.978773170779694,5.433345198912023,4.854931535582921,4.736460061541915,0.0,0.0,0.0,0.0,0.0,0.0,0.0,0.0,0.0,0.0,0.0,8.988769162579517,10.26958492967224,10.497192676558235,10.531821723314833,0.0,0.0,0.0,0.0,0.0,0.0,0.0,0.0,0.0,0.0,0.0,7
14.909699,0.27482037,0.96149515,0.00087970644,-0.00025144302,0.27482037,0.96149515,15.799,7.899,7.978773170779694,5.433345198912023,4.854931535582921,4.736460061541915,0.0,0.0,0.0,0.0,0.0,0.0,0.0,0.0,0.0,0.0,0.0,8.988769162579517,10.26958492967224,10.497192676558235,10.531821723314833,0.0,0.0,0.0,0.0,0.0,0.0,0.0,0.0,0.0,0.0,0.0,7
14.92140468,0.29127245,0.95663961,0.00096453201,-0.00029367549,0.29127245,0.95663961,15.799,7.899,7.978773170779694,5.433345198912023,4.854931535582921,4.736460061541915,0.0,0.0,0.0,0.0,0.0,0.0,0.0,0.0,0.0,0.0,0.0,8.988769162579517,10.26958492967224,10.497192676558235,10.531821723314833,0.0,0.0,0.0,0.0,0.0,0.0,0.0,0.0,0.0,0.0,0.0,7
14.93311037,0.3080815,0.95135932,0.0010583677,-0.00034273435,0.3080815,0.95135932,15.799,7.899,7.978773170779694,5.433345198912023,4.854931535582921,4.736460061541915,0.0,0.0,0.0,0.0,0.0,0.0,0.0,0.0,0.0,0.0,0.0,8.988769162579517,10.26958492967224,10.497192676558235,10.531821723314833,0.0,0.0,0.0,0.0,0.0,0.0,0.0,0.0,0.0,0.0,0.0,7
14.94481605,0.32525636,0.94562508,0.001162247,-0.00039976544,0.32525636,0.94562508,15.799,7.899,7.978773170779694,5.433345198912023,4.854931535582921,4.736460061541915,0.0,0.0,0.0,0.0,0.0,0.0,0.0,0.0,0.0,0.0,0.0,8.988769162579517,10.26958492967224,10.497192676558235,10.531821723314833,0.0,0.0,0.0,0.0,0.0,0.0,0.0,0.0,0.0,0.0,0.0,7
14.95652174,0.34280579,0.93940531,0.0012773273,-0.00046611958,0.34280579,0.93940531,15.799,7.899,7.978773170779694,5.433345198912023,4.854931535582921,4.736460061541915,0.0,0.0,0.0,0.0,0.0,0.0,0.0,0.0,0.0,0.0,0.0,8.988769162579517,10.26958492967224,10.497192676558235,10.531821723314833,0.0,0.0,0.0,0.0,0.0,0.0,0.0,0.0,0.0,0.0,0.0,7
14.96822742,0.36073844,0.93266581,0.0014049048,-0.00054339201,0.36073844,0.93266581,15.799,7.899,7.978773170779694,5.433345198912023,4.854931535582921,4.736460061541915,0.0,0.0,0.0,0.0,0.0,0.0,0.0,0.0,0.0,0.0,0.0,8.988769162579517,10.26958492967224,10.497192676558235,10.531821723314833,0.0,0.0,0.0,0.0,0.0,0.0,0.0,0.0,0.0,0.0,0.0,7
14.97993311,0.37906273,0.92536947,0.0015464299,-0.00063347014,0.37906273,0.92536947,15.799,7.899,7.978773170779694,5.433345198912023,4.854931535582921,4.736460061541915,0.0,0.0,0.0,0.0,0.0,0.0,0.0,0.0,0.0,0.0,0.0,8.988769162579517,10.26958492967224,10.497192676558235,10.531821723314833,0.0,0.0,0.0,0.0,0.0,0.0,0.0,0.0,0.0,0.0,0.0,7
14.9916388,0.39778678,0.91747601,0.0017035249,-0.00073859117,0.39778678,0.91747601,15.799,7.899,7.978773170779694,5.433345198912023,4.854931535582921,4.736460061541915,0.0,0.0,0.0,0.0,0.0,0.0,0.0,0.0,0.0,0.0,0.0,8.988769162579517,10.26958492967224,10.497192676558235,10.531821723314833,0.0,0.0,0.0,0.0,0.0,0.0,0.0,0.0,0.0,0.0,0.0,7
15.55351171,0.035385065,-0.052867381,0.82934882,0.55509771,0.035385065,-0.052867381,15.799,7.899,7.978773170779694,5.433345198912023,4.854931535582921,4.736460061541915,0.0,0.0,0.0,0.0,0.0,0.0,0.0,0.0,0.0,0.0,0.0,8.988769162579517,10.26958492967224,10.497192676558235,10.531821723314833,0.0,0.0,0.0,0.0,0.0,0.0,0.0,0.0,0.0,0.0,0.0,7
15.56521739,0.018910072,-0.042387556,0.91225744,0.40697921,0.018910072,-0.042387556,15.799,7.899,7.978773170779694,5.433345198912023,4.854931535582921,4.736460061541915,0.0,0.0,0.0,0.0,0.0,0.0,0.0,0.0,0.0,0.0,0.0,8.988769162579517,10.26958492967224,10.497192676558235,10.531821723314833,0.0,0.0,0.0,0.0,0.0,0.0,0.0,0.0,0.0,0.0,0.0,7
15.57692308,0.0068701256,-0.026449066,0.96752013,0.25131265,0.0068701256,-0.026449066,15.799,7.899,7.978773170779694,5.433345198912023,4.854931535582921,4.736460061541915,0.0,0.0,0.0,0.0,0.0,0.0,0.0,0.0,0.0,0.0,0.0,8.988769162579517,10.26958492967224,10.497192676558235,10.531821723314833,0.0,0.0,0.0,0.0,0.0,0.0,0.0,0.0,0.0,0.0,0.0,7
15.58862876,0.000752265,-0.0080661655,0.99564661,0.092855781,0.000752265,-0.0080661655,15.799,7.899,7.978773170779694,5.433345198912023,4.854931535582921,4.736460061541915,0.0,0.0,0.0,0.0,0.0,0.0,0.0,0.0,0.0,0.0,0.0,8.988769162579517,10.26958492967224,10.497192676558235,10.531821723314833,0.0,0.0,0.0,0.0,0.0,0.0,0.0,0.0,0.0,0.0,0.0,7
15.60033445,0.00063612701,0.0099148041,0.99789887,-0.064024504,0.00063612701,0.0099148041,15.799,7.899,7.978773170779694,5.433345198912023,4.854931535582921,4.736460061541915,0.0,0.0,0.0,0.0,0.0,0.0,0.0,0.0,0.0,0.0,0.0,8.988769162579517,10.26958492967224,10.497192676558235,10.531821723314833,0.0,0.0,0.0,0.0,0.0,0.0,0.0,0.0,0.0,0.0,0.0,7
15.61204013,0.0055687932,0.025220858,0.97615427,-0.21553594,0.0055687932,0.025220858,15.799,7.899,7.978773170779694,5.433345198912023,4.854931535582921,4.736460061541915,0.0,0.0,0.0,0.0,0.0,0.0,0.0,0.0,0.0,0.0,0.0,8.988769162579517,10.26958492967224,10.497192676558235,10.531821723314833,0.0,0.0,0.0,0.0,0.0,0.0,0.0,0.0,0.0,0.0,0.0,7
15.62374582,0.013975144,0.036354021,0.93269907,-0.35854642,0.013975144,0.036354021,15.799,7.899,7.978773170779694,5.433345198912023,4.854931535582921,4.736460061541915,0.0,0.0,0.0,0.0,0.0,0.0,0.0,0.0,0.0,0.0,0.0,8.988769162579517,10.26958492967224,10.497192676558235,10.531821723314833,0.0,0.0,0.0,0.0,0.0,0.0,0.0,0.0,0.0,0.0,0.0,7
15.63545151,0.024034229,0.042624642,0.87002625,-0.49057092,0.024034229,0.042624642,15.799,7.899,7.978773170779694,5.433345198912023,4.854931535582921,4.736460061541915,0.0,0.0,0.0,0.0,0.0,0.0,0.0,0.0,0.0,0.0,0.0,8.988769162579517,10.26958492967224,10.497192676558235,10.531821723314833,0.0,0.0,0.0,0.0,0.0,0.0,0.0,0.0,0.0,0.0,0.0,7
15.64715719,0.03398022,0.044067418,0.79068246,-0.60969226,0.03398022,0.044067418,15.799,7.899,7.978773170779694,5.433345198912023,4.854931535582921,4.736460061541915,0.0,0.0,0.0,0.0,0.0,0.0,0.0,0.0,0.0,0.0,0.0,8.988769162579517,10.26958492967224,10.497192676558235,10.531821723314833,0.0,0.0,0.0,0.0,0.0,0.0,0.0,0.0,0.0,0.0,0.0,7
15.65886288,0.042313972,0.041290675,0.69717802,-0.71445602,0.042313972,0.041290675,15.799,7.899,7.978773170779694,5.433345198912023,4.854931535582921,4.736460061541915,0.0,0.0,0.0,0.0,0.0,0.0,0.0,0.0,0.0,0.0,0.0,8.988769162579517,10.26958492967224,10.497192676558235,10.531821723314833,0.0,0.0,0.0,0.0,0.0,0.0,0.0,0.0,0.0,0.0,0.0,7
15.67056856,0.04792992,0.035298832,0.59195204,-0.80377204,0.04792992,0.035298832,15.799,7.899,7.978773170779694,5.433345198912023,4.854931535582921,4.736460061541915,0.0,0.0,0.0,0.0,0.0,0.0,0.0,0.0,0.0,0.0,0.0,8.988769162579517,10.26958492967224,10.497192676558235,10.531821723314833,0.0,0.0,0.0,0.0,0.0,0.0,0.0,0.0,0.0,0.0,0.0,7
15.68227425,0.050171894,0.027314803,0.47737386,-0.87684142,0.050171894,0.027314803,15.799,7.899,7.978773170779694,5.433345198912023,4.854931535582921,4.736460061541915,0.0,0.0,0.0,0.0,0.0,0.0,0.0,0.0,0.0,0.0,0.0,8.988769162579517,10.26958492967224,10.497192676558235,10.531821723314833,0.0,0.0,0.0,0.0,0.0,0.0,0.0,0.0,0.0,0.0,0.0,7
15.69397993,0.048833223,0.018618201,0.35576026,-0.93311485,0.048833223,0.018618201,15.799,7.899,7.978773170779694,5.433345198912023,4.854931535582921,4.736460061541915,0.0,0.0,0.0,0.0,0.0,0.0,0.0,0.0,0.0,0.0,0.0,8.988769162579517,10.26958492967224,10.497192676558235,10.531821723314833,0.0,0.0,0.0,0.0,0.0,0.0,0.0,0.0,0.0,0.0,0.0,7
15.70568562,0.044114948,0.010408127,0.22939154,-0.97227828,0.044114948,0.010408127,15.799,7.899,7.978773170779694,5.433345198912023,4.854931535582921,4.736460061541915,0.0,0.0,0.0,0.0,0.0,0.0,0.0,0.0,0.0,0.0,0.0,8.988769162579517,10.26958492967224,10.497192676558235,10.531821723314833,0.0,0.0,0.0,0.0,0.0,0.0,0.0,0.0,0.0,0.0,0.0,7
15.7173913,0.036553872,0.0036954541,0.1005155,-0.9942569,0.036553872,0.0036954541,15.799,7.899,7.978773170779694,5.433345198912023,4.854931535582921,4.736460061541915,0.0,0.0,0.0,0.0,0.0,0.0,0.0,0.0,0.0,0.0,0.0,8.988769162579517,10.26958492967224,10.497192676558235,10.531821723314833,0.0,0.0,0.0,0.0,0.0,0.0,0.0,0.0,0.0,0.0,0.0,7
15.72909699,0.026930776,-0.00077256843,-0.02866499,-0.99922593,0.026930776,-0.00077256843,15.799,7.899,7.978773170779694,5.433345198912023,4.854931535582921,4.736460061541915,0.0,0.0,0.0,0.0,0.0,0.0,0.0,0.0,0.0,0.0,0.0,8.988769162579517,10.26958492967224,10.497192676558235,10.531821723314833,0.0,0.0,0.0,0.0,0.0,0.0,0.0,0.0,0.0,0.0,0.0,7
15.74080268,0.016168583,-0.0025542418,-0.1560196,-0.98761832,0.016168583,-0.0025542418,15.799,7.899,7.978773170779694,5.433345198912023,4.854931535582921,4.736460061541915,0.0,0.0,0.0,0.0,0.0,0.0,0.0,0.0,0.0,0.0,0.0,8.988769162579517,10.26958492967224,10.497192676558235,10.531821723314833,0.0,0.0,0.0,0.0,0.0,0.0,0.0,0.0,0.0,0.0,0.0,7
15.75250836,0.005229948,-0.0015226378,-0.27952822,-0.96012202,0.005229948,-0.0015226378,15.799,7.899,7.978773170779694,5.433345198912023,4.854931535582921,4.736460061541915,0.0,0.0,0.0,0.0,0.0,0.0,0.0,0.0,0.0,0.0,0.0,8.988769162579517,10.26958492967224,10.497192676558235,10.531821723314833,0.0,0.0,0.0,0.0,0.0,0.0,0.0,0.0,0.0,0.0,0.0,7
15.76421405,-0.0049768652,0.0021548377,-0.39732154,-0.91766343,-0.0049768652,0.0021548377,15.799,7.899,7.978773170779694,5.433345198912023,4.854931535582921,4.736460061541915,0.0,0.0,0.0,0.0,0.0,0.0,0.0,0.0,0.0,0.0,0.0,8.988769162579517,10.26958492967224,10.497192676558235,10.531821723314833,0.0,0.0,0.0,0.0,0.0,0.0,0.0,0.0,0.0,0.0,0.0,7
15.77591973,-0.013676384,0.008061205,-0.50771749,-0.86137734,-0.013676384,0.008061205,15.799,7.899,7.978773170779694,5.433345198912023,4.854931535582921,4.736460061541915,0.0,0.0,0.0,0.0,0.0,0.0,0.0,0.0,0.0,0.0,0.0,8.988769162579517,10.26958492967224,10.497192676558235,10.531821723314833,0.0,0.0,0.0,0.0,0.0,0.0,0.0,0.0,0.0,0.0,0.0,7
15.78762542,-0.020283417,0.015591907,-0.60924796,-0.79256697,-0.020283417,0.015591907,15.799,7.899,7.978773170779694,5.433345198912023,4.854931535582921,4.736460061541915,0.0,0.0,0.0,0.0,0.0,0.0,0.0,0.0,0.0,0.0,0.0,8.988769162579517,10.26958492967224,10.497192676558235,10.531821723314833,0.0,0.0,0.0,0.0,0.0,0.0,0.0,0.0,0.0,0.0,0.0,7
15.7993311,-0.024437144,0.024026137,-0.70067293,-0.71265912,-0.024437144,0.024026137,15.799,7.899,7.978773170779694,5.433345198912023,4.854931535582921,4.736460061541915,0.0,0.0,0.0,0.0,0.0,0.0,0.0,0.0,0.0,0.0,0.0,8.988769162579517,10.26958492967224,10.497192676558235,10.531821723314833,0.0,0.0,0.0,0.0,0.0,0.0,0.0,0.0,0.0,0.0,0.0,7
15.81103679,-0.026012017,0.032599821,-0.78098156,-0.62316003,-0.026012017,0.032599821,15.799,7.899,7.978773170779694,5.433345198912023,4.854931535582921,4.736460061541915,0.0,0.0,0.0,0.0,0.0,0.0,0.0,0.0,0.0,0.0,0.0,8.988769162579517,10.26958492967224,10.497192676558235,10.531821723314833,0.0,0.0,0.0,0.0,0.0,0.0,0.0,0.0,0.0,0.0,0.0,7
15.82274247,-0.025107923,0.040573756,-0.84938257,-0.52561642,-0.025107923,0.040573756,15.799,7.899,7.978773170779694,5.433345198912023,4.854931535582921,4.736460061541915,0.0,0.0,0.0,0.0,0.0,0.0,0.0,0.0,0.0,0.0,0.0,8.988769162579517,10.26958492967224,10.497192676558235,10.531821723314833,0.0,0.0,0.0,0.0,0.0,0.0,0.0,0.0,0.0,0.0,0.0,7
15.83444816,-0.022023517,0.047292043,-0.90528708,-0.42158478,-0.022023517,0.047292043,15.799,7.899,7.978773170779694,5.433345198912023,4.854931535582921,4.736460061541915,0.0,0.0,0.0,0.0,0.0,0.0,0.0,0.0,0.0,0.0,0.0,8.988769162579517,10.26958492967224,10.497192676558235,10.531821723314833,0.0,0.0,0.0,0.0,0.0,0.0,0.0,0.0,0.0,0.0,0.0,7
15.84615385,-0.017217276,0.052227809,-0.94828832,-0.31261012,-0.017217276,0.052227809,15.799,7.899,7.978773170779694,5.433345198912023,4.854931535582921,4.736460061541915,0.0,0.0,0.0,0.0,0.0,0.0,0.0,0.0,0.0,0.0,0.0,8.988769162579517,10.26958492967224,10.497192676558235,10.531821723314833,0.0,0.0,0.0,0.0,0.0,0.0,0.0,0.0,0.0,0.0,0.0,7
15.85785953,-0.01126084,0.05501482,-0.97814171,-0.20021327,-0.01126084,0.05501482,15.799,7.899,7.978773170779694,5.433345198912023,4.854931535582921,4.736460061541915,0.0,0.0,0.0,0.0,0.0,0.0,0.0,0.0,0.0,0.0,0.0,8.988769162579517,10.26958492967224,10.497192676558235,10.531821723314833,0.0,0.0,0.0,0.0,0.0,0.0,0.0,0.0,0.0,0.0,0.0,7
15.86956522,-0.0047887469,0.05546483,-0.99474845,-0.08588503,-0.0047887469,0.05546483,15.799,7.899,7.978773170779694,5.433345198912023,4.854931535582921,4.736460061541915,0.0,0.0,0.0,0.0,0.0,0.0,0.0,0.0,0.0,0.0,0.0,8.988769162579517,10.26958492967224,10.497192676558235,10.531821723314833,0.0,0.0,0.0,0.0,0.0,0.0,0.0,0.0,0.0,0.0,0.0,7
15.8812709,0.0015519275,0.053571351,-0.99814407,0.028915591,0.0015519275,0.053571351,15.799,7.899,7.978773170779694,5.433345198912023,4.854931535582921,4.736460061541915,0.0,0.0,0.0,0.0,0.0,0.0,0.0,0.0,0.0,0.0,0.0,8.988769162579517,10.26958492967224,10.497192676558235,10.531821723314833,0.0,0.0,0.0,0.0,0.0,0.0,0.0,0.0,0.0,0.0,0.0,7
15.89297659,0.0071491373,0.049501048,-0.98849256,0.14276201,0.0071491373,0.049501048,15.799,7.899,7.978773170779694,5.433345198912023,4.854931535582921,4.736460061541915,0.0,0.0,0.0,0.0,0.0,0.0,0.0,0.0,0.0,0.0,0.0,8.988769162579517,10.26958492967224,10.497192676558235,10.531821723314833,0.0,0.0,0.0,0.0,0.0,0.0,0.0,0.0,0.0,0.0,0.0,7
15.90468227,0.011468225,0.043574265,-0.96608518,0.25426206,0.011468225,0.043574265,15.799,7.899,7.978773170779694,5.433345198912023,4.854931535582921,4.736460061541915,0.0,0.0,0.0,0.0,0.0,0.0,0.0,0.0,0.0,0.0,0.0,8.988769162579517,10.26958492967224,10.497192676558235,10.531821723314833,0.0,0.0,0.0,0.0,0.0,0.0,0.0,0.0,0.0,0.0,0.0,7
15.91638796,0.014087072,0.036236444,-0.93134238,0.36206331,0.014087072,0.036236444,15.799,7.899,7.978773170779694,5.433345198912023,4.854931535582921,4.736460061541915,0.0,0.0,0.0,0.0,0.0,0.0,0.0,0.0,0.0,0.0,0.0,8.988769162579517,10.26958492967224,10.497192676558235,10.531821723314833,0.0,0.0,0.0,0.0,0.0,0.0,0.0,0.0,0.0,0.0,0.0,7
15.92809365,0.014722366,0.028022458,-0.88481674,0.4648627,0.014722366,0.028022458,15.799,7.899,7.978773170779694,5.433345198912023,4.854931535582921,4.736460061541915,0.0,0.0,0.0,0.0,0.0,0.0,0.0,0.0,0.0,0.0,0.0,8.988769162579517,10.26958492967224,10.497192676558235,10.531821723314833,0.0,0.0,0.0,0.0,0.0,0.0,0.0,0.0,0.0,0.0,0.0,7
15.93979933,0.013245708,0.019516165,-0.82719443,0.56142055,0.013245708,0.019516165,15.799,7.899,7.978773170779694,5.433345198912023,4.854931535582921,4.736460061541915,0.0,0.0,0.0,0.0,0.0,0.0,0.0,0.0,0.0,0.0,0.0,8.988769162579517,10.26958492967224,10.497192676558235,10.531821723314833,0.0,0.0,0.0,0.0,0.0,0.0,0.0,0.0,0.0,0.0,0.0,7
15.95150502,0.0096887513,0.0113078,-0.75929346,0.65057797,0.0096887513,0.0113078,15.799,7.899,7.978773170779694,5.433345198912023,4.854931535582921,4.736460061541915,0.0,0.0,0.0,0.0,0.0,0.0,0.0,0.0,0.0,0.0,0.0,8.988769162579517,10.26958492967224,10.497192676558235,10.531821723314833,0.0,0.0,0.0,0.0,0.0,0.0,0.0,0.0,0.0,0.0,0.0,7
15.9632107,0.0042372017,0.0039520133,-0.68205696,0.7312761,0.0042372017,0.0039520133,15.799,7.899,7.978773170779694,5.433345198912023,4.854931535582921,4.736460061541915,0.0,0.0,0.0,0.0,0.0,0.0,0.0,0.0,0.0,0.0,0.0,8.988769162579517,10.26958492967224,10.497192676558235,10.531821723314833,0.0,0.0,0.0,0.0,0.0,0.0,0.0,0.0,0.0,0.0,0.0,7
15.97491639,-0.0027857409,-0.0020705963,-0.59654109,0.80257503,-0.0027857409,-0.0020705963,15.799,7.899,7.978773170779694,5.433345198912023,4.854931535582921,4.736460061541915,0.0,0.0,0.0,0.0,0.0,0.0,0.0,0.0,0.0,0.0,0.0,8.988769162579517,10.26958492967224,10.497192676558235,10.531821723314833,0.0,0.0,0.0,0.0,0.0,0.0,0.0,0.0,0.0,0.0,0.0,7
15.98662207,-0.010945157,-0.0063858164,-0.50389776,0.86367035,-0.010945157,-0.0063858164,15.799,7.899,7.978773170779694,5.433345198912023,4.854931535582921,4.736460061541915,0.0,0.0,0.0,0.0,0.0,0.0,0.0,0.0,0.0,0.0,0.0,8.988769162579517,10.26958492967224,10.497192676558235,10.531821723314833,0.0,0.0,0.0,0.0,0.0,0.0,0.0,0.0,0.0,0.0,0.0,7
15.99832776,-0.019727332,-0.0087498538,-0.40535327,0.91390536,-0.019727332,-0.0087498538,15.799,7.899,7.978773170779694,5.433345198912023,4.854931535582921,4.736460061541915,0.0,0.0,0.0,0.0,0.0,0.0,0.0,0.0,0.0,0.0,0.0,8.988769162579517,10.26958492967224,10.497192676558235,10.531821723314833,0.0,0.0,0.0,0.0,0.0,0.0,0.0,0.0,0.0,0.0,0.0,7
16.01003344,-0.028577236,-0.0090636027,-0.30218458,0.95277787,-0.028577236,-0.0090636027,15.799,7.899,7.978773170779694,5.433345198912023,4.854931535582921,4.736460061541915,0.0,0.0,0.0,0.0,0.0,0.0,0.0,0.0,0.0,0.0,0.0,8.988769162579517,10.26958492967224,10.497192676558235,10.531821723314833,0.0,0.0,0.0,0.0,0.0,0.0,0.0,0.0,0.0,0.0,0.0,7
16.02173913,-0.036937733,-0.0073765086,-0.19569538,0.97994107,-0.036937733,-0.0073765086,15.799,7.899,7.978773170779694,5.433345198912023,4.854931535582921,4.736460061541915,0.0,0.0,0.0,0.0,0.0,0.0,0.0,0.0,0.0,0.0,0.0,8.988769162579517,10.26958492967224,10.497192676558235,10.531821723314833,0.0,0.0,0.0,0.0,0.0,0.0,0.0,0.0,0.0,0.0,0.0,7
16.03344482,-0.044287675,-0.0038802428,-0.087193858,0.99519886,-0.044287675,-0.0038802428,15.799,7.899,7.978773170779694,5.433345198912023,4.854931535582921,4.736460061541915,0.0,0.0,0.0,0.0,0.0,0.0,0.0,0.0,0.0,0.0,0.0,8.988769162579517,10.26958492967224,10.497192676558235,10.531821723314833,0.0,0.0,0.0,0.0,0.0,0.0,0.0,0.0,0.0,0.0,0.0,7
16.0451505,-0.050176395,0.0011068548,0.022026115,0.99849685,-0.050176395,0.0011068548,15.799,7.899,7.978773170779694,5.433345198912023,4.854931535582921,4.736460061541915,0.0,0.0,0.0,0.0,0.0,0.0,0.0,0.0,0.0,0.0,0.0,8.988769162579517,10.26958492967224,10.497192676558235,10.531821723314833,0.0,0.0,0.0,0.0,0.0,0.0,0.0,0.0,0.0,0.0,0.0,7
16.05685619,-0.054252566,0.0071630433,0.13069931,0.98991062,-0.054252566,0.0071630433,15.799,7.899,7.978773170779694,5.433345198912023,4.854931535582921,4.736460061541915,0.0,0.0,0.0,0.0,0.0,0.0,0.0,0.0,0.0,0.0,0.0,8.988769162579517,10.26958492967224,10.497192676558235,10.531821723314833,0.0,0.0,0.0,0.0,0.0,0.0,0.0,0.0,0.0,0.0,0.0,7
16.06856187,-0.056285974,0.013792299,0.23759864,0.9696332,-0.056285974,0.013792299,15.799,7.899,7.978773170779694,5.433345198912023,4.854931535582921,4.736460061541915,0.0,0.0,0.0,0.0,0.0,0.0,0.0,0.0,0.0,0.0,0.0,8.988769162579517,10.26958492967224,10.497192676558235,10.531821723314833,0.0,0.0,0.0,0.0,0.0,0.0,0.0,0.0,0.0,0.0,0.0,7
16.08026756,-0.05618135,0.020457295,0.34154029,0.93796343,-0.05618135,0.020457295,15.799,7.899,7.978773170779694,5.433345198912023,4.854931535582921,4.736460061541915,0.0,0.0,0.0,0.0,0.0,0.0,0.0,0.0,0.0,0.0,0.0,8.988769162579517,10.26958492967224,10.497192676558235,10.531821723314833,0.0,0.0,0.0,0.0,0.0,0.0,0.0,0.0,0.0,0.0,0.0,7
