freq,s11_real,s11_imag,s21_real,s21_imag,s22_real,s22_imag,a,b,a2_1,a2_2,a2_3,a2_4,a2_5,a2_6,a2_7,a2_8,a2_9,a2_10,a2_11,a2_12,a2_13,a2_14,a2_15,l_1,l_2,l_3,l_4,l_5,l_6,l_7,l_8,l_9,l_10,l_11,l_12,l_13,l_14,l_15,order
14.85117057,0.18423635,0.98288182,0.00053632725,-0.00010053189,0.18423635,0.98288182,15.799,7.899,7.967659306653481,5.430102934365554,4.851991511760237,4.733058349066336,0.0,0.0,0.0,0.0,0.0,0.0,0.0,0.0,0.0,0.0,0.0,8.988152633308808,10.26587137305818,10.492800396824167,10.527728657062188,0.0,0.0,0.0,0.0,0.0,0.0,0.0,0.0,0.0,0.0,0.0,7
14.86287625,0.19885085,0.98002958,0.00058567828,-0.00011883583,0.19885085,0.98002958,15.799,7.899,7.967659306653481,5.430102934365554,4.851991511760237,4.733058349066336,0.0,0.0,0.0,0.0,0.0,0.0,0.0,0.0,0.0,0.0,0.0,8.988152633308808,10.26587137305818,10.492800396824167,10.527728657062188,0.0,0.0,0.0,0.0,0.0,0.0,0.0,0.0,0.0,0.0,0.0,7
14.87458194,0.21377651,0.97688238,0.00064005669,-0.0001400671,0.21377651,0.97688238,15.799,7.899,7.967659306653481,5.430102934365554,4.851991511760237,4.733058349066336,0.0,0.0,0.0,0.0,0.0,0.0,0.0,0.0,0.0,0.0,0.0,8.988152633308808,10.26587137305818,10.492800396824167,10.527728657062188,0.0,0.0,0.0,0.0,0.0,0.0,0.0,0.0,0.0,0.0,0.0,7
14.88628763,0.22902192,0.973421,0.00070002166,-0.00016469781,0.22902192,0.973421,15.799,7.899,7.967659306653481,5.430102934365554,4.851991511760237,4.733058349066336,0.0,0.0,0.0,0.0,0.0,0.0,0.0,0.0,0.0,0.0,0.0,8.988152633308808,10.26587137305818,10.492800396824167,10.527728657062188,0.0,0.0,0.0,0.0,0.0,0.0,0.0,0.0,0.0,0.0,0.0,7
14.89799331,0.24459586,0.96962479,0.00076619908,-0.00019328005,0.24459586,0.96962479,15.799,7.899,7.967659306653481,5.430102934365554,4.851991511760237,4.733058349066336,0.0,0.0,0.0,0.0,0.0,0.0,0.0,0.0,0.0,0.0,0.0,8.988152633308808,10.26587137305818,10.492800396824167,10.527728657062188,0.0,0.0,0.0,0.0,0.0,0.0,0.0,0.0,0.0,0.0,0.0,7
14.909699,0.26050725,0.9654715,0.00083928977,-0.00022646041,0.26050725,0.9654715,15.799,7.899,7.967659306653481,5.430102934365554,4.851991511760237,4.733058349066336,0.0,0.0,0.0,0.0,0.0,0.0,0.0,0.0,0.0,0.0,0.0,8.988152633308808,10.26587137305818,10.492800396824167,10.527728657062188,0.0,0.0,0.0,0.0,0.0,0.0,0.0,0.0,0.0,0.0,0.0,7
14.92140468,0.2767651,0.96093713,0.00092007879,-0.00026499725,0.2767651,0.96093713,15.799,7.899,7.967659306653481,5.430102934365554,4.851991511760237,4.733058349066336,0.0,0.0,0.0,0.0,0.0,0.0,0.0,0.0,0.0,0.0,0.0,8.988152633308808,10.26587137305818,10.492800396824167,10.527728657062188,0.0,0.0,0.0,0.0,0.0,0.0,0.0,0.0,0.0,0.0,0.0,7
14.93311037,0.29337853,0.95599578,0.0010094459,-0.00030978143,0.29337853,0.95599578,15.799,7.899,7.967659306653481,5.430102934365554,4.851991511760237,4.733058349066336,0.0,0.0,0.0,0.0,0.0,0.0,0.0,0.0,0.0,0.0,0.0,8.988152633308808,10.26587137305818,10.492800396824167,10.527728657062188,0.0,0.0,0.0,0.0,0.0,0.0,0.0,0.0,0.0,0.0,0.0,7
14.94481605,0.31035669,0.95061946,0.0011083769,-0.00036186108,0.31035669,0.95061946,15.799,7.899,7.967659306653481,5.430102934365554,4.851991511760237,4.733058349066336,0.0,0.0,0.0,0.0,0.0,0.0,0.0,0.0,0.0,0.0,0.0,8.988152633308808,10.26587137305818,10.492800396824167,10.527728657062188,0.0,0.0,0.0,0.0,0.0,0.0,0.0,0.0,0.0,0.0,0.0,7
14.95652174,0.32770875,0.94477792,0.001217977,-0.00042247148,0.32770875,0.94477792,15.799,7.899,7.967659306653481,5.430102934365554,4.851991511760237,4.733058349066336,0.0,0.0,0.0,0.0,0.0,0.0,0.0,0.0,0.0,0.0,0.0,8.988152633308808,10.26587137305818,10.492800396824167,10.527728657062188,0.0,0.0,0.0,0.0,0.0,0.0,0.0,0.0,0.0,0.0,0.0,7
14.96822742,0.34544377,0.93843836,0.0013394848,-0.00049307094,0.34544377,0.93843836,15.799,7.899,7.967659306653481,5.430102934365554,4.851991511760237,4.733058349066336,0.0,0.0,0.0,0.0,0.0,0.0,0.0,0.0,0.0,0.0,0.0,8.988152633308808,10.26587137305818,10.492800396824167,10.527728657062188,0.0,0.0,0.0,0.0,0.0,0.0,0.0,0.0,0.0,0.0,0.0,7
14.97993311,0.36357073,0.93156525,0.001474288,-0.00057538424,0.36357073,0.93156525,15.799,7.899,7.967659306653481,5.430102934365554,4.851991511760237,4.733058349066336,0.0,0.0,0.0,0.0,0.0,0.0,0.0,0.0,0.0,0.0,0.0,8.988152633308808,10.26587137305818,10.492800396824167,10.527728657062188,0.0,0.0,0.0,0.0,0.0,0.0,0.0,0.0,0.0,0.0,0.0,7
14.9916388,0.38209834,0.92412,0.0016239407,-0.00067145507,0.38209834,0.92412,15.799,7.899,7.967659306653481,5.430102934365554,4.851991511760237,4.733058349066336,0.0,0.0,0.0,0.0,0.0,0.0,0.0,0.0,0.0,0.0,0.0,8.988152633308808,10.26587137305818,10.492800396824167,10.527728657062188,0.0,0.0,0.0,0.0,0.0,0.0,0.0,0.0,0.0,0.0,0.0,7
15.55351171,0.039763066,-0.049745512,0.77953852,0.62310831,0.039763066,-0.049745512,15.799,7.899,7.967659306653481,5.430102934365554,4.851991511760237,4.733058349066336,0.0,0.0,0.0,0.0,0.0,0.0,0.0,0.0,0.0,0.0,0.0,8.988152633308808,10.26587137305818,10.492800396824167,10.527728657062188,0.0,0.0,0.0,0.0,0.0,0.0,0.0,0.0,0.0,0.0,0.0,7
15.56521739,0.023054181,-0.042045535,0.87583056,0.48023068,0.023054181,-0.042045535,15.799,7.899,7.967659306653481,5.430102934365554,4.851991511760237,4.733058349066336,0.0,0.0,0.0,0.0,0.0,0.0,0.0,0.0,0.0,0.0,0.0,8.988152633308808,10.26587137305818,10.492800396824167,10.527728657062188,0.0,0.0,0.0,0.0,0.0,0.0,0.0,0.0,0.0,0.0,0.0,7
15.57692308,0.0096698589,-0.027888261,0.9444043,0.32745879,0.0096698589,-0.027888261,15.799,7.899,7.967659306653481,5.430102934365554,4.851991511760237,4.733058349066336,0.0,0.0,0.0,0.0,0.0,0.0,0.0,0.0,0.0,0.0,0.0,8.988152633308808,10.26587137305818,10.492800396824167,10.527728657062188,0.0,0.0,0.0,0.0,0.0,0.0,0.0,0.0,0.0,0.0,0.0,7
15.58862876,0.0017540996,-0.010185955,0.98544146,0.16970059,0.0017540996,-0.010185955,15.799,7.899,7.967659306653481,5.430102934365554,4.851991511760237,4.733058349066336,0.0,0.0,0.0,0.0,0.0,0.0,0.0,0.0,0.0,0.0,0.0,8.988152633308808,10.26587137305818,10.492800396824167,10.527728657062188,0.0,0.0,0.0,0.0,0.0,0.0,0.0,0.0,0.0,0.0,0.0,7
15.60033445,-9.3400802e-05,0.008086716,0.99990061,0.011548757,-9.3400802e-05,0.008086716,15.799,7.899,7.967659306653481,5.430102934365554,4.851991511760237,4.733058349066336,0.0,0.0,0.0,0.0,0.0,0.0,0.0,0.0,0.0,0.0,0.0,8.988152633308808,10.26587137305818,10.492800396824167,10.527728657062188,0.0,0.0,0.0,0.0,0.0,0.0,0.0,0.0,0.0,0.0,0.0,7
15.61204013,0.0035237347,0.024393372,0.98942628,-0.14292718,0.0035237347,0.024393372,15.799,7.899,7.967659306653481,5.430102934365554,4.851991511760237,4.733058349066336,0.0,0.0,0.0,0.0,0.0,0.0,0.0,0.0,0.0,0.0,0.0,8.988152633308808,10.26587137305818,10.492800396824167,10.527728657062188,0.0,0.0,0.0,0.0,0.0,0.0,0.0,0.0,0.0,0.0,0.0,7
15.62374582,0.011209917,0.03692127,0.95615593,-0.29030499,0.011209917,0.03692127,15.799,7.899,7.967659306653481,5.430102934365554,4.851991511760237,4.733058349066336,0.0,0.0,0.0,0.0,0.0,0.0,0.0,0.0,0.0,0.0,0.0,8.988152633308808,10.26587137305818,10.492800396824167,10.527728657062188,0.0,0.0,0.0,0.0,0.0,0.0,0.0,0.0,0.0,0.0,0.0,7
15.63545151,0.021179273,0.04467775,0.90250641,-0.42782884,0.021179273,0.04467775,15.799,7.899,7.967659306653481,5.430102934365554,4.851991511760237,4.733058349066336,0.0,0.0,0.0,0.0,0.0,0.0,0.0,0.0,0.0,0.0,0.0,8.988152633308808,10.26587137305818,10.492800396824167,10.527728657062188,0.0,0.0,0.0,0.0,0.0,0.0,0.0,0.0,0.0,0.0,0.0,7
15.64715719,0.031593632,0.047446252,0.83099801,-0.55334709,0.031593632,0.047446252,15.799,7.899,7.967659306653481,5.430102934365554,4.851991511760237,4.733058349066336,0.0,0.0,0.0,0.0,0.0,0.0,0.0,0.0,0.0,0.0,0.0,8.988152633308808,10.26587137305818,10.492800396824167,10.527728657062188,0.0,0.0,0.0,0.0,0.0,0.0,0.0,0.0,0.0,0.0,0.0,7
15.65886288,0.040812719,0.045655415,0.74414113,-0.66520966,0.040812719,0.045655415,15.799,7.899,7.967659306653481,5.430102934365554,4.851991511760237,4.733058349066336,0.0,0.0,0.0,0.0,0.0,0.0,0.0,0.0,0.0,0.0,0.0,8.988152633308808,10.26587137305818,10.492800396824167,10.527728657062188,0.0,0.0,0.0,0.0,0.0,0.0,0.0,0.0,0.0,0.0,0.0,7
15.67056856,0.04755543,0.040206639,0.64438425,-0.76216195,0.04755543,0.040206639,15.799,7.899,7.967659306653481,5.430102934365554,4.851991511760237,4.733058349066336,0.0,0.0,0.0,0.0,0.0,0.0,0.0,0.0,0.0,0.0,0.0,8.988152633308808,10.26587137305818,10.492800396824167,10.527728657062188,0.0,0.0,0.0,0.0,0.0,0.0,0.0,0.0,0.0,0.0,0.0,7
15.68227425,0.050983574,0.032292125,0.53410668,-0.84326031,0.050983574,0.032292125,15.799,7.899,7.967659306653481,5.430102934365554,4.851991511760237,4.733058349066336,0.0,0.0,0.0,0.0,0.0,0.0,0.0,0.0,0.0,0.0,0.0,8.988152633308808,10.26587137305818,10.492800396824167,10.527728657062188,0.0,0.0,0.0,0.0,0.0,0.0,0.0,0.0,0.0,0.0,0.0,7
15.69397993,0.050723367,0.023223105,0.4156345,-0.90781925,0.050723367,0.023223105,15.799,7.899,7.967659306653481,5.430102934365554,4.851991511760237,4.733058349066336,0.0,0.0,0.0,0.0,0.0,0.0,0.0,0.0,0.0,0.0,0.0,8.988152633308808,10.26587137305818,10.492800396824167,10.527728657062188,0.0,0.0,0.0,0.0,0.0,0.0,0.0,0.0,0.0,0.0,0.0,7
15.70568562,0.046839141,0.014279408,0.29126066,-0.95538967,0.046839141,0.014279408,15.799,7.899,7.967659306653481,5.430102934365554,4.851991511760237,4.733058349066336,0.0,0.0,0.0,0.0,0.0,0.0,0.0,0.0,0.0,0.0,0.0,8.988152633308808,10.26587137305818,10.492800396824167,10.527728657062188,0.0,0.0,0.0,0.0,0.0,0.0,0.0,0.0,0.0,0.0,0.0,7
15.7173913,0.039771574,0.0065867076,0.1632551,-0.98575991,0.039771574,0.0065867076,15.799,7.899,7.967659306653481,5.430102934365554,4.851991511760237,4.733058349066336,0.0,0.0,0.0,0.0,0.0,0.0,0.0,0.0,0.0,0.0,0.0,8.988152633308808,10.26587137305818,10.492800396824167,10.527728657062188,0.0,0.0,0.0,0.0,0.0,0.0,0.0,0.0,0.0,0.0,0.0,7
15.72909699,0.030251095,0.0010253089,0.033858312,-0.99896819,0.030251095,0.0010253089,15.799,7.899,7.967659306653481,5.430102934365554,4.851991511760237,4.733058349066336,0.0,0.0,0.0,0.0,0.0,0.0,0.0,0.0,0.0,0.0,0.0,8.988152633308808,10.26587137305818,10.492800396824167,10.527728657062188,0.0,0.0,0.0,0.0,0.0,0.0,0.0,0.0,0.0,0.0,0.0,7
15.74080268,0.019196432,-0.0018272822,-0.094742681,-0.99531502,0.019196432,-0.0018272822,15.799,7.899,7.967659306653481,5.430102934365554,4.851991511760237,4.733058349066336,0.0,0.0,0.0,0.0,0.0,0.0,0.0,0.0,0.0,0.0,0.0,8.988152633308808,10.26587137305818,10.492800396824167,10.527728657062188,0.0,0.0,0.0,0.0,0.0,0.0,0.0,0.0,0.0,0.0,0.0,7
15.75250836,0.0076081876,-0.0017195953,-0.22045147,-0.97536676,0.0076081876,-0.0017195953,15.799,7.899,7.967659306653481,5.430102934365554,4.851991511760237,4.733058349066336,0.0,0.0,0.0,0.0,0.0,0.0,0.0,0.0,0.0,0.0,0.0,8.988152633308808,10.26587137305818,10.492800396824167,10.527728657062188,0.0,0.0,0.0,0.0,0.0,0.0,0.0,0.0,0.0,0.0,0.0,7
15.76421405,-0.0035329564,0.00128286,-0.34130557,-0.93994488,-0.0035329564,0.00128286,15.799,7.899,7.967659306653481,5.430102934365554,4.851991511760237,4.733058349066336,0.0,0.0,0.0,0.0,0.0,0.0,0.0,0.0,0.0,0.0,0.0,8.988152633308808,10.26587137305818,10.492800396824167,10.527728657062188,0.0,0.0,0.0,0.0,0.0,0.0,0.0,0.0,0.0,0.0,0.0,7
15.77591973,-0.013354844,0.00683448,-0.45551799,-0.89010016,-0.013354844,0.00683448,15.799,7.899,7.967659306653481,5.430102934365554,4.851991511760237,4.733058349066336,0.0,0.0,0.0,0.0,0.0,0.0,0.0,0.0,0.0,0.0,0.0,8.988152633308808,10.26587137305818,10.492800396824167,10.527728657062188,0.0,0.0,0.0,0.0,0.0,0.0,0.0,0.0,0.0,0.0,0.0,7
15.78762542,-0.021162685,0.014367593,-0.56151034,-0.82707427,-0.021162685,0.014367593,15.799,7.899,7.967659306653481,5.430102934365554,4.851991511760237,4.733058349066336,0.0,0.0,0.0,0.0,0.0,0.0,0.0,0.0,0.0,0.0,0.0,8.988152633308808,10.26587137305818,10.492800396824167,10.527728657062188,0.0,0.0,0.0,0.0,0.0,0.0,0.0,0.0,0.0,0.0,0.0,7
15.7993311,-0.026484288,0.023163576,-0.65793316,-0.75225394,-0.026484288,0.023163576,15.799,7.899,7.967659306653481,5.430102934365554,4.851991511760237,4.733058349066336,0.0,0.0,0.0,0.0,0.0,0.0,0.0,0.0,0.0,0.0,0.0,8.988152633308808,10.26587137305818,10.492800396824167,10.527728657062188,0.0,0.0,0.0,0.0,0.0,0.0,0.0,0.0,0.0,0.0,0.0,7
15.81103679,-0.029090799,0.032428801,-0.74367215,-0.66712356,-0.029090799,0.032428801,15.799,7.899,7.967659306653481,5.430102934365554,4.851991511760237,4.733058349066336,0.0,0.0,0.0,0.0,0.0,0.0,0.0,0.0,0.0,0.0,0.0,8.988152633308808,10.26587137305818,10.492800396824167,10.527728657062188,0.0,0.0,0.0,0.0,0.0,0.0,0.0,0.0,0.0,0.0,0.0,7
15.82274247,-0.028994672,0.041368016,-0.81784155,-0.57322177,-0.028994672,0.041368016,15.799,7.899,7.967659306653481,5.430102934365554,4.851991511760237,4.733058349066336,0.0,0.0,0.0,0.0,0.0,0.0,0.0,0.0,0.0,0.0,0.0,8.988152633308808,10.26587137305818,10.492800396824167,10.527728657062188,0.0,0.0,0.0,0.0,0.0,0.0,0.0,0.0,0.0,0.0,0.0,7
15.83444816,-0.026428478,0.049249397,-0.87976815,-0.47210595,-0.026428478,0.049249397,15.799,7.899,7.967659306653481,5.430102934365554,4.851991511760237,4.733058349066336,0.0,0.0,0.0,0.0,0.0,0.0,0.0,0.0,0.0,0.0,0.0,8.988152633308808,10.26587137305818,10.492800396824167,10.527728657062188,0.0,0.0,0.0,0.0,0.0,0.0,0.0,0.0,0.0,0.0,0.0,7
15.84615385,-0.021809181,0.05545744,-0.92897004,-0.36532656,-0.021809181,0.05545744,15.799,7.899,7.967659306653481,5.430102934365554,4.851991511760237,4.733058349066336,0.0,0.0,0.0,0.0,0.0,0.0,0.0,0.0,0.0,0.0,0.0,8.988152633308808,10.26587137305818,10.492800396824167,10.527728657062188,0.0,0.0,0.0,0.0,0.0,0.0,0.0,0.0,0.0,0.0,0.0,7
15.85785953,-0.015692673,0.059531682,-0.96513447,-0.25441142,-0.015692673,0.059531682,15.799,7.899,7.967659306653481,5.430102934365554,4.851991511760237,4.733058349066336,0.0,0.0,0.0,0.0,0.0,0.0,0.0,0.0,0.0,0.0,0.0,8.988152633308808,10.26587137305818,10.492800396824167,10.527728657062188,0.0,0.0,0.0,0.0,0.0,0.0,0.0,0.0,0.0,0.0,0.0,7
15.86956522,-0.008723032,0.061190723,-0.98809846,-0.14085819,-0.008723032,0.061190723,15.799,7.899,7.967659306653481,5.430102934365554,4.851991511760237,4.733058349066336,0.0,0.0,0.0,0.0,0.0,0.0,0.0,0.0,0.0,0.0,0.0,8.988152633308808,10.26587137305818,10.492800396824167,10.527728657062188,0.0,0.0,0.0,0.0,0.0,0.0,0.0,0.0,0.0,0.0,0.0,7
15.8812709,-0.0015803154,0.060342003,-0.99783437,-0.026132593,-0.0015803154,0.060342003,15.799,7.899,7.967659306653481,5.430102934365554,4.851991511760237,4.733058349066336,0.0,0.0,0.0,0.0,0.0,0.0,0.0,0.0,0.0,0.0,0.0,8.988152633308808,10.26587137305818,10.492800396824167,10.527728657062188,0.0,0.0,0.0,0.0,0.0,0.0,0.0,0.0,0.0,0.0,0.0,7
15.89297659,0.0050699738,0.057078428,-0.99444155,0.088330963,0.0050699738,0.057078428,15.799,7.899,7.967659306653481,5.430102934365554,4.851991511760237,4.733058349066336,0.0,0.0,0.0,0.0,0.0,0.0,0.0,0.0,0.0,0.0,0.0,8.988152633308808,10.26587137305818,10.492800396824167,10.527728657062188,0.0,0.0,0.0,0.0,0.0,0.0,0.0,0.0,0.0,0.0,0.0,7
15.90468227,0.010623167,0.051663252,-0.97814372,0.20112911,0.010623167,0.051663252,15.799,7.899,7.967659306653481,5.430102934365554,4.851991511760237,4.733058349066336,0.0,0.0,0.0,0.0,0.0,0.0,0.0,0.0,0.0,0.0,0.0,8.988152633308808,10.26587137305818,10.492800396824167,10.527728657062188,0.0,0.0,0.0,0.0,0.0,0.0,0.0,0.0,0.0,0.0,0.0,7
15.91638796,0.014575306,0.044504835,-0.94929076,0.31089214,0.014575306,0.044504835,15.799,7.899,7.967659306653481,5.430102934365554,4.851991511760237,4.733058349066336,0.0,0.0,0.0,0.0,0.0,0.0,0.0,0.0,0.0,0.0,0.0,8.988152633308808,10.26587137305818,10.492800396824167,10.527728657062188,0.0,0.0,0.0,0.0,0.0,0.0,0.0,0.0,0.0,0.0,0.0,7
15.92809365,0.016554791,0.036123168,-0.90836268,0.41629111,0.016554791,0.036123168,15.799,7.899,7.967659306653481,5.430102934365554,4.851991511760237,4.733058349066336,0.0,0.0,0.0,0.0,0.0,0.0,0.0,0.0,0.0,0.0,0.0,8.988152633308808,10.26587137305818,10.492800396824167,10.527728657062188,0.0,0.0,0.0,0.0,0.0,0.0,0.0,0.0,0.0,0.0,0.0,7
15.93979933,0.016344264,0.027110281,-0.85597342,0.51604981,0.016344264,0.027110281,15.799,7.899,7.967659306653481,5.430102934365554,4.851991511760237,4.733058349066336,0.0,0.0,0.0,0.0,0.0,0.0,0.0,0.0,0.0,0.0,0.0,8.988152633308808,10.26587137305818,10.492800396824167,10.527728657062188,0.0,0.0,0.0,0.0,0.0,0.0,0.0,0.0,0.0,0.0,0.0,7
15.95150502,0.013891638,0.018087015,-0.79287203,0.60896126,0.013891638,0.018087015,15.799,7.899,7.967659306653481,5.430102934365554,4.851991511760237,4.733058349066336,0.0,0.0,0.0,0.0,0.0,0.0,0.0,0.0,0.0,0.0,0.0,8.988152633308808,10.26587137305818,10.492800396824167,10.527728657062188,0.0,0.0,0.0,0.0,0.0,0.0,0.0,0.0,0.0,0.0,0.0,7
15.9632107,0.0093096748,0.0096589306,-0.71993942,0.69390724,0.0093096748,0.0096589306,15.799,7.899,7.967659306653481,5.430102934365554,4.851991511760237,4.733058349066336,0.0,0.0,0.0,0.0,0.0,0.0,0.0,0.0,0.0,0.0,0.0,8.988152633308808,10.26587137305818,10.492800396824167,10.527728657062188,0.0,0.0,0.0,0.0,0.0,0.0,0.0,0.0,0.0,0.0,0.0,7
15.97491639,0.0028642709,0.0023742939,-0.63817931,0.76987877,0.0028642709,0.0023742939,15.799,7.899,7.967659306653481,5.430102934365554,4.851991511760237,4.733058349066336,0.0,0.0,0.0,0.0,0.0,0.0,0.0,0.0,0.0,0.0,0.0,8.988152633308808,10.26587137305818,10.492800396824167,10.527728657062188,0.0,0.0,0.0,0.0,0.0,0.0,0.0,0.0,0.0,0.0,0.0,7
15.98662207,-0.0050476052,-0.0033129829,-0.54870339,0.8359953,-0.0050476052,-0.0033129829,15.799,7.899,7.967659306653481,5.430102934365554,4.851991511760237,4.733058349066336,0.0,0.0,0.0,0.0,0.0,0.0,0.0,0.0,0.0,0.0,0.0,8.988152633308808,10.26587137305818,10.492800396824167,10.527728657062188,0.0,0.0,0.0,0.0,0.0,0.0,0.0,0.0,0.0,0.0,0.0,7
15.99832776,-0.01392857,-0.0070728861,-0.45271133,0.89152029,-0.01392857,-0.0070728861,15.799,7.899,7.967659306653481,5.430102934365554,4.851991511760237,4.733058349066336,0.0,0.0,0.0,0.0,0.0,0.0,0.0,0.0,0.0,0.0,0.0,8.988152633308808,10.26587137305818,10.492800396824167,10.527728657062188,0.0,0.0,0.0,0.0,0.0,0.0,0.0,0.0,0.0,0.0,0.0,7
16.01003344,-0.023217639,-0.0087193981,-0.35146715,0.93587165,-0.023217639,-0.0087193981,15.799,7.899,7.967659306653481,5.430102934365554,4.851991511760237,4.733058349066336,0.0,0.0,0.0,0.0,0.0,0.0,0.0,0.0,0.0,0.0,0.0,8.988152633308808,10.26587137305818,10.492800396824167,10.527728657062188,0.0,0.0,0.0,0.0,0.0,0.0,0.0,0.0,0.0,0.0,0.0,7
16.02173913,-0.032330332,-0.0082200214,-0.24627417,0.96862594,-0.032330332,-0.0082200214,15.799,7.899,7.967659306653481,5.430102934365554,4.851991511760237,4.733058349066336,0.0,0.0,0.0,0.0,0.0,0.0,0.0,0.0,0.0,0.0,0.0,8.988152633308808,10.26587137305818,10.492800396824167,10.527728657062188,0.0,0.0,0.0,0.0,0.0,0.0,0.0,0.0,0.0,0.0,0.0,7
16.03344482,-0.040699076,-0.0056945093,-0.13845056,0.98951635,-0.040699076,-0.0056945093,15.799,7.899,7.967659306653481,5.430102934365554,4.851991511760237,4.733058349066336,0.0,0.0,0.0,0.0,0.0,0.0,0.0,0.0,0.0,0.0,0.0,8.988152633308808,10.26587137305818,10.492800396824167,10.527728657062188,0.0,0.0,0.0,0.0,0.0,0.0,0.0,0.0,0.0,0.0,0.0,7
16.0451505,-0.047811092,-0.0014034446,-0.029307732,0.99842535,-0.047811092,-0.0014034446,15.799,7.899,7.967659306653481,5.430102934365554,4.851991511760237,4.733058349066336,0.0,0.0,0.0,0.0,0.0,0.0,0.0,0.0,0.0,0.0,0.0,8.988152633308808,10.26587137305818,10.492800396824167,10.527728657062188,0.0,0.0,0.0,0.0,0.0,0.0,0.0,0.0,0.0,0.0,0.0,7
16.05685619,-0.05324139,0.0042719976,0.079867057,0.99537348,-0.05324139,0.0042719976,15.799,7.899,7.967659306653481,5.430102934365554,4.851991511760237,4.733058349066336,0.0,0.0,0.0,0.0,0.0,0.0,0.0,0.0,0.0,0.0,0.0,8.988152633308808,10.26587137305818,10.492800396824167,10.527728657062188,0.0,0.0,0.0,0.0,0.0,0.0,0.0,0.0,0.0,0.0,0.0,7
16.06856187,-0.05667908,0.010857288,0.18782303,0.98050605,-0.05667908,0.010857288,15.799,7.899,7.967659306653481,5.430102934365554,4.851991511760237,4.733058349066336,0.0,0.0,0.0,0.0,0.0,0.0,0.0,0.0,0.0,0.0,0.0,8.988152633308808,10.26587137305818,10.492800396824167,10.527728657062188,0.0,0.0,0.0,0.0,0.0,0.0,0.0,0.0,0.0,0.0,0.0,7
16.08026756,-0.05794584,0.017816745,0.29335325,0.95408004,-0.05794584,0.017816745,15.799,7.899,7.967659306653481,5.430102934365554,4.851991511760237,4.733058349066336,0.0,0.0,0.0,0.0,0.0,0.0,0.0,0.0,0.0,0.0,0.0,8.988152633308808,10.26587137305818,10.492800396824167,10.527728657062188,0.0,0.0,0.0,0.0,0.0,0.0,0.0,0.0,0.0,0.0,0.0,7
