freq,s11_real,s11_imag,s21_real,s21_imag,s22_real,s22_imag
14.85117057,0.20256442,0.97926876,0.00057575277,-0.00011909603,0.20256442,0.97926876
14.86287625,0.21746768,0.97606731,0.00062895215,-0.00014013047,0.21746768,0.97606731
14.87458194,0.23268731,0.97255134,0.0006875869,-0.00016450828,0.23268731,0.97255134
14.88628763,0.24823183,0.96870034,0.00075226204,-0.00019276899,0.24823183,0.96870034
14.89799331,0.26410989,0.96449222,0.00082365451,-0.00022554387,0.26410989,0.96449222
14.909699,0.28033025,0.95990316,0.00090252198,-0.00026357264,0.28033025,0.95990316
14.92140468,0.29690171,0.95490748,0.00098971267,-0.00030772341,0.29690171,0.95490748
14.93311037,0.31383312,0.94947747,0.0010861764,-0.00035901654,0.31383312,0.94947747
14.94481605,0.33113329,0.94358314,0.0011929767,-0.0004186534,0.33113329,0.94358314
14.95652174,0.34881096,0.93719206,0.0013113043,-0.00048805077,0.34881096,0.93719206
14.96822742,0.36687468,0.93026908,0.0014424921,-0.00056888253,0.36687468,0.93026908
14.97993311,0.3853328,0.92277607,0.001588031,-0.00066312992,0.3853328,0.92277607
14.9916388,0.40419326,0.91467161,0.0017495874,-0.00077314243,0.40419326,0.91467161
15.55351171,0.025163409,-0.041393082,0.85349213,0.5188493,0.025163409,-0.041393082
15.56521739,0.011579703,-0.029239377,0.92928378,0.3680253,0.011579703,-0.029239377
15.57692308,0.0027560373,-0.012764374,0.97739132,0.21103479,0.0027560373,-0.012764374
15.58862876,-0.00026808064,0.0050945981,0.99860541,0.052547182,-0.00026808064,0.0050945981
15.60033445,0.0022526197,0.021697485,0.99441726,-0.10323979,0.0022526197,0.021697485
15.61204013,0.0091608546,0.035044191,0.96685487,-0.25274423,0.0091608546,0.035044191
15.62374582,0.018799582,0.043921654,0.9182769,-0.39304581,0.018799582,0.043921654
15.63545151,0.029365316,0.047898159,0.85118819,-0.5218449,0.029365316,0.047898159
15.64715719,0.039180258,0.04721707,0.76811072,-0.63737068,0.039180258,0.04721707
15.65886288,0.046876301,0.042637387,0.67151551,-0.73827609,0.046876301,0.042637387
15.67056856,0.051499082,0.035256445,0.56380342,-0.82354753,0.051499082,0.035256445
15.68227425,0.052546356,0.026337548,0.4473148,-0.8924431,0.052546356,0.026337548
15.69397993,0.049955333,0.017155731,0.32434843,-0.94446188,0.049955333,0.017155731
15.70568562,0.044051754,0.0088691475,0.19717474,-0.97933799,0.044051754,0.0088691475
15.7173913,0.035471654,0.0024204393,0.068034528,-0.99704925,0.035471654,0.0024204393
15.72909699,0.025065802,-0.0015293071,-0.060879252,-0.99782919,0.025065802,-0.0015293071
15.74080268,0.0137965,-0.0026331495,-0.18745394,-0.98217297,0.0137965,-0.0026331495
15.75250836,0.0026362179,-0.00085864965,-0.30969774,-0.95083102,0.0026362179,-0.00085864965
15.76421405,-0.0075232672,0.0035403468,-0.42578092,-0.90478808,-0.0075232672,0.0035403468
15.77591973,-0.015944229,0.0100746,-0.53407083,-0.84522933,-0.015944229,0.0100746
15.78762542,-0.022094288,0.018085545,-0.63315575,-0.77349761,-0.022094288,0.018085545
15.7993311,-0.025673924,0.026818506,-0.72185534,-0.69104739,-0.025673924,0.026818506
15.81103679,-0.026621102,0.035495562,-0.79921832,-0.59940092,-0.026621102,0.035495562
15.82274247,-0.025096028,0.043381909,-0.86450987,-0.50011087,-0.025096028,0.043381909
15.83444816,-0.021450223,0.049841393,-0.9171927,-0.39473191,-0.021450223,0.049841393
15.84615385,-0.016184609,0.054378678,-0.95690591,-0.28480184,-0.016184609,0.054378678
15.85785953,-0.0099010828,0.05666706,-0.98344538,-0.17183129,-0.0099010828,0.05666706
15.86956522,-0.0032515542,0.056562093,-0.99674817,-0.05729952,-0.0032515542,0.056562093
15.8812709,0.0031122485,0.0541019,-0.99688249,0.057346342,0.0031122485,0.0541019
15.89297659,0.0085854589,0.049495475,-0.98404312,0.1706916,0.0085854589,0.049495475
15.90468227,0.01265098,0.043100557,-0.95855146,0.28135635,0.01265098,0.043100557
15.91638796,0.014912716,0.035392886,-0.92085814,0.3880016,0.014912716,0.035392886
15.92809365,0.015119557,0.026928915,-0.87154616,0.48933988,0.015119557,0.026928915
15.93979933,0.013178933,0.018304352,-0.81133209,0.58415025,0.013178933,0.018304352
15.95150502,0.0091592765,0.010111188,-0.74106338,0.67129646,0.0091592765,0.010111188
15.9632107,0.0032813687,0.0028960679,-0.66171069,0.7497465,0.0032813687,0.0028960679
15.97491639,-0.0041006633,-0.0028771795,-0.57435448,0.81859138,-0.0041006633,-0.0028771795
15.98662207,-0.01252718,-0.0068582844,-0.48016664,0.87706102,-0.01252718,-0.0068582844
15.99832776,-0.021467473,-0.0088325168,-0.38038829,0.9245355,-0.021467473,-0.0088325168
16.01003344,-0.030358131,-0.0087326206,-0.27630566,0.96055052,-0.030358131,-0.0087326206
16.02173913,-0.038642446,-0.0066402652,-0.16922618,0.98479702,-0.038642446,-0.0066402652
16.03344482,-0.045808076,-0.0027774183,-0.060456724,0.99711528,-0.045808076,-0.0027774183
16.0451505,-0.051420546,0.0025112354,0.048714378,0.9974851,-0.051420546,0.0025112354
16.05685619,-0.055150675,0.0087831946,0.15703069,0.9860135,-0.055150675,0.0087831946
16.06856187,-0.056794645,0.015528437,0.26327614,0.96292207,-0.056794645,0.015528437
16.08026756,-0.056285943,0.022203103,0.36627924,0.92853564,-0.056285943,0.022203103
16.09197324,-0.053698943,0.028264629,0.4649142,0.88327364,-0.053698943,0.028264629
16.10367893,-0.049244183,0.033206502,0.55810036,0.82764505,-0.049244183,0.033206502
16.11538462,-0.043255713,0.036590987,0.64480197,0.76224698,-0.043255713,0.036590987
16.1270903,-0.036171072,0.038078227,0.72402966,0.6877665,-0.036171072,0.038078227
16.13879599,-0.028504665,0.037450211,0.79484514,0.60498443,-0.028504665,0.037450211
16.15050167,-0.020815615,0.034628149,0.85636995,0.51477967,-0.020815615,0.034628149
16.16220736,-0.013671471,0.029681865,0.90779827,0.41813201,-0.013671471,0.029681865
16.17391304,-0.0076096339,0.022830054,0.94841335,0.31612183,-0.0076096339,0.022830054
16.18561873,-0.0030987397,0.014430622,0.9776061,0.2099249,-0.0030987397,0.014430622
16.19732441,-0.00050263445,0.0049609099,0.99489404,0.10080167,-0.00050263445,0.0049609099
16.2090301,-4.9715277e-05,-0.0050116189,0.99993824,-0.0099193908,-4.9715277e-05,-0.0050116189
16.22073579,-0.0018103272,-0.014866807,0.99255618,-0.12086331,-0.0018103272,-0.014866807
16.23244147,-0.0056844727,-0.023975065,0.97272871,-0.23063336,-0.0056844727,-0.023975065
16.24414716,-0.011401374,-0.031743548,0.9406002,-0.33783667,-0.011401374,-0.031743548
16.25585284,-0.018531506,-0.037661919,0.8964719,-0.44110802,-0.018531506,-0.037661919
16.26755853,-0.026510733,-0.041344356,0.84078977,-0.53912928,-0.026510733,-0.041344356
16.27926421,-0.034675295,-0.042564755,0.77412899,-0.63064267,-0.034675295,-0.042564755
16.2909699,-0.042305727,-0.041282579,0.69717807,-0.71445693,-0.042305727,-0.041282579
16.30267559,-0.048677392,-0.037657419,0.61072573,-0.78944697,-0.048677392,-0.037657419
16.31438127,-0.053115122,-0.032050832,0.51565335,-0.85454851,-0.053115122,-0.032050832
16.32608696,-0.055049408,-0.025014376,0.41293521,-0.90875098,-0.055049408,-0.025014376
16.33779264,-0.054071367,-0.017262907,0.3036472,-0.95109235,-0.054071367,-0.017262907
16.34949833,-0.049983333,-0.0096322938,0.18898312,-0.98066012,-0.049983333,-0.0096322938
16.36120401,-0.042841088,-0.003020958,0.070275871,-0.99660264,-0.042841088,-0.003020958
16.3729097,-0.032982707,0.0016846181,-0.050981483,-0.99815339,-0.032982707,0.0016846181
16.38461538,-0.021037829,0.0036987932,-0.17312084,-0.98466893,-0.021037829,0.0036987932
16.39632107,-0.007910514,0.0024360144,-0.2942976,-0.95567798,-0.007910514,0.0024360144
16.40802676,0.0052707785,-0.0023868222,-0.41250847,-0.91093539,0.0052707785,-0.0023868222
16.41973244,0.017240562,-0.010655491,-0.52563159,-0.85047085,0.017240562,-0.010655491
16.43143813,0.026721786,-0.021784147,-0.63148626,-0.77462023,0.026721786,-0.021784147
16.44314381,0.032585279,-0.034675365,-0.72790251,-0.68402759,0.032585279,-0.034675365
16.4548495,0.034034605,-0.047726369,-0.81278228,-0.57961091,0.034034605,-0.047726369
16.46655518,0.030805606,-0.058889671,-0.88412814,-0.46249373,0.030805606,-0.058889671
16.47826087,0.023371738,-0.065793457,-0.94001211,-0.33391947,0.023371738,-0.065793457
16.48996656,0.013151594,-0.06592938,-0.97845995,-0.19518321,0.013151594,-0.06592938
16.50167224,0.0027195561,-0.056928614,-0.9972373,-0.047639361,0.0027195561,-0.056928614
16.51337793,-0.0039868172,-0.036975991,-0.99354962,0.10712629,-0.0039868172,-0.036975991
16.52508361,-0.0015104662,-0.0054552957,-0.96372508,0.2668369,-0.0015104662,-0.0054552957
16.5367893,0.017069699,0.03604757,-0.90307169,0.42763387,0.017069699,0.03604757
16.54849498,0.059487037,0.082318177,-0.80632446,0.58268848,0.059487037,0.082318177
17.5083612,-0.99762365,0.068891947,-6.7438707e-05,-0.00097657929,-0.99762365,0.068891947
17.52006689,-0.99696717,0.077817662,-7.2921604e-05,-0.00093424093,-0.99696717,0.077817662
17.53177258,-0.99624218,0.086606629,-7.773044e-05,-0.00089413875,-0.99624218,0.086606629
17.54347826,-0.99545185,0.095262136,-8.1930011e-05,-0.00085613639,-0.99545185,0.095262136
17.55518395,-0.99459917,0.10378737,-8.5578932e-05,-0.00082010683,-0.99459917,0.10378737
17.56688963,-0.99368697,0.11218544,-8.8730245e-05,-0.00078593164,-0.99368697,0.11218544
17.57859532,-0.99271797,0.12045935,-9.1431975e-05,-0.0007535004,-0.99271797,0.12045935
17.590301,-0.99169472,0.128612,-9.3727622e-05,-0.00072271006,-0.99169472,0.128612
17.60200669,-0.99061966,0.13664625,-9.5656602e-05,-0.00069346442,-0.99061966,0.13664625
17.61371237,-0.9894951,0.14456483,-9.7254646e-05,-0.00066567363,-0.9894951,0.14456483
17.62541806,-0.98832324,0.15237042,-9.8554154e-05,-0.00063925373,-0.98832324,0.15237042
17.63712375,-0.98710618,0.16006562,-9.9584513e-05,-0.00061412618,-0.98710618,0.16006562
17.64882943,-0.9858459,0.16765294,-0.00010037239,-0.00059021756,-0.9858459,0.16765294
17.66053512,-0.98454429,0.17513483,-0.00010094199,-0.00056745913,-0.98454429,0.17513483
17.6722408,-0.98320316,0.18251366,-0.00010131527,-0.0005457865,-0.98320316,0.18251366
