freq,s11_real,s11_imag,s21_real,s21_imag,s22_real,s22_imag
14.85117057,0.18281484,0.98314721,0.00052826598,-9.8230317e-05,0.18281484,0.98314721
14.86287625,0.19738071,0.98032674,0.00057678673,-0.00011613126,0.19738071,0.98032674
14.87458194,0.21225598,0.97721389,0.00063024134,-0.00013689172,0.21225598,0.97721389
14.88628763,0.22744921,0.97378969,0.00068917766,-0.00016097204,0.22744921,0.97378969
14.89799331,0.2429691,0.97003372,0.0007542088,-0.00018891038,0.2429691,0.97003372
14.909699,0.25882452,0.96592398,0.00082602115,-0.0002213368,0.25882452,0.96592398
14.92140468,0.27502443,0.96143678,0.00090538354,-0.00025899009,0.27502443,0.96143678
14.93311037,0.2915779,0.95654652,0.00099315735,-0.00030273774,0.2915779,0.95654652
14.94481605,0.30849403,0.95122559,0.0010903079,-0.0003536001,0.30849403,0.95122559
14.95652174,0.32578193,0.94544409,0.001197917,-0.00041277926,0.32578193,0.94544409
14.96822742,0.34345065,0.93916968,0.0013171971,-0.00048169381,0.34345065,0.93916968
14.97993311,0.36150913,0.93236728,0.0014495067,-0.00056202091,0.36150913,0.93236728
14.9916388,0.37996606,0.92499882,0.001596367,-0.00065574707,0.37996606,0.92499882
15.55351171,0.042438342,-0.050013321,0.76084608,0.64560893,0.042438342,-0.050013321
15.56521739,0.025554469,-0.043623724,0.86175031,0.50480723,0.025554469,-0.043623724
15.57692308,0.011461552,-0.030333195,0.93495626,0.35327798,0.011461552,-0.030333195
15.58862876,0.0025942324,-0.012980461,0.98052177,0.19596388,0.0025942324,-0.012980461
15.60033445,-0.00020376693,0.0054255695,0.99928076,0.037529769,-0.00020376693,0.0054255695
15.61204013,0.0026406327,0.022244401,0.9927784,-0.11785272,0.0026406327,0.022244401
15.62374582,0.0098358206,0.035525526,0.9630891,-0.26664691,0.0098358206,0.035525526
15.63545151,0.019633957,0.044134326,0.91260124,-0.40598725,0.019633957,0.044134326
15.64715719,0.030182716,0.047728244,0.84383175,-0.53362815,0.030182716,0.047728244
15.65886288,0.039791326,0.046637101,0.75930138,-0.64784492,0.039791326,0.046637101
15.67056856,0.047106608,0.041694997,0.66147301,-0.74732587,0.047106608,0.041694997
15.68227425,0.051208998,0.034058193,0.55273819,-0.83108253,0.051208998,0.034058193
15.69397993,0.051643666,0.025030582,0.43543091,-0.89839096,0.051643666,0.025030582
15.70568562,0.048401536,0.015909037,0.31184828,-0.94876491,0.048401536,0.015909037
15.7173913,0.041862904,0.0078555654,0.18426338,-0.98195356,0.041862904,0.0078555654
15.72909699,0.032714498,0.0018004363,0.054922153,-0.99795294,0.032714498,0.0018004363
15.74080268,0.021849981,-0.0016212415,-0.073977586,-0.99701919,0.021849981,-0.0016212415
15.75250836,0.010263766,-0.0020987089,-0.2003213,-0.97967425,0.010263766,-0.0020987089
15.76421405,-0.0010522029,0.00035801926,-0.32212051,-0.94669802,-0.0010522029,0.00035801926
15.77591973,-0.011199893,0.0054504981,-0.4375552,-0.89910528,-0.011199893,0.0054504981
15.78762542,-0.019447871,0.012646637,-0.54500893,-0.83810925,-0.019447871,0.012646637
15.7993311,-0.025280876,0.021250051,-0.64309165,-0.76507676,-0.025280876,0.021250051
15.81103679,-0.028424865,0.03047568,-0.73064858,-0.68148068,-0.028424865,0.03047568
15.82274247,-0.02884883,0.039524062,-0.80675575,-0.58885546,-0.02884883,0.039524062
15.83444816,-0.026746719,0.04764817,-0.87070548,-0.4887599,-0.026746719,0.04764817
15.84615385,-0.022503962,0.054208633,-0.92198576,-0.38274959,-0.022503962,0.054208633
15.85785953,-0.016653426,0.058715015,-0.96025807,-0.27235941,-0.016653426,0.058715015
15.86956522,-0.0098253517,0.060852396,-0.98533719,-0.15909455,-0.0098253517,0.060852396
15.8812709,-0.0026952091,0.060493584,-0.99717573,-0.044427805,-0.0026952091,0.060493584
15.89297659,0.0040672582,0.057697938,-0.99585459,0.070200044,0.0040672582,0.057697938
15.90468227,0.0098451406,0.052698203,-0.98157925,0.1833798,0.0098451406,0.052698203
15.91638796,0.014115404,0.045876953,-0.95468075,0.29373583,0.014115404,0.045876953
15.92809365,0.016481994,0.037734472,-0.91561928,0.39993223,0.016481994,0.037734472
15.93979933,0.016699433,0.02885016,-0.8649881,0.50068392,0.016699433,0.02885016
15.95150502,0.014685738,0.019839886,-0.80351521,0.59477224,0.014685738,0.019839886
15.9632107,0.010523984,0.011312002,-0.73206089,0.68106397,0.010523984,0.011312002
15.97491639,0.0044525402,0.0038249147,-0.65160979,0.75853163,0.0044525402,0.0038249147
15.98662207,-0.0031552248,-0.0021508666,-0.56325709,0.82627288,-0.0031552248,-0.0021508666
15.99832776,-0.011820141,-0.0062636073,-0.46818946,0.88352684,-0.011820141,-0.0062636073
16.01003344,-0.020993024,-0.0083020959,-0.36766202,0.92968544,-0.020993024,-0.0083020959
16.02173913,-0.030094259,-0.0082069952,-0.26297356,0.96429865,-0.030094259,-0.0082069952
16.03344482,-0.038554184,-0.0060714184,-0.15544195,0.98707371,-0.038554184,-0.0060714184
16.0451505,-0.045851441,-0.002131225,-0.046382023,0.99786863,-0.045851441,-0.002131225
16.05685619,-0.051546826,0.0032537418,0.0629126,0.99668167,-0.051546826,0.0032537418
16.06856187,-0.055310744,0.009625737,0.17118274,0.98363842,-0.055310744,0.009625737
16.08026756,-0.056942994,0.016460507,0.2772119,0.95897868,-0.056942994,0.016460507
16.09197324,-0.056384199,0.023201924,0.37983006,0.92304475,-0.056384199,0.023201924
16.10367893,-0.053718668,0.029297868,0.47791434,0.87627269,-0.053718668,0.029297868
16.11538462,-0.049168838,0.034235544,0.57038812,0.81918725,-0.049168838,0.034235544
16.1270903,-0.043081705,0.037574518,0.65622044,0.75240073,-0.043081705,0.037574518
16.13879599,-0.035907839,0.038975932,0.73442741,0.67661502,-0.035907839,0.038975932
16.15050167,-0.028173822,0.038226354,0.80407695,0.59262572,-0.028173822,0.038226354
16.16220736,-0.020449177,0.035254813,0.86429771,0.50132664,-0.020449177,0.035254813
16.17391304,-0.013309271,0.030141635,0.91429226,0.40371279,-0.013309271,0.030141635
16.18561873,-0.0072960557,0.023117935,0.95335386,0.30087994,-0.0072960557,0.023117935
16.19732441,-0.0028789806,0.014555002,0.98088552,0.19401924,-0.0028789806,0.014555002
16.2090301,-0.00041875495,0.0049434333,0.9964191,0.084406,-0.00041875495,0.0049434333
16.22073579,-0.00013679312,-0.0051373358,0.99963248,-0.026617463,-0.00013679312,-0.0051373358
16.23244147,-0.0020930589,-0.015057588,0.99036232,-0.13766393,-0.0020930589,-0.015057588
16.24414716,-0.006174563,-0.024181581,0.9686107,-0.24732658,-0.006174563,-0.024181581
16.25585284,-0.012096015,-0.031914477,0.93454479,-0.35420501,-0.012096015,-0.031914477
16.26755853,-0.019413169,-0.037748521,0.88848968,-0.45692918,-0.019413169,-0.037748521
16.27926421,-0.027548403,-0.041305073,0.83091562,-0.55417887,-0.027548403,-0.041305073
16.2909699,-0.035827148,-0.042369401,0.76242213,-0.64469663,-0.035827148,-0.042369401
16.30267559,-0.043523149,-0.040915699,0.68372186,-0.72729365,-0.043523149,-0.040915699
16.31438127,-0.049910131,-0.037120416,0.59562747,-0.80084891,-0.049910131,-0.037120416
16.32608696,-0.05431727,-0.031362507,0.49904438,-0.86430361,-0.05431727,-0.031362507
16.33779264,-0.056185812,-0.024209564,0.39497149,-0.91665401,-0.056185812,-0.024209564
16.34949833,-0.05512399,-0.01638895,0.2845104,-0.95694649,-0.05512399,-0.01638895
16.36120401,-0.05095694,-0.0087431665,0.16888216,-0.98427931,-0.05095694,-0.0087431665
16.3729097,-0.043767522,-0.0021689757,0.049448453,-0.99781489,-0.043767522,-0.0021689757
16.38461538,-0.03392284,0.0024593822,-0.072267682,-0.99680518,-0.03392284,0.0024593822
16.39632107,-0.022080198,0.0043809601,-0.19456818,-0.98063066,-0.022080198,0.0043809601
16.40802676,-0.0091656079,0.0030484102,-0.31558009,-0.94884978,-0.0091656079,0.0030484102
16.41973244,0.0036814591,-0.0017698546,-0.43327537,-0.90125233,0.0036814591,-0.0017698546
16.43143813,0.015201221,-0.0098966405,-0.5455126,-0.83790631,0.015201221,-0.0098966405
16.44314381,0.024144898,-0.020675472,-0.65009708,-0.75918597,0.024144898,-0.020675472
16.4548495,0.029439624,-0.032936384,-0.74484827,-0.6657699,0.029439624,-0.032936384
16.46655518,0.030378113,-0.045009794,-0.82765558,-0.5586032,0.030378113,-0.045009794
16.47826087,0.02682257,-0.054796768,-0.89649746,-0.43882818,0.02682257,-0.054796768
16.48996656,0.019414476,-0.059901965,-0.94939639,-0.30770332,0.019414476,-0.059901965
16.50167224,0.00978695,-0.0578396,-0.98428655,-0.16654962,0.00978695,-0.0578396
16.51337793,0.00077892615,-0.046338691,-0.99878439,-0.016788978,0.00077892615,-0.046338691
16.52508361,-0.0033627556,-0.02380567,-0.98988367,0.13982958,-0.0033627556,-0.02380567
16.5367893,0.0031386411,0.0099546316,-0.95366616,0.30068574,0.0031386411,0.0099546316
16.54849498,0.027428855,0.052638668,-0.88526155,0.46129038,0.027428855,0.052638668
17.5083612,-0.99806157,0.062226212,-6.2449096e-05,-0.0010016365,-0.99806157,0.062226212
17.52006689,-0.997458,0.071250392,-6.8418152e-05,-0.00095780852,-0.997458,0.071250392
17.53177258,-0.99678359,0.080135019,-7.3665796e-05,-0.00091631421,-0.99678359,0.080135019
17.54347826,-0.99604164,0.088883473,-7.8261496e-05,-0.00087701016,-0.99604164,0.088883473
17.55518395,-0.99523526,0.097499034,-8.2268056e-05,-0.00083976289,-0.99523526,0.097499034
17.56688963,-0.99436741,0.10598488,-8.5742282e-05,-0.00080444803,-0.99436741,0.10598488
17.57859532,-0.9934409,0.11434411,-8.8735579e-05,-0.00077094964,-0.9934409,0.11434411
17.590301,-0.99245839,0.12257972,-9.1294486e-05,-0.00073915961,-0.99245839,0.12257972
17.60200669,-0.99142242,0.13069461,-9.3461153e-05,-0.00070897706,-0.99142242,0.13069461
17.61371237,-0.99033538,0.13869162,-9.5273773e-05,-0.0006803078,-0.99033538,0.13869162
17.62541806,-0.98919957,0.14657347,-9.6766961e-05,-0.00065306384,-0.98919957,0.14657347
17.63712375,-0.98801715,0.15434285,-9.7972104e-05,-0.00062716297,-0.98801715,0.15434285
17.64882943,-0.98679019,0.16200232,-9.891767e-05,-0.00060252831,-0.98679019,0.16200232
17.66053512,-0.98552065,0.16955441,-9.9629484e-05,-0.00057908793,-0.98552065,0.16955441
17.6722408,-0.98421041,0.17700156,-0.00010013098,-0.00055677452,-0.98421041,0.17700156
