freq,s11_real,s11_imag,s21_real,s21_imag,s22_real,s22_imag
14.85117057,0.20870633,0.97797817,0.00058574994,-0.0001250025,0.20870633,0.97797817
14.86287625,0.22371656,0.97465403,0.00063993117,-0.00014688617,0.22371656,0.97465403
14.87458194,0.23904515,0.97100819,0.00069965059,-0.00017224168,0.23904515,0.97100819
14.88628763,0.25470059,0.96701964,0.00076552433,-0.00020162931,0.25470059,0.96701964
14.89799331,0.27069148,0.96266576,0.00083824151,-0.00023570469,0.27069148,0.96266576
14.909699,0.28702648,0.95792217,0.00091857323,-0.00027523618,0.28702648,0.95792217
14.92140468,0.30371432,0.95276256,0.0010073824,-0.0003211256,0.30371432,0.95276256
14.93311037,0.3207637,0.94715853,0.0011056348,-0.00037443311,0.3207637,0.94715853
14.94481605,0.33818329,0.94107938,0.0012144115,-0.00043640704,0.33818329,0.94107938
14.95652174,0.35598162,0.93449186,0.0013349219,-0.00050851984,0.35598162,0.93449186
14.96822742,0.37416704,0.92735997,0.0014685187,-0.00059251136,0.37416704,0.92735997
14.97993311,0.39274759,0.91964463,0.0016167142,-0.00069044124,0.39274759,0.91964463
14.9916388,0.41173087,0.91130339,0.0017811964,-0.00080475235,0.41173087,0.91130339
15.55351171,0.021155445,-0.037733855,0.87144804,0.48857641,0.021155445,-0.037733855
15.56521739,0.0090363638,-0.025332671,0.94153087,0.3358515,0.0090363638,-0.025332671
15.57692308,0.0016689837,-0.0092260452,0.98398544,0.17800212,0.0016689837,-0.0092260452
15.58862876,-0.00015205356,0.0077585617,0.99977791,0.019593811,-0.00015205356,0.0077585617
15.60033445,0.00316298,0.023154089,0.99052745,-0.13531167,0.00316298,0.023154089
15.61204013,0.010391055,0.035153675,0.95833802,-0.28327458,0.010391055,0.035153675
15.62374582,0.019885867,0.042724936,0.90560179,-0.42150271,0.019885867,0.042724936
15.63545151,0.029911176,0.045583705,0.83483068,-0.54780031,0.029911176,0.045583705
15.64715719,0.038892149,0.044077997,0.74854291,-0.66047562,0.038892149,0.044077997
15.65886288,0.045581088,0.039026509,0.64920626,-0.75824173,0.045581088,0.039026509
15.67056856,0.049146816,0.031543945,0.53922449,-0.84013482,0.049146816,0.031543945
15.68227425,0.049201758,0.022873829,0.42094746,-0.90546077,0.049201758,0.022873829
15.69397993,0.045780764,0.014240902,0.29668688,-0.95377052,0.045780764,0.014240902
15.70568562,0.039284017,0.0067300834,0.16872436,-0.98485713,0.039284017,0.0067300834
15.7173913,0.030394848,0.0011961406,0.039304765,-0.99876417,0.030394848,0.0011961406
15.72909699,0.019982546,-0.0017937061,-0.08938618,-0.99579495,0.019982546,-0.0017937061
15.74080268,0.008999958,-0.0019838932,-0.21525652,-0.97651405,0.008999958,-0.0019838932
15.75250836,-0.0016147748,0.00057672958,-0.33634846,-0.94173604,-0.0016147748,0.00057672958
15.76421405,-0.011024035,0.0055691714,-0.45087739,-0.89250044,-0.011024035,0.0055691714
15.77591973,-0.018557782,0.012459194,-0.55726313,-0.83003505,-0.018557782,0.012459194
15.78762542,-0.023758077,0.020565148,-0.65414953,-0.75571226,-0.023758077,0.020565148
15.7993311,-0.026400101,0.029130865,-0.74041089,-0.67100383,-0.026400101,0.029130865
15.81103679,-0.026491182,0.037396479,-0.81514643,-0.57743919,-0.026491182,0.037396479
15.82274247,-0.024251162,0.044661587,-0.87766584,-0.47657098,-0.024251162,0.044661587
15.83444816,-0.02007842,0.050336907,-0.92746979,-0.36994979,-0.02007842,0.050336907
15.84615385,-0.014506158,0.053982362,-0.96422948,-0.25910805,-0.014506158,0.053982362
15.85785953,-0.0081532338,0.055330906,-0.98776855,-0.14555171,-0.0081532338,0.055330906
15.86956522,-0.0016733257,0.054298415,-0.99804954,-0.030757102,-0.0016733257,0.054298415
15.8812709,0.0042944468,0.050980596,-0.99516588,0.083829677,0.0042944468,0.050980596
15.89297659,0.0091708093,0.045638265,-0.97933917,0.19679391,0.0091708093,0.045638265
15.90468227,0.012475337,0.038672595,-0.95092036,0.30675603,0.012475337,0.038672595
15.91638796,0.013857311,0.030592202,-0.9103929,0.41237952,0.013857311,0.030592202
15.92809365,0.01311691,0.021974235,-0.85837541,0.51238339,0.01311691,0.021974235
15.93979933,0.010215651,0.013421976,-0.79562184,0.60555874,0.010215651,0.013421976
15.95150502,0.0052755563,0.0055216908,-0.72301709,0.69078793,0.0052755563,0.0055216908
15.9632107,-0.0014327501,-0.001198342,-0.64156729,0.76706448,-0.0014327501,-0.001198342
15.97491639,-0.0095120275,-0.0063038077,-0.5523844,0.8335114,-0.0095120275,-0.0063038077
15.98662207,-0.018468714,-0.0094828802,-0.45666606,0.88939591,-0.018468714,-0.0094828802
15.99832776,-0.027749122,-0.010565441,-0.35567217,0.934139,-0.027749122,-0.010565441
16.01003344,-0.036778718,-0.0095319473,-0.25070023,0.96731891,-0.036778718,-0.0095319473
16.02173913,-0.045001588,-0.0065117821,-0.14306151,0.98866873,-0.045001588,-0.0065117821
16.03344482,-0.051917361,-0.0017717358,-0.034060171,0.99806881,-0.051917361,-0.0017717358
16.0451505,-0.057113304,0.0043040576,0.075023541,0.99553554,-0.057113304,0.0043040576
16.05685619,-0.060289873,0.011240969,0.18294504,0.98120838,-0.060289873,0.011240969
16.06856187,-0.061278607,0.018505532,0.28850232,0.95533706,-0.061278607,0.018505532
16.08026756,-0.060051767,0.025539904,0.39053879,0.91827063,-0.060051767,0.025539904
16.09197324,-0.056723612,0.031797247,0.48794328,0.87044973,-0.056723612,0.031797247
16.10367893,-0.051543473,0.036776255,0.57964898,0.81240251,-0.051543473,0.036776255
16.11538462,-0.044881037,0.040053229,0.66463306,0.74474447,-0.044881037,0.040053229
16.1270903,-0.037204455,0.041310161,0.74191854,0.66818125,-0.037204455,0.041310161
16.13879599,-0.029052079,0.040357323,0.81057983,0.58351316,-0.029052079,0.040357323
16.15050167,-0.020998954,0.037148926,0.86975243,0.49163982,-0.020998954,0.037148926
16.16220736,-0.013619548,0.031790489,0.91864691,0.39356286,-0.013619548,0.031790489
16.17391304,-0.0074486393,0.024536805,0.9565663,0.29038488,-0.0074486393,0.024536805
16.18561873,-0.0029427421,0.015779829,0.98292534,0.18330336,-0.0029427421,0.015779829
16.19732441,-0.00044474976,0.0060264185,0.99726964,0.073598511,-0.00044474976,0.0060264185
16.2090301,-0.00015463105,-0.0041332956,0.99929239,-0.037384606,-0.00015463105,-0.0041332956
16.22073579,-0.0021088223,-0.014065282,0.98884633,-0.14825876,-0.0021088223,-0.014065282
16.23244147,-0.0061704704,-0.023136255,0.96594956,-0.25762005,-0.0061704704,-0.023136255
16.24414716,-0.01203189,-0.030760506,0.93078424,-0.36407378,-0.01203189,-0.030760506
16.25585284,-0.019229631,-0.036445513,0.88368862,-0.46625784,-0.019229631,-0.036445513
16.26755853,-0.027171559,-0.039832984,0.82514378,-0.56286124,-0.027171559,-0.039832984
16.27926421,-0.035174488,-0.040732325,0.75575766,-0.65263618,-0.035174488,-0.040732325
16.2909699,-0.042510289,-0.039144116,0.67624925,-0.73440286,-0.042510289,-0.039144116
16.30267559,-0.048458034,-0.035271768,0.58743628,-0.80704792,-0.048458034,-0.035271768
16.31438127,-0.052359626,-0.029520027,0.49022907,-0.86951854,-0.052359626,-0.029520027
16.32608696,-0.053676237,-0.022479312,0.38563244,-0.92081549,-0.053676237,-0.022479312
16.33779264,-0.052042713,-0.014895019,0.27475612,-0.95998894,-0.052042713,-0.014895019
16.34949833,-0.047316575,-0.0076210119,0.15883223,-0.98614166,-0.047316575,-0.0076210119
16.36120401,-0.039617403,-0.0015568795,0.039236682,-0.99844305,-0.039617403,-0.0015568795
16.3729097,-0.029351273,0.0024305541,-0.082490878,-0.99615654,-0.029351273,0.0024305541
16.38461538,-0.017213879,0.0035992981,-0.20463502,-0.97868036,-0.017213879,0.0035992981
16.39632107,-0.0041654817,0.0014330209,-0.32530734,-0.94559808,-0.0041654817,0.0014330209
16.40802676,0.0086283826,-0.0042574569,-0.44246963,-0.89673187,0.0086283826,-0.0042574569
16.41973244,0.019894127,-0.01324332,-0.55397892,-0.8321876,0.019894127,-0.01324332
16.43143813,0.028384846,-0.02481102,-0.65765028,-0.75237944,0.028384846,-0.02481102
16.44314381,0.033047287,-0.037733117,-0.75132529,-0.6580231,0.033047287,-0.037733117
16.4548495,0.033211731,-0.05028778,-0.83292641,-0.55009246,0.033211731,-0.05028778
16.46655518,0.028794272,-0.060334378,-0.90047178,-0.42974553,0.028794272,-0.060334378
16.47826087,0.020503743,-0.065450665,-0.95202331,-0.29824053,0.020503743,-0.065450665
16.48996656,0.010051163,-0.06314184,-0.98554544,-0.15688295,0.010051163,-0.06314184
16.50167224,0.00036207899,-0.051148849,-0.99866595,-0.0070694838,0.00036207899,-0.051148849
16.51337793,-0.0042219279,-0.027916659,-0.98836257,0.14947331,-0.0042219279,-0.027916659
16.52508361,0.0021766782,0.0066725141,-0.95067037,0.3101235,0.0021766782,0.0066725141
16.5367893,0.026798279,0.050176985,-0.8806528,0.47033474,0.026798279,0.050176985
16.54849498,0.077315196,0.096079242,-0.77313138,0.62214067,0.077315196,0.096079242
17.5083612,-0.99745997,0.071222746,-6.8807528e-05,-0.00096363533,-0.99745997,0.071222746
17.52006689,-0.99678506,0.080116762,-7.4103356e-05,-0.00092196834,-0.99678506,0.080116762
17.53177258,-0.99604241,0.088874858,-7.8743428e-05,-0.00088249697,-0.99604241,0.088874858
17.54347826,-0.99523513,0.097500298,-8.2790783e-05,-0.00084508764,-0.99523513,0.097500298
17.55518395,-0.9943662,0.10599625,-8.6302452e-05,-0.00080961585,-0.9943662,0.10599625
17.56688963,-0.9934384,0.11436578,-8.9330053e-05,-0.00077596556,-0.9934384,0.11436578
17.57859532,-0.99245441,0.12261188,-9.1920327e-05,-0.00074402852,-0.99245441,0.12261188
17.590301,-0.99141677,0.13073744,-9.4115614e-05,-0.00071370371,-0.99141677,0.13073744
17.60200669,-0.99032786,0.13874528,-9.5954285e-05,-0.00068489683,-0.99032786,0.13874528
17.61371237,-0.98918998,0.14663812,-9.7471126e-05,-0.00065751975,-0.98918998,0.14663812
17.62541806,-0.9880053,0.15441862,-9.8697682e-05,-0.00063149012,-0.9880053,0.15441862
17.63712375,-0.98677589,0.16208935,-9.9662572e-05,-0.00060673093,-0.98677589,0.16208935
17.64882943,-0.98550372,0.16965281,-0.00010039176,-0.00058317014,-0.98550372,0.16965281
17.66053512,-0.98419064,0.17711143,-0.00010090882,-0.0005607403,-0.98419064,0.17711143
17.6722408,-0.98283845,0.18446758,-0.00010123515,-0.00053937824,-0.98283845,0.18446758
