freq,s11_real,s11_imag,s21_real,s21_imag,s22_real,s22_imag
14.85117057,0.18526135,0.98268913,0.00053830597,-0.00010148407,0.18526135,0.98268913
14.86287625,0.19989666,0.9798168,0.00058785434,-0.0001199307,0.19989666,0.9798168
14.87458194,0.21484356,0.97664825,0.00064245124,-0.00014132674,0.21484356,0.97664825
14.88628763,0.23011066,0.9731642,0.00070265826,-0.00016614787,0.23011066,0.9731642
14.89799331,0.24570674,0.96934389,0.00076910391,-0.00019495044,0.24570674,0.96934389
14.909699,0.26164069,0.96516495,0.00084249196,-0.00022838602,0.26164069,0.96516495
14.92140468,0.27792153,0.9606033,0.00092361074,-0.00026721885,0.27792153,0.9606033
14.93311037,0.29455836,0.9556329,0.0010133436,-0.00031234674,0.29455836,0.9556329
14.94481605,0.31156031,0.95022566,0.0011126804,-0.00036482601,0.31156031,0.95022566
14.95652174,0.32893651,0.94435115,0.0012227306,-0.00042590168,0.32893651,0.94435115
14.96822742,0.34669601,0.93797645,0.0013447377,-0.00049704362,0.34669601,0.93797645
14.97993311,0.36484773,0.93106584,0.0014800947,-0.00057999033,0.36484773,0.93106584
14.9916388,0.38340034,0.92358056,0.0016303613,-0.00067680189,0.38340034,0.92358056
15.55351171,0.039478529,-0.050170486,0.78426712,0.61713001,0.039478529,-0.050170486
15.56521739,0.022810612,-0.042343714,0.87936409,0.47371455,0.022810612,-0.042343714
15.57692308,0.0095327316,-0.028148411,0.94674061,0.32062286,0.0095327316,-0.028148411
15.58862876,0.001731655,-0.010497723,0.98661053,0.16274664,0.001731655,-0.010497723
15.60033445,-3.5632396e-05,0.0076529359,0.99995988,0.0046558558,-3.5632396e-05,0.0076529359
15.61204013,0.0036017856,0.023797134,0.98845271,-0.14960603,0.0036017856,0.023797134
15.62374582,0.011239359,0.036154728,0.95423784,-0.2966423,0.011239359,0.036154728
15.63545151,0.021095753,0.043762496,0.8997374,-0.43371929,0.021095753,0.043762496
15.64715719,0.031346921,0.046426705,0.82747364,-0.55870324,0.031346921,0.046426705
15.65886288,0.040372418,0.044590689,0.73995801,-0.66995812,0.040372418,0.044590689
15.67056856,0.046913341,0.039162198,0.63964068,-0.76624099,0.046913341,0.039162198
15.68227425,0.050153381,0.031332047,0.52890369,-0.84661905,0.050153381,0.031332047
15.69397993,0.049738207,0.022403411,0.41007658,-0.91041825,0.049738207,0.022403411
15.70568562,0.045747585,0.013642777,0.28545544,-0.95720229,0.045747585,0.013642777
15.7173913,0.038632481,0.0061588129,0.15731206,-0.98677379,0.038632481,0.0061588129
15.72909699,0.029127838,0.00081293139,0.027886378,-0.9991863,0.029127838,0.00081293139
15.74080268,0.018151023,-0.0018363129,-0.10063802,-0.99475583,0.018151023,-0.0018363129
15.75250836,0.006695849,-0.0015547329,-0.22617121,-0.97406331,0.006695849,-0.0015547329
15.76421405,-0.0042683053,0.0015780032,-0.34675984,-0.93794291,-0.0042683053,0.0015780032
15.77591973,-0.013883813,0.0072063024,-0.46062795,-0.88745546,-0.013883813,0.0072063024
15.78762542,-0.021472176,0.01475723,-0.56620908,-0.82384977,-0.021472176,0.01475723
15.7993311,-0.026577786,0.023511693,-0.66216568,-0.74851682,-0.026577786,0.023511693
15.81103679,-0.028987354,0.032680024,-0.74739449,-0.66294286,-0.028987354,0.032680024
15.82274247,-0.028726817,0.041474697,-0.82101943,-0.56866661,-0.028726817,0.041474697
15.83444816,-0.026039401,0.049174527,-0.88237543,-0.4672445,-0.026039401,0.049174527
15.84615385,-0.021349427,0.055176633,-0.9309872,-0.36022574,-0.021349427,0.055176633
15.85785953,-0.015216654,0.059034245,-0.96654753,-0.24913708,-0.015216654,0.059034245
15.86956522,-0.0082855325,0.060479858,-0.98889832,-0.13547567,-0.0082855325,0.060479858
15.8812709,-0.0012331674,0.059434232,-0.99801666,-0.020707286,-0.0012331674,0.059434232
15.89297659,0.0052809207,0.056002317,-0.99400702,0.093733126,0.0052809207,0.056002317
15.90468227,0.010660666,0.050457509,-0.97709891,0.20644154,0.010660666,0.050457509
15.91638796,0.014412819,0.043215894,-0.94764888,0.31604788,0.014412819,0.043215894
15.92809365,0.016177968,0.034802359,-0.90614443,0.42122362,0.016177968,0.034802359
15.93979933,0.015751724,0.025810721,-0.85320765,0.52069415,0.015751724,0.025810721
15.95150502,0.01309497,0.016860401,-0.78959598,0.6132556,0.01309497,0.016860401
15.9632107,0.0083326559,0.0085524247,-0.71619844,0.69779453,0.0083326559,0.0085524247
15.97491639,0.0017413313,0.0014276964,-0.63402613,0.77330835,0.0017413313,0.0014276964
15.98662207,-0.0062735739,-0.0040695681,-0.54419686,0.83892422,-0.0062735739,-0.0040695681
15.99832776,-0.015208903,-0.0076207449,-0.44791485,0.89391437,-0.015208903,-0.0076207449
16.01003344,-0.024500889,-0.0090521521,-0.34644688,0.93770588,-0.024500889,-0.0090521521
16.02173913,-0.03356535,-0.0083437894,-0.2410972,0.96988447,-0.03356535,-0.0083437894
16.03344482,-0.041837975,-0.0056273135,-0.13318332,0.99019196,-0.041837975,-0.0056273135
16.0451505,-0.048811908,-0.0011739435,-0.024014721,0.99851856,-0.048811908,-0.0011739435
16.05685619,-0.05407031,0.0046263247,0.085124176,0.99489139,-0.05407031,0.0046263247
16.06856187,-0.057312142,0.011292364,0.19298586,0.97946121,-0.057312142,0.011292364
16.08026756,-0.058370062,0.018284382,0.29836664,0.95248935,-0.058370062,0.018284382
16.09197324,-0.05721986,0.025039142,0.4001094,0.91433659,-0.05721986,0.025039142
16.10367893,-0.053981345,0.031006006,0.49710342,0.86545527,-0.053981345,0.031006006
16.11538462,-0.048910864,0.035682003,0.58828329,0.80638533,-0.048910864,0.035682003
16.1270903,-0.042385935,0.038644288,0.67262837,0.73775411,-0.042385935,0.038644288
16.13879599,-0.034882596,0.039578423,0.74916485,0.66027932,-0.034882596,0.039578423
16.15050167,-0.026946352,0.038300984,0.81697133,0.57477367,-0.026946352,0.038300984
16.16220736,-0.01915787,0.034775013,0.87518887,0.48214948,-0.01915787,0.034775013
16.17391304,-0.012094952,0.02911697,0.92303523,0.38342129,-0.012094952,0.02911697
16.18561873,-0.006292786,0.021594064,0.95982262,0.27970456,-0.006292786,0.021594064
16.19732441,-0.0022049059,0.012611308,0.98497722,0.17220911,-0.0022049059,0.012611308
16.2090301,-0.00016760829,0.0026882926,0.99805842,0.062226434,-0.00016760829,0.0026882926
16.22073579,-0.00037071281,-0.007573484,0.99877544,-0.048888841,-0.00037071281,-0.007573484
16.23244147,-0.0028373318,-0.017531013,0.986999,-0.15974226,-0.0028373318,-0.017531013
16.24414716,-0.007414793,-0.026545316,0.96276653,-0.26892559,-0.007414793,-0.026545316
16.25585284,-0.013778031,-0.03402895,0.92628019,-0.37504294,-0.013778031,-0.03402895
16.26755853,-0.021445766,-0.039492009,0.87789799,-0.47673428,-0.021445766,-0.039492009
16.27926421,-0.029808765,-0.04258322,0.81811982,-0.57269369,-0.029808765,-0.04258322
16.2909699,-0.038168642,-0.043123144,0.74757072,-0.66168086,-0.038168642,-0.043123144
16.30267559,-0.045785007,-0.04112709,0.66698473,-0.7425252,-0.045785007,-0.04112709
16.31438127,-0.051928496,-0.03681596,0.57719242,-0.81412341,-0.051928496,-0.03681596
16.32608696,-0.055937068,-0.030613762,0.47911505,-0.87543281,-0.055937068,-0.030613762
16.33779264,-0.057272908,-0.02313081,0.37376702,-0.92546366,-0.057272908,-0.02313081
16.34949833,-0.055577063,-0.015131754,0.26226712,-0.96327471,-0.055577063,-0.015131754
16.36120401,-0.050718429,-0.0074876677,0.14585702,-0.98797637,-0.050718429,-0.0074876677
16.3729097,-0.042832795,-0.0011117726,0.025923537,-0.99874526,-0.042832795,-0.0011117726
16.38461538,-0.032346522,0.0031207037,-0.095980649,-0.99485259,-0.032346522,0.0031207037
16.39632107,-0.019978318,0.0044662689,-0.21812478,-0.97570615,-0.019978318,0.0044662689
16.40802676,-0.0067121268,0.002415498,-0.33860317,-0.94090223,-0.0067121268,0.002415498
16.41973244,0.0062650333,-0.0032044318,-0.45535933,-0.89027993,0.0062650333,-0.0032044318
16.43143813,0.017663925,-0.012138703,-0.56623252,-0.82396685,0.017663925,-0.012138703
16.44314381,0.026231998,-0.023639156,-0.66902207,-0.74240322,0.026231998,-0.023639156
16.4548495,0.030924706,-0.0364377,-0.76155669,-0.64633379,0.030924706,-0.0364377
16.46655518,0.031099481,-0.048770064,-0.8417484,-0.53676245,0.031099481,-0.048770064
16.47826087,0.026721532,-0.05845736,-0.90760463,-0.41487652,0.026721532,-0.05845736
16.48996656,0.018573607,-0.063051222,-0.95717103,-0.2819631,0.018573607,-0.063051222
16.50167224,0.0084674928,-0.060053652,-0.98838274,-0.13936078,0.0084674928,-0.060053652
16.51337793,-0.00054316204,-0.047241075,-0.99881735,0.011484067,-0.00054316204,-0.047241075
16.52508361,-0.0039658271,-0.023156955,-0.98537808,0.16875445,-0.0039658271,-0.023156955
16.5367893,0.0042318655,0.012118433,-0.9440132,0.32965788,0.0042318655,0.012118433
16.54849498,0.031395258,0.055800066,-0.86973585,0.48934676,0.031395258,0.055800066
17.5083612,-0.99784758,0.065568347,-6.5256609e-05,-0.00099310341,-0.99784758,0.065568347
17.52006689,-0.99721699,0.074547706,-7.0997212e-05,-0.0009497224,-0.99721699,0.074547706
17.53177258,-0.9965167,0.083388414,-7.6035596e-05,-0.00090864831,-0.9965167,0.083388414
17.54347826,-0.99574995,0.09209383,-8.0439518e-05,-0.00086973954,-0.99574995,0.09209383
17.55518395,-0.9949198,0.10066721,-8.4270235e-05,-0.00083286426,-0.9949198,0.10066721
17.56688963,-0.99402917,0.10911173,-8.7583152e-05,-0.00079789962,-0.99402917,0.10911173
17.57859532,-0.99308081,0.11743044,-9.0428406e-05,-0.00076473112,-0.99308081,0.11743044
17.590301,-0.99207735,0.12562634,-9.2851385e-05,-0.00073325194,-0.99207735,0.12562634
17.60200669,-0.99102129,0.1337023,-9.4893196e-05,-0.00070336244,-0.99102129,0.1337023
17.61371237,-0.98991497,0.14166114,-9.6591082e-05,-0.00067496956,-0.98991497,0.14166114
17.62541806,-0.98876066,0.14950558,-9.7978797e-05,-0.00064798638,-0.98876066,0.14950558
17.63712375,-0.98756049,0.15723826,-9.9086944e-05,-0.00062233167,-0.98756049,0.15723826
17.64882943,-0.9863165,0.16486176,-9.9943279e-05,-0.00059792946,-0.9863165,0.16486176
17.66053512,-0.9850306,0.17237857,-0.00010057298,-0.00057470868,-0.9850306,0.17237857
17.6722408,-0.98370465,0.17979111,-0.00010099889,-0.00055260282,-0.98370465,0.17979111
