freq,s11_real,s11_imag,s21_real,s21_imag,s22_real,s22_imag
14.85117057,0.23737031,0.97141895,0.00073101116,-0.00017862566,0.23737031,0.97141895
14.86287625,0.25282463,0.96751177,0.00080007534,-0.0002090711,0.25282463,0.96751177
14.87458194,0.26860739,0.96324931,0.00087635809,-0.0002443773,0.26860739,0.96324931
14.88628763,0.28472725,0.95860805,0.00096068118,-0.00028534301,0.28472725,0.95860805
14.89799331,0.30119294,0.95356258,0.001053966,-0.00033290644,0.30119294,0.95356258
14.909699,0.31801326,0.94808548,0.001157246,-0.00038817129,0.31801326,0.94808548
14.92140468,0.33519699,0.9421471,0.0012716803,-0.00045243829,0.33519699,0.9421471
14.93311037,0.35275289,0.93571532,0.0013985695,-0.00052724308,0.35275289,0.93571532
14.94481605,0.37068956,0.92875535,0.0015393721,-0.00061440202,0.37068956,0.92875535
14.95652174,0.38901543,0.9212294,0.0016957235,-0.0007160677,0.38901543,0.9212294
14.96822742,0.40773863,0.91309639,0.0018694562,-0.0008347963,0.40773863,0.91309639
14.97993311,0.42686685,0.90431161,0.0020626212,-0.00097362968,0.42686685,0.90431161
14.9916388,0.44640721,0.89482631,0.0022775117,-0.0011361956,0.44640721,0.89482631
15.55351171,-0.00086254515,0.0070963087,0.99266848,0.12065729,-0.00086254515,0.0070963087
15.56521739,0.0012023707,0.033141469,0.99879284,-0.036236151,0.0012023707,0.033141469
15.57692308,0.010635454,0.055464964,0.98054027,-0.18801943,0.010635454,0.055464964
15.58862876,0.025386618,0.07203977,0.94039593,-0.33139295,0.025386618,0.07203977
15.60033445,0.043084053,0.08183452,0.88106687,-0.46386209,0.043084053,0.08183452
15.61204013,0.061396916,0.084712571,0.8052563,-0.58362358,0.061396916,0.084712571
15.62374582,0.078285453,0.081252282,0.7155334,-0.68940656,0.078285453,0.081252282
15.63545151,0.092147927,0.072541453,0.61428842,-0.78031804,0.092147927,0.072541453
15.64715719,0.1018863,0.059978467,0.50374699,-0.85572235,0.1018863,0.059978467
15.65886288,0.10691331,0.045095806,0.38601495,-0.91516576,0.10691331,0.045095806
15.67056856,0.10711913,0.029411342,0.26312933,-0.9583441,0.10711913,0.029411342
15.68227425,0.10280987,0.014308229,0.13709862,-0.98510374,0.10280987,0.014308229
15.69397993,0.09462661,0.00094323004,0.0099226903,-0.99546294,0.09462661,0.00094323004
15.70568562,0.083451639,-0.0098163262,-0.11641033,-0.98964039,0.083451639,-0.0098163262
15.7173913,0.070308138,-0.017426549,-0.23994785,-0.9680796,0.070308138,-0.017426549
15.72909699,0.056260493,-0.021672279,-0.35881101,-0.93146107,0.056260493,-0.021672279
15.74080268,0.04232232,-0.022645608,-0.47123946,-0.88069823,0.04232232,-0.022645608
15.75250836,0.029378958,-0.020701667,-0.5756345,-0.81691691,0.029378958,-0.020701667
15.76421405,0.018129558,-0.01639766,-0.67059423,-0.74142148,0.018129558,-0.01639766
15.77591973,0.0090516591,-0.010422328,-0.75493643,-0.65565267,0.0090516591,-0.010422328
15.78762542,0.0023885602,-0.0035232207,-0.82770798,-0.56114292,0.0023885602,-0.0035232207
15.7993311,-0.0018425107,0.0035616456,-0.88818199,-0.45947435,-0.0018425107,0.0035616456
15.81103679,-0.003825113,0.010162622,-0.9358455,-0.35224322,-0.003825113,0.010162622
15.82274247,-0.0039057868,0.015724444,-0.97038176,-0.24103264,-0.0039057868,0.015724444
15.83444816,-0.0025484951,0.019837837,-0.99165054,-0.12739376,-0.0025484951,0.019837837
15.84615385,-0.00028573999,0.022256549,-0.99966987,-0.01283423,-0.00028573999,0.022256549
15.85785953,0.0023298623,0.022900692,-0.99460095,0.10118835,0.0023298623,0.022900692
15.86956522,0.0047704869,0.021847917,-0.97673726,0.21327032,0.0047704869,0.021847917
15.8812709,0.0065721133,0.019314361,-0.94649754,0.32206549,0.0065721133,0.019314361
15.89297659,0.0073658686,0.015627505,-0.90442153,0.42629007,0.0073658686,0.015627505
15.90468227,0.0069004439,0.011193243,-0.85116712,0.52473005,0.0069004439,0.011193243
15.91638796,0.0050548203,0.0064595523,-0.787507,0.61625112,0.0050548203,0.0064595523
15.92809365,0.0018410502,0.0018792296,-0.71432338,0.69981082,0.0018410502,0.0018792296
15.93979933,-0.0026026179,-0.0021258569,-0.63259983,0.77447153,-0.0026026179,-0.0021258569
15.95150502,-0.0080274055,-0.0051966886,-0.5434096,0.83941323,-0.0080274055,-0.0051966886
15.9632107,-0.014097047,-0.0070631663,-0.44790068,0.89394428,-0.014097047,-0.0070631663
15.97491639,-0.020416327,-0.0075627519,-0.34727844,0.93750929,-0.020416327,-0.0075627519
15.98662207,-0.02656289,-0.0066506846,-0.24278694,0.96969309,-0.02656289,-0.0066506846
15.99832776,-0.032120001,-0.0044014156,-0.13569031,0.99022072,-0.032120001,-0.0044014156
16.01003344,-0.036707944,-0.0010015453,-0.027255612,0.99895378,-0.036707944,-0.0010015453
16.02173913,-0.040012052,0.0032648927,0.081261872,0.99588397,-0.040012052,0.0032648927
16.03344482,-0.041805679,0.0080375228,0.18863023,0.98112503,-0.041805679,0.0080375228
16.0451505,-0.041966888,0.012905533,0.29364935,0.95490433,-0.041966888,0.012905533
16.05685619,-0.040488058,0.017436686,0.39515664,0.9175554,-0.040488058,0.017436686
16.06856187,-0.037478018,0.021207686,0.49203082,0.8695121,-0.037478018,0.021207686
16.08026756,-0.033156674,0.023834194,0.58319499,0.81130523,-0.033156674,0.023834194
16.09197324,-0.027842395,0.024998812,0.66762018,0.74356114,-0.027842395,0.024998812
16.10367893,-0.021932717,0.024475467,0.74433054,0.66700222,-0.021932717,0.024475467
16.11538462,-0.015879219,0.022148677,0.81241099,0.582448,-0.015879219,0.022148677
16.1270903,-0.010157769,0.018026312,0.87101771,0.49081567,-0.010157769,0.018026312
16.13879599,-0.0052356537,0.012244684,0.91939128,0.39311871,-0.0052356537,0.012244684
16.15050167,-0.0015375245,0.0050650785,0.95687182,0.29046221,-0.0015375245,0.0050650785
16.16220736,0.00058765993,-0.0031386547,0.98291467,0.18403412,0.00058765993,-0.0031386547
16.17391304,0.00089628413,-0.011901271,0.99710519,0.075091941,0.00089628413,-0.011901271
16.18561873,-0.00072606585,-0.020695172,0.99917083,-0.035054737,-0.00072606585,-0.020695172
16.19732441,-0.0042486888,-0.028965722,0.98898895,-0.14506478,-0.0042486888,-0.028965722
16.2090301,-0.009489472,-0.036170636,0.96658936,-0.25358754,-0.009489472,-0.036170636
16.22073579,-0.016119212,-0.041820775,0.9321513,-0.35928422,-0.016119212,-0.041820775
16.23244147,-0.023676773,-0.045519508,0.88599537,-0.46084661,-0.023676773,-0.045519508
16.24414716,-0.031594535,-0.046997876,0.82857195,-0.55701123,-0.031594535,-0.046997876
16.25585284,-0.039232936,-0.046143039,0.76044815,-0.64656802,-0.039232936,-0.046143039
16.26755853,-0.045922432,-0.043017948,0.68229591,-0.72836315,-0.045922432,-0.043017948
16.27926421,-0.051010907,-0.037870553,0.59488381,-0.80129705,-0.051010907,-0.037870553
16.2909699,-0.053914387,-0.031131193,0.49907466,-0.86431972,-0.053914387,-0.031131193
16.30267559,-0.054168724,-0.023397005,0.39583034,-0.91642603,-0.054168724,-0.023397005
16.31438127,-0.051479569,-0.015402283,0.28622365,-0.95665493,-0.051479569,-0.015402283
16.32608696,-0.045767347,-0.0079738992,0.17145589,-0.98409585,-0.045767347,-0.0079738992
16.33779264,-0.037203054,-0.0019712996,0.052876611,-0.99790586,-0.037203054,-0.0019712996
16.34949833,-0.026229657,0.0017883539,-0.067999172,-0.99733892,-0.026229657,0.0017883539
16.36120401,-0.013562969,0.0026176205,-0.18948253,-0.98178693,-0.013562969,0.0026176205
16.3729097,-0.00016563683,5.3953486e-05,-0.30971691,-0.9508288,-0.00016563683,5.3953486e-05
16.38461538,0.012811203,-0.0060452379,-0.4267039,-0.90428044,0.012811203,-0.0060452379
16.39632107,0.024121622,-0.015418317,-0.53834911,-0.84223551,0.024121622,-0.015418317
16.40802676,0.032553101,-0.027338305,-0.64252385,-0.76508562,0.032553101,-0.027338305
16.41973244,0.037084029,-0.040587016,-0.73713054,-0.67351023,0.037084029,-0.040587016
16.43143813,0.037061842,-0.053474109,-0.82015356,-0.56843213,0.037061842,-0.053474109
16.44314381,0.032392434,-0.063907312,-0.88967178,-0.45094425,0.032392434,-0.063907312
16.4548495,0.023734448,-0.069518496,-0.94380793,-0.32222733,0.023734448,-0.069518496
16.46655518,0.012697483,-0.067854807,-0.98059359,-0.18349578,0.012697483,-0.067854807
16.47826087,0.0020461762,-0.056659957,-0.99774104,-0.036031689,0.0020461762,-0.056659957
16.48996656,-0.004099688,-0.034301627,-0.99234059,0.11860332,-0.004099688,-0.034301627
16.50167224,-0.00012823197,-0.00044298694,-0.96056479,0.27805587,-0.00012823197,-0.00044298694
16.51337793,0.020955009,0.04291997,-0.89759071,0.43823473,0.020955009,0.04291997
16.52508361,0.066758044,0.090023591,-0.79818103,0.59190046,0.066758044,0.090023591
16.5367893,0.14340204,0.12988143,-0.65861747,0.72717927,0.14340204,0.12988143
16.54849498,0.25156783,0.1461143,-0.4805214,0.82732305,0.25156783,0.1461143
17.5083612,-0.99700966,0.077271362,-7.2147718e-05,-0.00093090078,-0.99700966,0.077271362
17.52006689,-0.99629148,0.086037747,-7.6993608e-05,-0.00089156304,-0.99629148,0.086037747
17.53177258,-0.99550806,0.094672946,-8.1239803e-05,-0.00085425543,-0.99550806,0.094672946
17.54347826,-0.99466236,0.10318004,-8.494308e-05,-0.00081885687,-0.99466236,0.10318004
17.55518395,-0.99375716,0.11156201,-8.8154901e-05,-0.00078525441,-0.99375716,0.11156201
17.56688963,-0.99279513,0.11982178,-9.0921926e-05,-0.00075334257,-0.99279513,0.11982178
17.57859532,-0.99177878,0.12796215,-9.3286486e-05,-0.00072302286,-0.99177878,0.12796215
17.590301,-0.99071053,0.13598587,-9.5286991e-05,-0.00069420321,-0.99071053,0.13598587
17.60200669,-0.98959264,0.1438956,-9.6958314e-05,-0.00066679756,-0.98959264,0.1438956
17.61371237,-0.9884273,0.15169393,-9.8332121e-05,-0.00064072541,-0.9884273,0.15169393
17.62541806,-0.98721657,0.15938337,-9.9437182e-05,-0.00061591139,-0.98721657,0.15938337
17.63712375,-0.98596241,0.16696637,-0.00010029964,-0.00059228497,-0.98596241,0.16696637
17.64882943,-0.9846667,0.1744453,-0.00010094325,-0.00056978005,-0.9846667,0.1744453
17.66053512,-0.98333121,0.18182247,-0.00010138961,-0.00054833468,-0.98333121,0.18182247
17.6722408,-0.98195766,0.18910013,-0.00010165837,-0.0005278908,-0.98195766,0.18910013
