freq,s11_real,s11_imag,s21_real,s21_imag,s22_real,s22_imag
14.85117057,0.21407716,0.97681648,0.00071229195,-0.00015610449,0.21407716,0.97681648
14.86287625,0.2293101,0.97335309,0.00077987141,-0.00018372818,0.2293101,0.97335309
14.87458194,0.24487412,0.96955448,0.0008545617,-0.00021583114,0.24487412,0.96955448
14.88628763,0.26077858,0.96539815,0.00093718085,-0.00025315637,0.26077858,0.96539815
14.89799331,0.27703298,0.96085981,0.0010286478,-0.00029657745,0.27703298,0.96085981
14.909699,0.29364698,0.9559132,0.0011299951,-0.00034712319,0.29364698,0.9559132
14.92140468,0.31063033,0.9505299,0.0012423839,-0.00040600734,0.31063033,0.9505299
14.93311037,0.32799287,0.94467909,0.0013671196,-0.00047466437,0.32799287,0.94467909
14.94481605,0.34574445,0.93832734,0.0015056707,-0.00055479284,0.34574445,0.93832734
14.95652174,0.36389485,0.93143833,0.0016596883,-0.00064840794,0.36389485,0.93143833
14.96822742,0.38245374,0.92397252,0.0018310286,-0.00075790538,0.38245374,0.92397252
14.97993311,0.40143055,0.91588681,0.0020217777,-0.00088613933,0.40143055,0.91588681
14.9916388,0.42083436,0.90713416,0.002234277,-0.0010365176,0.42083436,0.90713416
15.55351171,-0.001712337,0.01026339,0.9863129,0.16455577,-0.001712337,0.01026339
15.56521739,-0.00027184415,0.036024684,0.99932241,0.0075409391,-0.00027184415,0.036024684
15.57692308,0.0085396298,0.058033056,0.98764247,-0.14533271,0.0085396298,0.058033056
15.58862876,0.022622128,0.074219068,0.95366908,-0.29068034,0.022622128,0.074219068
15.60033445,0.039535405,0.083541662,0.90002358,-0.42592876,0.039535405,0.083541662
15.61204013,0.056876665,0.085887936,0.82932207,-0.54919324,0.056876665,0.085887936
15.62374582,0.072542314,0.081890654,0.7440472,-0.65910947,0.072542314,0.081890654
15.63545151,0.084884203,0.072718217,0.64651,-0.75467314,0.084884203,0.072718217
15.64715719,0.092783211,0.059869846,0.53887333,-0.8351182,0.092783211,0.059869846
15.65886288,0.095662984,0.044991212,0.42320574,-0.89984515,0.095662984,0.044991212
15.67056856,0.093461101,0.029715633,0.3015394,-0.94839654,0.093461101,0.029715633
15.68227425,0.086569029,0.015532023,0.17591352,-0.98046876,0.086569029,0.015532023
15.69397993,0.075748384,0.0036806034,0.048392836,-0.99594516,0.075748384,0.0036806034
15.70568562,0.062029775,-0.0049216745,-0.078941891,-0.99493531,0.062029775,-0.0049216745
15.7173913,0.046601223,-0.0097237475,-0.20402786,-0.97780694,0.046601223,-0.0097237475
15.72909699,0.030694535,-0.010549888,-0.32487107,-0.94520121,0.030694535,-0.010549888
15.74080268,0.01547885,-0.0075772387,-0.43960378,-0.89802645,0.01547885,-0.0075772387
15.75250836,0.0019701306,-0.0012857801,-0.54653832,-0.83743079,0.0019701306,-0.0012857801
15.76421405,-0.0090365819,0.0076121429,-0.6442091,-0.76475815,-0.0090365819,0.0076121429
15.77591973,-0.017008398,0.018253857,-0.73139776,-0.68149455,-0.017008398,0.018253857
15.78762542,-0.021688934,0.02971086,-0.80714027,-0.58921256,-0.021688934,0.02971086
15.7993311,-0.023088454,0.041067802,-0.87071807,-0.48952058,-0.023088454,0.041067802
15.81103679,-0.021454527,0.051490012,-0.92163746,-0.38402198,-0.021454527,0.051490012
15.82274247,-0.017228877,0.060276033,-0.95960259,-0.27428606,-0.017228877,0.060276033
15.83444816,-0.01099607,0.066893785,-0.98448719,-0.16183103,-0.01099607,0.066893785
15.84615385,-0.0034289936,0.071000685,-0.99630914,-0.048116967,-0.0034289936,0.071000685
15.85785953,0.0047649169,0.072449088,-0.99521062,0.065454183,0.0047649169,0.072449088
15.86956522,0.012893751,0.071278963,-0.98144506,0.17753497,0.012893751,0.071278963
15.8812709,0.020325349,0.067699871,-0.95537067,0.28682834,0.020325349,0.067699871
15.89297659,0.026524126,0.062064329,-0.91744931,0.39208578,0.026524126,0.062064329
15.90468227,0.031079352,0.054834577,-0.86824863,0.49210929,0.031079352,0.054834577
15.91638796,0.033724015,0.046544854,-0.8084453,0.58575802,0.033724015,0.046544854
15.92809365,0.034343741,0.037761326,-0.73882687,0.6719594,0.034343741,0.037761326
15.93979933,0.032975583,0.029041992,-0.6602906,0.74972362,0.032975583,0.029041992
15.95150502,0.029797037,0.020898931,-0.57383781,0.81815985,0.029797037,0.020898931
15.9632107,0.025106165,0.013765215,-0.48056348,0.87649241,0.025106165,0.013765215
15.97491639,0.019294374,0.0079685413,-0.3816412,0.92407479,0.019294374,0.0079685413
15.98662207,0.012813868,0.003713202,-0.27830472,0.96040018,0.012813868,0.003713202
15.99832776,0.0061422127,0.0010713564,-0.1718275,0.98510732,0.0061422127,0.0010713564
16.01003344,-0.00025341928,-1.6125163e-05,-0.063501947,0.99798168,-0.00025341928,-1.6125163e-05
16.02173913,-0.005949853,0.00027028704,0.045379911,0.99895205,-0.005949853,0.00027028704
16.03344482,-0.010597167,0.0016467454,0.15354314,0.98808375,-0.010597167,0.0016467454
16.0451505,-0.013941881,0.003750438,0.25974326,0.96556978,-0.013941881,0.003750438
16.05685619,-0.015842861,0.0061685935,0.362776,0.93172127,-0.015842861,0.0061685935
16.06856187,-0.016279274,0.0084700971,0.4614841,0.88695866,-0.016279274,0.0084700971
16.08026756,-0.015350372,0.010237742,0.55476185,0.83180457,-0.015350372,0.010237742
16.09197324,-0.013267326,0.011099237,0.64155878,0.76687881,-0.013267326,0.011099237
16.10367893,-0.010337645,0.01075521,0.72088356,0.69289562,-0.010337645,0.01075521
16.11538462,-0.0069430318,0.009002615,0.79180946,0.61066237,-0.0069430318,0.009002615
16.1270903,-0.0035118329,0.0057520772,0.85348192,0.52107888,-0.0035118329,0.0057520772
16.13879599,-0.00048752632,0.0010379599,0.90512877,0.42513598,-0.00048752632,0.0010379599
16.15050167,0.0017049706,-0.0049798261,0.94607254,0.32391208,0.0017049706,-0.0049798261
16.16220736,0.0026931135,-0.012022838,0.97574426,0.21856653,0.0026931135,-0.012022838
16.17391304,0.0021883797,-0.019710008,0.99369725,0.11032908,0.0021883797,-0.019710008
16.18561873,1.3390833e-05,-0.027581881,0.99961943,0.00048530906,1.3390833e-05,-0.027581881
16.19732441,-0.0038777321,-0.035131976,0.99334258,-0.10964133,-0.0038777321,-0.035131976
16.2090301,-0.0093876799,-0.041843362,0.97484718,-0.2187098,-0.0093876799,-0.041843362
16.22073579,-0.016274275,-0.047228096,0.94426218,-0.32538222,-0.016274275,-0.047228096
16.23244147,-0.02415944,-0.050866756,0.90185976,-0.42834316,-0.02415944,-0.050866756
16.24414716,-0.032548679,-0.052445298,0.84804599,-0.52631556,-0.032548679,-0.052445298
16.25585284,-0.040860243,-0.051786577,0.783349,-0.61807195,-0.040860243,-0.051786577
16.26755853,-0.048462562,-0.048874224,0.70840701,-0.70244018,-0.048462562,-0.048874224
16.27926421,-0.054718107,-0.04386696,0.62395862,-0.7783041,-0.054718107,-0.04386696
16.2909699,-0.059031628,-0.03710181,0.53083764,-0.84460057,-0.059031628,-0.03710181
16.30267559,-0.060900458,-0.029084958,0.42997424,-0.90031514,-0.060900458,-0.029084958
16.31438127,-0.059964358,-0.020469141,0.32240293,-0.94447956,-0.059964358,-0.020469141
16.32608696,-0.056051861,-0.012016657,0.20927683,-0.97617467,-0.056051861,-0.012016657
16.33779264,-0.049219396,-0.0045473793,0.091885721,-0.994542,-0.049219396,-0.0045473793
16.34949833,-0.03977851,0.0011281121,-0.028325986,-0.99880631,-0.03977851,0.0011281121
16.36120401,-0.028305571,0.004288802,-0.14974668,-0.98830984,-0.028305571,0.004288802
16.3729097,-0.015627802,0.0043933283,-0.27059626,-0.96255604,-0.015627802,0.0043933283
16.38461538,-0.0027797618,0.0011735741,-0.38894127,-0.92125761,-0.0027797618,0.0011735741
16.39632107,0.009073925,-0.0052774492,-0.50272884,-0.86438043,0.009073925,-0.0052774492
16.40802676,0.018750827,-0.014434923,-0.60983752,-0.79217311,0.018750827,-0.014434923
16.41973244,0.025195142,-0.025301065,-0.70813663,-0.70517202,0.025195142,-0.025301065
16.43143813,0.027647716,-0.036404707,-0.79553893,-0.60417557,0.027647716,-0.036404707
16.44314381,0.025832972,-0.045850324,-0.87002565,-0.49018953,0.025832972,-0.045850324
16.4548495,0.020154985,-0.051423358,-0.92961992,-0.36435728,0.020154985,-0.051423358
16.46655518,0.011898482,-0.050761049,-0.97228635,-0.22790569,0.011898482,-0.050761049
16.47826087,0.0034331571,-0.041609297,-0.9957444,-0.082158248,0.0034331571,-0.041609297
16.48996656,-0.0015881618,-0.022210315,-0.99720593,0.071305806,-0.0015881618,-0.022210315
16.50167224,0.00191616,0.0080986552,-0.97309891,0.23023739,0.00191616,0.0080986552
16.51337793,0.020406409,0.047969321,-0.91894541,0.39092436,0.020406409,0.047969321
16.52508361,0.061144535,0.092757399,-0.82975253,0.54696265,0.061144535,0.092757399
16.5367893,0.13052062,0.13311397,-0.70151026,0.68784329,0.13052062,0.13311397
16.54849498,0.23072638,0.15443488,-0.53436983,0.79835086,0.23072638,0.15443488
17.5083612,-0.9971205,0.075827523,-7.1605613e-05,-0.00094160302,-0.9971205,0.075827523
17.52006689,-0.99641254,0.08462411,-7.6574e-05,-0.00090162595,-0.99641254,0.08462411
17.53177258,-0.9956388,0.093287834,-8.092758e-05,-0.00086372076,-0.9956388,0.093287834
17.54347826,-0.9948023,0.10182184,-8.4724768e-05,-0.00082776342,-0.9948023,0.10182184
17.55518395,-0.99390588,0.11022918,-8.8018486e-05,-0.00079363822,-0.99390588,0.11022918
17.56688963,-0.99295223,0.11851282,-9.0856702e-05,-0.00076123715,-0.99295223,0.11851282
17.57859532,-0.99194392,0.12667565,-9.3282909e-05,-0.00073045937,-0.99194392,0.12667565
17.590301,-0.99088339,0.13472045,-9.5336563e-05,-0.00070121066,-0.99088339,0.13472045
17.60200669,-0.98977297,0.14264996,-9.7053468e-05,-0.00067340294,-0.98977297,0.14264996
17.61371237,-0.98861485,0.1504668,-9.8466126e-05,-0.00064695386,-0.98861485,0.1504668
17.62541806,-0.98741113,0.15817354,-9.9604048e-05,-0.00062178634,-0.98741113,0.15817354
17.63712375,-0.98616381,0.16577268,-0.00010049404,-0.00059782825,-0.98616381,0.16577268
17.64882943,-0.98487478,0.17326663,-0.00010116047,-0.00057501203,-0.98487478,0.17326663
17.66053512,-0.98354586,0.18065775,-0.00010162546,-0.00055327437,-0.98354586,0.18065775
17.6722408,-0.98217877,0.18794833,-0.00010190914,-0.00053255591,-0.98217877,0.18794833
