freq,s11_real,s11_imag,s21_real,s21_imag,s22_real,s22_imag
14.85117057,-0.27935139,0.9601889,0.00025295111,7.3592025e-05,-0.27935139,0.9601889
14.86287625,-0.26990785,0.96288612,0.00027762065,7.7820201e-05,-0.26990785,0.96288612
14.87458194,-0.26019323,0.96555651,0.00030502246,8.2195893e-05,-0.26019323,0.96555651
14.88628763,-0.25019429,0.96819559,0.00033549783,8.6696987e-05,-0.25019429,0.96819559
14.89799331,-0.23989683,0.97079831,0.00036943578,9.1292363e-05,-0.23989683,0.97079831
14.909699,-0.2292857,0.97335908,0.00040728046,9.5939504e-05,-0.2292857,0.97335908
14.92140468,-0.21834466,0.97587161,0.00044953991,0.00010058151,-0.21834466,0.97587161
14.93311037,-0.20705627,0.9783289,0.00049679621,0.00010514334,-0.20705627,0.9783289
14.94481605,-0.19540183,0.98072311,0.00054971749,0.00010952715,-0.19540183,0.98072311
14.95652174,-0.18336124,0.98304541,0.00060907214,0.00011360637,-0.18336124,0.98304541
14.96822742,-0.17091283,0.98528592,0.00067574545,0.00011721833,-0.17091283,0.98528592
14.97993311,-0.15803326,0.9874335,0.00075075945,0.00012015489,-0.15803326,0.9874335
14.9916388,-0.14469733,0.9894756,0.00083529635,0.00012215071,-0.14469733,0.9894756
15.55351171,-0.70972979,0.09233398,0.090100295,0.69256046,-0.70972979,0.09233398
15.56521739,-0.69673854,0.21420386,0.20117803,0.65436955,-0.69673854,0.21420386
15.57692308,-0.6641924,0.32365551,0.29518774,0.60577204,-0.6641924,0.32365551
15.58862876,-0.61589822,0.41895131,0.3752565,0.5516627,-0.61589822,0.41895131
15.60033445,-0.55517073,0.499257,0.44481859,0.49463555,-0.55517073,0.499257
15.61204013,-0.48468955,0.56419949,0.50700078,0.43555159,-0.48468955,0.56419949
15.62374582,-0.40656671,0.61347307,0.56433698,0.37400277,-0.40656671,0.61347307
15.63545151,-0.32255046,0.64653795,0.61862733,0.30862616,-0.32255046,0.64653795
15.64715719,-0.23432762,0.66241608,0.67080974,0.23729685,-0.23432762,0.66241608
15.65886288,-0.14392367,0.65959574,0.72075384,0.15726835,-0.14392367,0.65959574
15.67056856,-0.054216612,0.63609695,0.76692135,0.065367202,-0.054216612,0.63609695
15.68227425,0.030444011,0.5898184,0.80588903,-0.041596693,0.030444011,0.5898184
15.69397993,0.10362948,0.5193609,0.83185057,-0.16598138,0.10362948,0.5193609
15.70568562,0.15659114,0.42551894,0.83645781,-0.3078168,0.15659114,0.42551894
15.7173913,0.17907943,0.31335411,0.80969996,-0.46273721,0.17907943,0.31335411
15.72909699,0.16201197,0.19399143,0.74261521,-0.62019521,0.16201197,0.19399143
15.74080268,0.10190007,0.084281654,0.6317486,-0.76381063,0.10190007,0.084281654
15.75250836,0.0048239848,0.0026620817,0.48314972,-0.87552041,0.0048239848,0.0026620817
15.76421405,-0.11364993,-0.037662643,0.31230575,-0.94240667,-0.11364993,-0.037662643
15.77591973,-0.23383186,-0.033745082,0.13879032,-0.96172823,-0.23383186,-0.033745082
15.78762542,-0.33903381,0.0075172468,-0.020853579,-0.94051299,-0.33903381,0.0075172468
15.7993311,-0.41970767,0.074082507,-0.15724546,-0.89085977,-0.41970767,0.074082507
15.81103679,-0.4733041,0.15377854,-0.26802142,-0.82492418,-0.4733041,0.15377854
15.82274247,-0.50181314,0.23710395,-0.35537029,-0.75211518,-0.50181314,0.23710395
15.83444816,-0.50920969,0.31781195,-0.4234745,-0.67850601,-0.50920969,0.31781195
15.84615385,-0.49977366,0.39233253,-0.47682463,-0.60740411,-0.49977366,0.39233253
15.85785953,-0.47728416,0.45890826,-0.51940584,-0.54020422,-0.47728416,0.45890826
15.86956522,-0.44477137,0.51685217,-0.55443884,-0.47711616,-0.44477137,0.51685217
15.8812709,-0.40454316,0.56602633,-0.58439055,-0.4176682,-0.40454316,0.56602633
15.89297659,-0.35831587,0.60651197,-0.61108162,-0.36101554,-0.35831587,0.60651197
15.90468227,-0.30736752,0.63841324,-0.63580585,-0.30611217,-0.30736752,0.63841324
15.91638796,-0.25268251,0.66174529,-0.65942626,-0.25179701,-0.25268251,0.66174529
15.92809365,-0.19508207,0.67637324,-0.68243668,-0.19683091,-0.19508207,0.67637324
15.93979933,-0.13534491,0.6819835,-0.70498614,-0.13990996,-0.13534491,0.6819835
15.95150502,-0.07432591,0.67807976,-0.72686699,-0.079673592,-0.07432591,0.67807976
15.9632107,-0.013080581,0.66400607,-0.74746774,-0.014724733,-0.013080581,0.66400607
15.97491639,0.047000728,0.63900774,-0.7656946,0.056318885,0.047000728,0.63900774
15.98662207,0.10405263,0.6023494,-0.77987125,0.13471858,0.10405263,0.6023494
15.99832776,0.15560742,0.55351584,-0.78764026,0.22142577,0.15560742,0.55351584
16.01003344,0.19852435,0.49252017,-0.78591308,0.31678476,0.19852435,0.49252017
16.02173913,0.22905229,0.42032362,-0.77094769,0.42012232,0.22905229,0.42032362
16.03344482,0.24313157,0.33931819,-0.7386613,0.52927278,0.24313157,0.33931819
16.0451505,0.23703228,0.25372894,-0.68527677,0.64018206,0.23703228,0.25372894
16.05685619,0.20833011,0.1696856,-0.60830441,0.74684075,0.20833011,0.1696856
16.06856187,0.15701095,0.094683125,-0.50765131,0.84182707,0.15701095,0.094683125
16.08026756,0.086250398,0.036321566,-0.38640457,0.91756914,0.086250398,0.036321566
16.09197324,0.0023507968,0.00060897393,-0.25077161,0.96804323,0.0023507968,0.00060897393
16.10367893,-0.086368153,-0.0095046348,-0.10897382,0.99023982,-0.086368153,-0.0095046348
16.11538462,-0.17135562,0.0053137855,0.03053649,0.98472155,-0.17135562,0.0053137855
16.1270903,-0.24553222,0.041332613,0.16077523,0.95506904,-0.24553222,0.041332613
16.13879599,-0.30427108,0.093034459,0.27720334,0.90659914,-0.30427108,0.093034459
16.15050167,-0.34550182,0.15448617,0.37782571,0.84499127,-0.34550182,0.15448617
16.16220736,-0.36920379,0.22033427,0.46267779,0.77528745,-0.36920379,0.22033427
16.17391304,-0.37668006,0.28629104,0.53309119,0.701401,-0.37668006,0.28629104
16.18561873,-0.36989832,0.34921324,0.59102378,0.62603213,-0.36989832,0.34921324
16.19732441,-0.35102124,0.40694952,0.63857606,0.55081467,-0.35102124,0.40694952
16.2090301,-0.32213156,0.45810319,0.67769832,0.47654769,-0.32213156,0.45810319
16.22073579,-0.28510696,0.50179795,0.71004271,0.40342556,-0.28510696,0.50179795
16.23244147,-0.2415919,0.53748493,0.73690616,0.33122893,-0.2415919,0.53748493
16.24414716,-0.19302481,0.5648004,0.75922157,0.25946971,-0.19302481,0.5648004
16.25585284,-0.14069311,0.5834702,0.7775687,0.18749639,-0.14069311,0.5834702
16.26755853,-0.08580018,0.59325335,0.79218822,0.11457144,-0.08580018,0.59325335
16.27926421,-0.029535716,0.59391804,0.80299088,0.039932969,-0.029535716,0.59391804
16.2909699,0.026855363,0.58524599,0.80955908,-0.037148486,0.026855363,0.58524599
16.30267559,0.082009032,0.5670637,0.8111425,-0.11730783,0.082009032,0.5670637
16.31438127,0.13438826,0.53930137,0.80665297,-0.20100948,0.13438826,0.53930137
16.32608696,0.18224676,0.50208087,0.79466787,-0.28845084,0.18224676,0.50208087
16.33779264,0.22362241,0.45583297,0.7734555,-0.37944157,0.22362241,0.45583297
16.34949833,0.25637665,0.40143905,0.7410408,-0.47326128,0.25637665,0.40143905
16.36120401,0.27829962,0.3403836,0.69533241,-0.56850784,0.27829962,0.3403836
16.3729097,0.28729859,0.27489033,0.63433013,-0.66296313,0.28729859,0.27489033
16.38461538,0.28167683,0.20799857,0.5564208,-0.75351885,0.28167683,0.20799857
16.39632107,0.2604861,0.14352497,0.46074673,-0.83621769,0.2604861,0.14352497
16.40802676,0.22390057,0.085857651,0.34759517,-0.90646268,0.22390057,0.085857651
16.41973244,0.17352192,0.039557794,0.21871905,-0.95942029,0.17352192,0.039557794
16.43143813,0.11250623,0.0087997967,0.077479802,-0.99058659,0.11250623,0.0087997967
16.44314381,0.045423691,-0.0032492844,-0.071276473,-0.99641648,0.045423691,-0.0032492844
16.4548495,-0.022168088,0.0050397625,-0.22162909,-0.974866,-0.022168088,0.0050397625
16.46655518,-0.084360909,0.033463883,-0.36720327,-0.92570253,-0.084360909,0.033463883
16.47826087,-0.13559065,0.080006598,-0.50184964,-0.85050636,-0.13559065,0.080006598
16.48996656,-0.17122293,0.141144,-0.62021728,-0.75239059,-0.17122293,0.141144
16.50167224,-0.18791596,0.21232587,-0.71810837,-0.63555148,-0.18791596,0.21232587
16.51337793,-0.18373534,0.28848946,-0.79259117,-0.50479144,-0.18373534,0.28848946
16.52508361,-0.1580733,0.36449107,-0.8419265,-0.36512856,-0.1580733,0.36449107
16.5367893,-0.11146405,0.43539953,-0.86540177,-0.22154636,-0.11146405,0.43539953
16.54849498,-0.045385156,0.4966546,-0.86316438,-0.078877452,-0.045385156,0.4966546
17.5083612,-0.99804758,0.062450242,-6.2555422e-05,-0.00099972851,-0.99804758,0.062450242
17.52006689,-0.99740204,0.072029595,-6.8708956e-05,-0.00095142077,-0.99740204,0.072029595
17.53177258,-0.99667964,0.081417863,-7.4004857e-05,-0.00090593308,-0.99667964,0.081417863
17.54347826,-0.99588508,0.090620949,-7.8536015e-05,-0.00086307688,-0.99588508,0.090620949
17.55518395,-0.99502275,0.099644537,-8.2385384e-05,-0.00082267763,-0.99502275,0.099644537
17.56688963,-0.99409678,0.1084941,-8.5627087e-05,-0.00078457363,-0.99409678,0.1084941
17.57859532,-0.99311101,0.11717491,-8.8327387e-05,-0.00074861502,-0.99311101,0.11717491
17.590301,-0.99206904,0.12569205,-9.0545549e-05,-0.00071466283,-0.99206904,0.12569205
17.60200669,-0.99097428,0.1340504,-9.2334599e-05,-0.00068258814,-0.99097428,0.1340504
17.61371237,-0.98982987,0.14225468,-9.3742005e-05,-0.00065227126,-0.98982987,0.14225468
17.62541806,-0.9886388,0.15030941,-9.4810266e-05,-0.00062360105,-0.9886388,0.15030941
17.63712375,-0.98740386,0.15821899,-9.5577452e-05,-0.0005964742,-0.98740386,0.15821899
17.64882943,-0.98612767,0.16598762,-9.607767e-05,-0.00057079467,-0.98612767,0.16598762
17.66053512,-0.98481268,0.17361937,-9.6341486e-05,-0.00054647312,-0.98481268,0.17361937
17.6722408,-0.9834612,0.18111815,-9.6396295e-05,-0.00052342639,-0.9834612,0.18111815
