freq,s11_real,s11_imag,s21_real,s21_imag,s22_real,s22_imag
14.85117057,0.24746149,0.9688975,0.00064410063,-0.00016450667,0.24746149,0.9688975
14.86287625,0.26304467,0.96478338,0.00070373221,-0.00019187002,0.26304467,0.96478338
14.87458194,0.27895289,0.96030445,0.00076943754,-0.00022350914,0.27895289,0.96030445
14.88628763,0.29519403,0.95543692,0.00084188487,-0.00026011072,0.29519403,0.95543692
14.89799331,0.31177594,0.95015516,0.00092181969,-0.00030247818,0.31177594,0.95015516
14.909699,0.32870641,0.94443155,0.0010100736,-0.0003515529,0.32870641,0.94443155
14.92140468,0.34599311,0.93823631,0.001107574,-0.00040843971,0.34599311,0.93823631
14.93311037,0.36364351,0.93153728,0.0012153549,-0.0004744372,0.36364351,0.93153728
14.94481605,0.38166482,0.92429967,0.0013345685,-0.00055107435,0.38166482,0.92429967
14.95652174,0.40006386,0.91648587,0.0014664971,-0.00064015442,0.40006386,0.91648587
14.96822742,0.41884697,0.9080551,0.0016125665,-0.00074380794,0.41884697,0.9080551
14.97993311,0.43801982,0.89896315,0.0017743595,-0.00086455671,0.43801982,0.89896315
14.9916388,0.45758729,0.88916199,0.0019536289,-0.0010053913,0.45758729,0.88916199
15.55351171,0.0058704382,-0.016135672,0.93960023,0.34184292,0.0058704382,-0.016135672
15.56521739,0.00089009701,-0.0047734313,0.98304369,0.18330719,0.00089009701,-0.0047734313
15.57692308,-0.00019141534,0.0078898488,0.9996747,0.024253072,-0.00019141534,0.0078898488
15.58862876,0.0026126013,0.019715475,0.99113775,-0.13134088,0.0026126013,0.019715475
15.60033445,0.0084860891,0.02907292,0.95950205,-0.28006887,0.0084860891,0.02907292
15.61204013,0.016161011,0.034977815,0.90711334,-0.41911904,0.016161011,0.034977815
15.62374582,0.024225327,0.037096323,0.83645702,-0.54623864,0.024225327,0.037096323
15.63545151,0.03136241,0.035659963,0.75005799,-0.6596649,0.03136241,0.035659963
15.64715719,0.036514844,0.031330632,0.65042287,-0.75804693,0.036514844,0.031330632
15.65886288,0.038977662,0.025046553,0.54001646,-0.84037827,0.038977662,0.025046553
15.67056856,0.038431747,0.017870419,0.42125854,-0.90594972,0.038431747,0.017870419
15.68227425,0.034929711,0.010853326,0.2965266,-0.95432389,0.034929711,0.010853326
15.69397993,0.028846105,0.004922826,0.16815407,-0.98532628,0.028846105,0.004922826
15.70568562,0.020803013,0.00079997493,0.038418032,-0.99904487,0.020803013,0.00079997493
15.7173913,0.011581433,-0.0010523252,-0.090484224,-0.99582999,0.011581433,-0.0010523252
15.72909699,0.0020282296,-0.0004497086,-0.2164671,-0.9762877,0.0020282296,-0.0004497086
15.74080268,-0.0070323454,0.0025222083,-0.33759168,-0.941263,-0.0070323454,0.0025222083
15.75250836,-0.014875049,0.0075408041,-0.45209813,-0.89181228,-0.014875049,0.0075408041
15.76421405,-0.020932421,0.014097648,-0.55843071,-0.82916719,-0.020932421,0.014097648
15.77591973,-0.024832875,0.021560798,-0.6552524,-0.75469382,-0.024832875,0.021560798
15.78762542,-0.026417479,0.0292411,-0.74144846,-0.66985167,-0.026417479,0.0292411
15.7993311,-0.025736974,0.036456177,-0.81612021,-0.57615654,-0.025736974,0.036456177
15.81103679,-0.023032039,0.042587171,-0.87857171,-0.47515009,-0.023032039,0.042587171
15.82274247,-0.018700696,0.047124841,-0.92829288,-0.36837733,-0.018700696,0.047124841
15.83444816,-0.013256947,0.049703124,-0.96494225,-0.25737192,-0.013256947,0.049703124
15.84615385,-0.0072845408,0.050119447,-0.98833208,-0.14364774,-0.0072845408,0.050119447
15.85785953,-0.0013893435,0.048342016,-0.99841762,-0.028694398,-0.0013893435,0.048342016
15.86956522,0.0038466773,0.044504878,-0.99529096,0.086025698,0.0038466773,0.044504878
15.8812709,0.0079073021,0.038892001,-0.97917903,0.19908116,0.0079073021,0.038892001
15.89297659,0.010377552,0.031911954,-0.95044445,0.30907811,0.010377552,0.031911954
15.90468227,0.010970995,0.02406508,-0.90958724,0.41467042,0.010970995,0.02406508
15.91638796,0.0095474386,0.015905393,-0.85724542,0.51457376,0.0095474386,0.015905393
15.92809365,0.0061200737,0.0079997619,-0.79419255,0.60758271,0.0061200737,0.0079997619
15.93979933,0.00085176431,0.00088711103,-0.72133083,0.69258958,0.00085176431,0.00088711103
15.95150502,-0.0059590842,-0.0049595204,-0.63967916,0.76860293,-0.0059590842,-0.0049595204
15.9632107,-0.01390189,-0.0091654573,-0.55035629,0.83476385,-0.01390189,-0.0091654573
15.97491639,-0.022484598,-0.0114792,-0.45456007,0.89035825,-0.022484598,-0.0114792
15.98662207,-0.031169296,-0.011788028,-0.35354444,0.93482397,-0.031169296,-0.011788028
15.99832776,-0.039410039,-0.010123639,-0.24859591,0.96775226,-0.039410039,-0.010123639
16.01003344,-0.046690149,-0.0066578708,-0.14101178,0.98888391,-0.046690149,-0.0066578708
16.02173913,-0.052556547,-0.0016892919,-0.032081332,0.99810107,-0.052556547,-0.0016892919
16.03344482,-0.056649051,0.0043780014,0.076928635,0.99541635,-0.056649051,0.0043780014
16.0451505,-0.058723161,0.011061684,0.18478364,0.98096087,-0.058723161,0.011061684
16.05685619,-0.058665343,0.017832741,0.29028706,0.95497319,-0.058665343,0.017832741
16.06856187,-0.056500316,0.024149383,0.39228225,0.91779037,-0.056500316,0.024149383
16.08026756,-0.052390204,0.029491558,0.48965273,0.86984236,-0.052390204,0.029491558
16.09197324,-0.046625711,0.03339438,0.58132192,0.81164998,-0.046625711,0.03339438
16.10367893,-0.039609666,0.035478869,0.66625436,0.74382622,-0.039609666,0.035478869
16.11538462,-0.031833542,0.035478437,0.74345965,0.66707995,-0.031833542,0.035478437
16.1270903,-0.023847787,0.033259571,0.81200017,0.58222059,-0.023847787,0.033259571
16.13879599,-0.016227175,0.028835204,0.87100313,0.49016197,-0.016227175,0.028835204
16.15050167,-0.0095328143,0.022369428,0.91967641,0.3919235,-0.0095328143,0.022369428
16.16220736,-0.0042728994,0.01417249,0.9573272,0.28862696,-0.0042728994,0.01417249
16.17391304,-0.0008647399,0.0046855496,0.98338168,0.18148765,-0.0008647399,0.0046855496
16.18561873,0.00039913809,-0.0055446219,0.99740359,0.071799624,0.00039913809,-0.0055446219
16.19732441,-0.00062199776,-0.015899945,0.9991092,-0.039084643,-0.00062199776,-0.015899945
16.2090301,-0.003899492,-0.025732426,0.98837695,-0.14977865,-0.003899492,-0.025732426
16.22073579,-0.0092290306,-0.034409934,0.96525009,-0.25888811,-0.0092290306,-0.034409934
16.23244147,-0.016236733,-0.041363178,0.92993223,-0.36503631,-0.016236733,-0.041363178
16.24414716,-0.024397664,-0.046130505,0.88277645,-0.46688592,-0.024397664,-0.046130505
16.25585284,-0.033065874,-0.048397346,0.82426989,-0.56315494,-0.033065874,-0.048397346
16.26755853,-0.041514338,-0.04802758,0.75501662,-0.65262533,-0.041514338,-0.04802758
16.27926421,-0.048982687,-0.045084704,0.67572199,-0.7341443,-0.048982687,-0.045084704
16.2909699,-0.054730417,-0.039841225,0.58718178,-0.80661937,-0.054730417,-0.039841225
16.30267559,-0.05809324,-0.032775102,0.49027872,-0.86900963,-0.05809324,-0.032775102
16.31438127,-0.058540171,-0.024552197,0.38598804,-0.92031705,-0.058540171,-0.024552197
16.32608696,-0.055728698,-0.015993676,0.27539212,-0.95958204,-0.055728698,-0.015993676
16.33779264,-0.049554724,-0.0080272959,0.15970252,-0.98588792,-0.049554724,-0.0080272959
16.34949833,-0.040192903,-0.001621812,0.040285264,-0.99837818,-0.040192903,-0.001621812
16.36120401,-0.02812164,0.0022952672,-0.081316356,-0.99628889,-0.02812164,0.0022952672
16.3729097,-0.014125783,0.0029343813,-0.20336906,-0.97899585,-0.014125783,0.0029343813
16.38461538,0.00073047037,-0.00025012799,-0.32395451,-0.94607234,0.00073047037,-0.00025012799
16.39632107,0.01516695,-0.0074537269,-0.44099796,-0.89734898,0.01516695,-0.0074537269
16.40802676,0.027790744,-0.01842752,-0.5523224,-0.83296343,0.027790744,-0.01842752
16.41973244,0.037237981,-0.032410753,-0.65572303,-0.75338581,0.037237981,-0.032410753
16.43143813,0.042347225,-0.048103997,-0.74904892,-0.65940764,0.042347225,-0.048103997
16.44314381,0.042352996,-0.06369347,-0.83026981,-0.55208822,0.042352996,-0.06369347
16.4548495,0.037086975,-0.076931667,-0.89750078,-0.43266434,0.037086975,-0.076931667
16.46655518,0.027178512,-0.085275899,-0.94895566,-0.30244423,0.027178512,-0.085275899
16.47826087,0.014254136,-0.086089636,-0.98280496,-0.16272616,0.014254136,-0.086089636
16.48996656,0.0011424999,-0.076928115,-0.99692605,-0.014805873,0.0011424999,-0.076928115
16.50167224,-0.007916163,-0.055964466,-0.98856077,0.13983173,-0.007916163,-0.055964466
16.51337793,-0.0071037096,-0.02266418,-0.95395689,0.2990019,-0.0071037096,-0.02266418
16.52508361,0.01092208,0.021142969,-0.88820492,0.4588308,0.01092208,0.021142969
16.5367893,0.054316854,0.069712558,-0.78573917,0.61221222,0.054316854,0.069712558
16.54849498,0.12990992,0.11169218,-0.64229843,0.74706158,0.12990992,0.11169218
17.5083612,-0.99669165,0.081270507,-7.5756313e-05,-0.00092906624,-0.99669165,0.081270507
17.52006689,-0.99593932,0.090022613,-8.0387332e-05,-0.00088934216,-0.99593932,0.090022613
17.53177258,-0.99512252,0.098642982,-8.4425156e-05,-0.00085169134,-0.99512252,0.098642982
17.54347826,-0.99424417,0.10713474,-8.7926831e-05,-0.0008159887,-0.99424417,0.10713474
17.55518395,-0.99330706,0.11550093,-9.0943995e-05,-0.00078211761,-0.99330706,0.11550093
17.56688963,-0.99231383,0.1237445,-9.352341e-05,-0.00074996929,-0.99231383,0.1237445
17.57859532,-0.99126698,0.1318683,-9.5707441e-05,-0.00071944225,-0.99126698,0.1318683
17.590301,-0.99016891,0.13987512,-9.7534485e-05,-0.00069044169,-0.99016891,0.13987512
17.60200669,-0.98902188,0.14776765,-9.9039352e-05,-0.00066287908,-0.98902188,0.14776765
17.61371237,-0.98782804,0.15554852,-0.00010025361,-0.00063667163,-0.98782804,0.15554852
17.62541806,-0.98658946,0.16322027,-0.00010120592,-0.00061174197,-0.98658946,0.16322027
17.63712375,-0.98530807,0.17078538,-0.00010192225,-0.00058801767,-0.98530807,0.17078538
17.64882943,-0.98398575,0.17824623,-0.00010242622,-0.00056543097,-0.98398575,0.17824623
17.66053512,-0.98262425,0.18560518,-0.00010273924,-0.00054391837,-0.98262425,0.18560518
17.6722408,-0.98122526,0.19286448,-0.00010288076,-0.0005234204,-0.98122526,0.19286448
