freq,s11_real,s11_imag,s21_real,s21_imag,s22_real,s22_imag
14.85117057,0.18252176,0.98320167,0.00052930275,-9.8259874e-05,0.18252176,0.98320167
14.86287625,0.19708125,0.98038698,0.00057793132,-0.00011617803,0.19708125,0.98038698
14.87458194,0.21195004,0.97728029,0.00063150648,-0.00013695951,0.21195004,0.97728029
14.88628763,0.2271367,0.97386263,0.0006905778,-0.00016106539,0.2271367,0.97386263
14.89799331,0.24264993,0.9701136,0.00075576031,-0.00018903476,0.24264993,0.9701136
14.909699,0.25849862,0.96601125,0.00082774265,-0.0002214988,0.25849862,0.96601125
14.92140468,0.27469174,0.96153188,0.00090729622,-0.00025919763,0.27469174,0.96153188
14.93311037,0.29123837,0.95664995,0.00099528537,-0.00030300037,0.29123837,0.95664995
14.94481605,0.30814763,0.95133786,0.0010926788,-0.00035392936,0.30814763,0.95133786
14.95652174,0.32542865,0.94556575,0.0012005625,-0.00041318907,0.32542865,0.94556575
14.96822742,0.34309051,0.9393013,0.0013201533,-0.00048220104,0.34309051,0.9393013
14.97993311,0.36114216,0.93250947,0.001452815,-0.00056264604,0.36114216,0.93250947
14.9916388,0.37959234,0.92515224,0.0016000752,-0.00065651496,0.37959234,0.92515224
15.55351171,0.043873677,-0.052076591,0.76299347,0.64280953,0.043873677,-0.052076591
15.56521739,0.02645196,-0.045500102,0.86332212,0.50190134,0.02645196,-0.045500102
15.57692308,0.011967234,-0.031973698,0.9360036,0.35033088,0.011967234,-0.031973698
15.58862876,0.0028285269,-0.014375901,0.98108292,0.19303273,0.0028285269,-0.014375901
15.60033445,-0.0001477422,0.0042589035,0.99938976,0.034669028,-0.0001477422,0.0042589035
15.61204013,0.0025852053,0.021276363,0.99247086,-0.12059114,0.0025852053,0.021276363
15.62374582,0.0097126226,0.034721143,0.96240482,-0.26921564,0.0097126226,0.034721143
15.63545151,0.019468048,0.043460164,0.91158437,-0.40834563,0.019468048,0.043460164
15.64715719,0.029985503,0.047156273,0.84252951,-0.53574358,0.029985503,0.047156273
15.65886288,0.039565264,0.046146491,0.75776231,-0.64969329,0.039565264,0.046146491
15.67056856,0.046849186,0.041272397,0.65974531,-0.7488911,0.046849186,0.041272397
15.68227425,0.050915843,0.033697056,0.55086852,-0.83235567,0.050915843,0.033697056
15.69397993,0.051310771,0.024729949,0.43346364,-0.89936917,0.051310771,0.024729949
15.70568562,0.048026732,0.015672104,0.3098251,-0.94945049,0.048026732,0.015672104
15.7173913,0.041446703,0.0076882246,0.18222322,-0.98235317,0.041446703,0.0076882246
15.72909699,0.032260439,0.0017099027,0.052901158,-0.99807706,0.032260439,0.0017099027
15.74080268,0.021364595,-0.0016276324,-0.075946066,-0.99688169,0.021364595,-0.0016276324
15.75250836,0.0097562472,-0.0020144954,-0.2022068,-0.97929218,0.0097562472,-0.0020144954
15.76421405,-0.001570519,0.00053766928,-0.32389565,-0.94609136,-0.001570519,0.00053766928
15.77591973,-0.011716168,0.0057282787,-0.43919596,-0.89829663,-0.011716168,0.0057282787
15.78762542,-0.019948437,0.013022834,-0.54649494,-0.8371235,-0.019948437,0.013022834
15.7993311,-0.025751884,0.021722478,-0.64440653,-0.76394057,-0.025751884,0.021722478
15.81103679,-0.028852845,0.031039781,-0.73178015,-0.68022191,-0.028852845,0.031039781
15.82274247,-0.02922115,0.040173124,-0.80769615,-0.58750249,-0.02922115,0.040173124
15.83444816,-0.027051926,0.048373593,-0.8714511,-0.48734091,-0.027051926,0.048373593
15.84615385,-0.022732023,0.055000212,-0.92253711,-0.38129189,-0.022732023,0.055000212
15.85785953,-0.016795895,0.059561213,-0.96061941,-0.27088875,-0.016795895,0.059561213
15.86956522,-0.0098754881,0.061740583,-0.98551606,-0.1576346,-0.0098754881,0.061740583
15.8812709,-0.0026480848,0.061410248,-0.99718243,-0.042999722,-0.0026480848,0.061410248
15.89297659,0.0042146511,0.058628896,-0.99570151,0.07157792,0.0042146511,0.058628896
15.90468227,0.01009377,0.053628814,-0.98128024,0.18469207,0.01009377,0.053628814
15.91638796,0.014464071,0.046792373,-0.95425047,0.29497001,0.014464071,0.046792373
15.92809365,0.016927221,0.038619952,-0.91507263,0.4010786,0.016927221,0.038619952
15.93979933,0.017235385,0.029691414,-0.86433972,0.5017352,0.017235385,0.029691414
15.95150502,0.015304214,0.020623508,-0.80277909,0.59572325,0.015304214,0.020623508
15.9632107,0.011214497,0.012025912,-0.73125018,0.68191113,0.011214497,0.012025912
15.97491639,0.0052025046,0.0044588213,-0.65073669,0.75927255,0.0052025046,0.0044588213
15.98662207,-0.0023601894,-0.0016050341,-0.56233295,0.82690598,-0.0023601894,-0.0016050341
15.99832776,-0.010995803,-0.0058113314,-0.46722493,0.88405101,-0.010995803,-0.0058113314
16.01003344,-0.020156051,-0.0079459917,-0.36666734,0.93009981,-0.020156051,-0.0079459917
16.02173913,-0.029261663,-0.0079466413,-0.26195883,0.9646026,-0.029261663,-0.0079466413
16.03344482,-0.037742754,-0.0059033057,-0.15441741,0.98726688,-0.037742754,-0.0059033057
16.0451505,-0.045077171,-0.0020488199,-0.045358263,0.99795114,-0.045077171,-0.0020488199
16.05685619,-0.050824373,0.0032598301,0.063924523,0.99665436,-0.050824373,0.0032598301
16.06856187,-0.054652927,0.0095675004,0.17217133,0.9835032,-0.054652927,0.0095675004
16.08026756,-0.056360347,0.016352207,0.27816536,0.95873883,-0.056360347,0.016352207
16.09197324,-0.055884573,0.023059696,0.38073656,0.92270517,-0.055884573,0.023059696
16.10367893,-0.053306895,0.029139267,0.47876241,0.87584007,-0.053306895,0.029139267
16.11538462,-0.048846446,0.034079026,0.57116707,0.81867015,-0.048846446,0.034079026
16.1270903,-0.042846707,0.037438869,0.65692086,0.75180947,-0.042846707,0.037438869
16.13879599,-0.035754608,0.038879623,0.73504161,0.6759614,-0.035754608,0.038879623
16.15050167,-0.028093064,0.038186847,0.80459933,0.59192268,-0.028093064,0.038186847
16.16220736,-0.020428051,0.035287817,0.86472505,0.50058771,-0.020428051,0.035287817
16.17391304,-0.013331661,0.030260349,0.91462377,0.40295153,-0.013331661,0.030260349
16.18561873,-0.007343026,0.023332316,0.95359116,0.30010929,-0.007343026,0.023332316
16.19732441,-0.0029294205,0.014871108,0.98103228,0.19325097,-0.0029294205,0.014871108
16.2090301,-0.00045019239,0.0053628996,0.99648064,0.08365027,-0.00045019239,0.0053628996
16.22073579,-0.00012635207,-0.0046176339,0.99961518,-0.027352416,-0.00012635207,-0.0046176339
16.23244147,-0.0020185047,-0.014445645,0.99027293,-0.13837185,-0.0020185047,-0.014445645
16.24414716,-0.0060153723,-0.023490124,0.96845574,-0.24800303,-0.0060153723,-0.023490124
16.25585284,-0.011834401,-0.031160575,0.93433002,-0.35484699,-0.011834401,-0.031160575
16.26755853,-0.019035001,-0.036952971,0.8882197,-0.4575346,-0.019035001,-0.036952971
16.27926421,-0.027043966,-0.040491605,0.83059381,-0.55474587,-0.027043966,-0.040491605
16.2909699,-0.035191728,-0.041563744,0.76205073,-0.64522297,-0.035191728,-0.041563744
16.30267559,-0.042757422,-0.040144558,0.68330241,-0.72777609,-0.042757422,-0.040144558
16.31438127,-0.049020364,-0.036410397,0.59516138,-0.80128286,-0.049020364,-0.036410397
16.32608696,-0.05331535,-0.030739009,0.49853371,-0.86468302,-0.05331535,-0.030739009
16.33779264,-0.055089099,-0.023695642,0.39441976,-0.91697152,-0.055089099,-0.023695642
16.34949833,-0.05395498,-0.016004148,0.28392327,-0.95719397,-0.05395498,-0.016004148
16.36120401,-0.049742703,-0.0085023276,0.168268,-0.98444871,-0.049742703,-0.0085023276
16.3729097,-0.042538859,-0.0020810564,0.048818529,-0.99789923,-0.042538859,-0.0020810564
16.38461538,-0.032713097,0.0023924239,-0.072899475,-0.99679978,-0.032713097,0.0023924239
16.39632107,-0.02092369,0.0041650886,-0.19518602,-0.98053418,-0.02092369,0.0041650886
16.40802676,-0.0080956591,0.0026980901,-0.31616743,-0.94866503,-0.0080956591,0.0026980901
16.41973244,0.0046347769,-0.0022316014,-0.43381653,-0.90098655,0.0046347769,-0.0022316014
16.43143813,0.016013487,-0.010438849,-0.54599441,-0.83757072,0.016013487,-0.010438849
16.44314381,0.024799635,-0.021260589,-0.65051037,-0.75879458,0.024799635,-0.021260589
16.4548495,0.029930209,-0.033522313,-0.74518876,-0.66533762,0.029930209,-0.033522313
16.46655518,0.030709106,-0.045552447,-0.8279238,-0.55814344,0.030709106,-0.045552447
16.47826087,0.027010374,-0.05525288,-0.89669744,-0.43835061,0.027010374,-0.05525288
16.48996656,0.019487456,-0.060231939,-0.94953307,-0.30721215,0.019487456,-0.060231939
16.50167224,0.0097852551,-0.058010385,-0.98436207,-0.16604327,0.0097852551,-0.058010385
16.51337793,0.00075426928,-0.046327039,-0.99879367,-0.016261764,0.00075426928,-0.046327039
16.52508361,-0.0033475054,-0.023602588,-0.98981029,0.14038271,-0.0033475054,-0.023602588
16.5367893,0.0032661046,0.010337111,-0.95348017,0.30126075,0.0032661046,0.010337111
16.54849498,0.027744321,0.053157852,-0.88492271,0.46186177,0.027744321,0.053157852
17.5083612,-0.99808501,0.06184902,-6.2136921e-05,-0.001002731,-0.99808501,0.06184902
17.52006689,-0.99748457,0.070877476,-6.8133091e-05,-0.00095886183,-0.99748457,0.070877476
17.53177258,-0.99681317,0.079766318,-7.3405815e-05,-0.00091732807,-0.99681317,0.079766318
17.54347826,-0.99607411,0.088518925,-7.8024718e-05,-0.00087798628,-0.99607411,0.088518925
17.55518395,-0.99527051,0.097138577,-8.205275e-05,-0.00084070288,-0.99527051,0.097138577
17.56688963,-0.99440534,0.10562846,-8.554685e-05,-0.00080535345,-0.99440534,0.10562846
17.57859532,-0.9934814,0.11399166,-8.8558545e-05,-0.00077182198,-0.9934814,0.11399166
17.590301,-0.99250138,0.12223118,-9.1134487e-05,-0.00074000028,-0.99250138,0.12223118
17.60200669,-0.99146779,0.13034992,-9.3316932e-05,-0.00070978741,-0.99146779,0.13034992
17.61371237,-0.99038306,0.13835072,-9.5144164e-05,-0.00068108912,-0.99038306,0.13835072
17.62541806,-0.98924947,0.14623631,-9.6650887e-05,-0.00065381737,-0.98924947,0.14623631
17.63712375,-0.98806918,0.15400936,-9.786857e-05,-0.00062788988,-0.98806918,0.15400936
17.64882943,-0.98684428,0.16167246,-9.8825754e-05,-0.00060322971,-0.98684428,0.16167246
17.66053512,-0.98557673,0.16922811,-9.9548333e-05,-0.00057976491,-0.98557673,0.16922811
17.6722408,-0.98426841,0.17667877,-0.00010005981,-0.00055742809,-0.98426841,0.17667877
