freq,s11_real,s11_imag,s21_real,s21_imag,s22_real,s22_imag
14.85117057,0.24429306,0.96970121,0.00066460383,-0.00016743106,0.24429306,0.96970121
14.86287625,0.25979836,0.96566259,0.00072654387,-0.00019546673,0.25979836,0.96566259
14.87458194,0.27562845,0.96126389,0.0007948479,-0.00022791109,0.27562845,0.96126389
14.88628763,0.29179145,0.95648153,0.00087022443,-0.00026547721,0.29179145,0.95648153
14.89799331,0.30829546,0.95129013,0.00095346528,-0.00030900039,0.30829546,0.95129013
14.909699,0.32514861,0.94566229,0.0010454555,-0.00035946065,0.32514861,0.94566229
14.92140468,0.3423589,0.93956846,0.0011471841,-0.00041800964,0.3423589,0.93956846
14.93311037,0.35993423,0.9329767,0.0012597562,-0.00048600291,0.35993423,0.9329767
14.94481605,0.37788228,0.92585244,0.0013844063,-0.00056503885,0.37788228,0.92585244
14.95652174,0.3962104,0.91815825,0.0015225118,-0.0006570055,0.3962104,0.91815825
14.96822742,0.41492553,0.90985351,0.0016756089,-0.00076413721,0.41492553,0.90985351
14.97993311,0.43403406,0.90089413,0.0018454079,-0.00088908325,0.43403406,0.90089413
14.9916388,0.45354164,0.89123217,0.0020338096,-0.0010349911,0.45354164,0.89123217
15.55351171,0.0038816904,-0.013924978,0.96317351,0.26849173,0.0038816904,-0.013924978
15.56521739,-0.00034237793,0.0031073386,0.99397964,0.10952031,-0.00034237793,0.0031073386
15.57692308,0.00095954839,0.019916185,0.99864282,-0.048113938,0.00095954839,0.019916185
15.58862876,0.0070152515,0.03423991,0.97905099,-0.20059308,0.0070152515,0.03423991
15.60033445,0.016380135,0.044542797,0.93749295,-0.34475297,0.016380135,0.044542797
15.61204013,0.027312748,0.050073143,0.87646546,-0.47807426,0.027312748,0.050073143
15.62374582,0.038081226,0.050799015,0.79852215,-0.5986081,0.038081226,0.050799015
15.63545151,0.047184033,0.047271582,0.70618148,-0.7048736,0.047184033,0.047271582
15.64715719,0.0534875,0.040456398,0.60188895,-0.7957588,0.0534875,0.040456398
15.65886288,0.056292281,0.031560379,0.48801679,-0.87044514,0.056292281,0.031560379
15.67056856,0.055343396,0.021871269,0.36688143,-0.92836241,0.055343396,0.021871269
15.68227425,0.050797298,0.012619065,0.2407617,-0.96917191,0.050797298,0.012619065
15.69397993,0.043157421,0.0048647559,0.11190613,-0.99276925,0.043157421,0.0048647559
15.70568562,0.033188187,-0.00058040364,-0.017475951,-0.99929615,0.033188187,-0.00058040364
15.7173913,0.021816855,-0.0032034227,-0.14523945,-0.98915078,0.021816855,-0.0032034227
15.72909699,0.010032454,-0.0028059957,-0.26934011,-0.96298877,0.010032454,-0.0028059957
15.74080268,-0.0012093736,0.00050893085,-0.38787597,-0.92171064,-0.0012093736,0.00050893085
15.75250836,-0.011067911,0.0063758809,-0.49912642,-0.86643503,-0.011067911,0.0063758809
15.76421405,-0.018879505,0.014224353,-0.60158282,-0.79846061,-0.018879505,0.014224353
15.77591973,-0.024197129,0.023347484,-0.69396695,-0.71922129,-0.024197129,0.023347484
15.78762542,-0.026806868,0.03297417,-0.77523618,-0.6302404,-0.026806868,0.03297417
15.7993311,-0.026723235,0.042337849,-0.84457678,-0.53308858,-0.026723235,0.042337849
15.81103679,-0.024166889,0.05073668,-0.90138838,-0.4293492,-0.024166889,0.05073668
15.82274247,-0.019529231,0.057581689,-0.94526359,-0.32059274,-0.019529231,0.057581689
15.83444816,-0.013328511,0.062431162,-0.97596652,-0.20836037,-0.013328511,0.062431162
15.84615385,-0.0061617012,0.065010947,-0.99341352,-0.094155178,-0.0061617012,0.065010947
15.85785953,0.0013441879,0.065221316,-0.99765806,0.020561374,0.0013441879,0.065221316
15.86956522,0.0085784007,0.063131642,-0.9888809,0.13437028,0.0085784007,0.063131642
15.8812709,0.01498795,0.05896447,-0.96738503,0.24589584,0.01498795,0.05896447
15.89297659,0.020112481,0.053070804,-0.93359442,0.35380847,0.020112481,0.053070804
15.90468227,0.023611017,0.045898557,-0.88805484,0.45683087,0.023611017,0.045898557
15.91638796,0.025279472,0.037956307,-0.83143459,0.55374795,0.025279472,0.037956307
15.92809365,0.025058269,0.029774694,-0.7645235,0.64342006,0.025058269,0.029774694
15.93979933,0.023029879,0.021867892,-0.68822844,0.72479862,0.023029879,0.021867892
15.95150502,0.019406696,0.014697672,-0.60356469,0.7969423,0.019406696,0.014697672
15.9632107,0.014510286,0.0086423818,-0.51164288,0.8590322,0.014510286,0.0086423818
15.97491639,0.0087436767,0.0039728719,-0.41365212,0.91038436,0.0087436767,0.0039728719
15.98662207,0.0025588253,0.00083684533,-0.31084051,0.95045827,0.0025588253,0.00083684533
15.99832776,-0.003578294,-0.00074754391,-0.20449451,0.97886088,-0.003578294,-0.00074754391
16.01003344,-0.0092224408,-0.000888742,-0.09591884,0.99534604,-0.0092224408,-0.000888742
16.02173913,-0.013981324,0.00018992642,0.013581713,0.99980999,-0.013981324,0.00018992642
16.03344482,-0.017543228,0.0021696011,0.12271749,0.99228421,-0.017543228,0.0021696011
16.0451505,-0.019698446,0.004661286,0.23022575,0.97292669,-0.019698446,0.004661286
16.05685619,-0.020353412,0.0072354962,0.33487921,0.94201343,-0.020353412,0.0072354962
16.06856187,-0.019536906,0.0094542401,0.43549186,0.89993098,-0.019536906,0.0094542401
16.08026756,-0.017398121,0.010903426,0.5309233,0.8471711,-0.017398121,0.010903426
16.09197324,-0.014196773,0.011223847,0.62008273,0.78432766,-0.014196773,0.011223847
16.10367893,-0.010285747,0.010138971,0.70193402,0.71209552,-0.010285747,0.010138971
16.11538462,-0.0060871058,0.007477882,0.77550271,0.6312706,-0.0060871058,0.007477882
16.1270903,-0.0020626206,0.00319183,0.83988573,0.54274995,-0.0020626206,0.00319183
16.13879599,0.0013196475,-0.0026369453,0.89426388,0.44753035,0.0013196475,-0.0026369453
16.15050167,0.0036208122,-0.0097951518,0.93791642,0.3467041,0.0036208122,-0.0097951518
16.16220736,0.004466432,-0.017947734,0.97023677,0.2414509,0.004466432,-0.017947734
16.17391304,0.0035791048,-0.02665652,0.99074765,0.13302523,0.0035791048,-0.02665652
16.18561873,0.00080585756,-0.035407518,0.9991139,0.022739337,0.00080585756,-0.035407518
16.19732441,-0.003862023,-0.043645431,0.99515128,-0.088057263,-0.003862023,-0.043645431
16.2090301,-0.010278633,-0.050813258,0.97883006,-0.1980002,-0.010278633,-0.050813258
16.22073579,-0.01814383,-0.056394354,0.95027266,-0.30573248,-0.01814383,-0.056394354
16.23244147,-0.027014816,-0.059954031,0.90974596,-0.40992439,-0.027014816,-0.059954031
16.24414716,-0.036328592,-0.061177839,0.85764932,-0.50928887,-0.036328592,-0.061177839
16.25585284,-0.045434255,-0.059903866,0.79450056,-0.60259117,-0.045434255,-0.059903866
16.26755853,-0.053633565,-0.056146843,0.72092248,-0.68865212,-0.053633565,-0.056146843
16.27926421,-0.060227955,-0.050112263,0.63763279,-0.76634573,-0.060227955,-0.050112263
16.2909699,-0.06456993,-0.042199036,0.54543989,-0.83459289,-0.06456993,-0.042199036
16.30267559,-0.066116739,-0.032989416,0.44524643,-0.89235413,-0.066116739,-0.032989416
16.31438127,-0.064483869,-0.023224913,0.33806109,-0.93862513,-0.064483869,-0.023224913
16.32608696,-0.059495404,-0.013766947,0.22501768,-0.9724391,-0.059495404,-0.013766947
16.33779264,-0.051227315,-0.0055411972,0.10739863,-0.99287995,-0.051227315,-0.0055411972
16.34949833,-0.040038548,0.00053466847,-0.013341943,-0.99910891,-0.040038548,0.00053466847
16.36120401,-0.026583494,0.0036386239,-0.13556205,-0.99040548,-0.026583494,0.0036386239
16.3729097,-0.011798651,0.0031435108,-0.25742966,-0.96621989,-0.011798651,0.0031435108
16.38461538,0.0031433936,-0.0012792421,-0.37694095,-0.92623108,0.0031433936,-0.0012792421
16.39632107,0.01691752,-0.0095620249,-0.49196232,-0.87039958,0.01691752,-0.0095620249
16.40802676,0.028168182,-0.02116287,-0.60029413,-0.79900291,0.028168182,-0.02116287
16.41973244,0.035665958,-0.03502064,-0.6997464,-0.71264049,0.035665958,-0.03502064
16.43143813,0.038489631,-0.049555489,-0.78820918,-0.61220021,0.038489631,-0.049555489
16.44314381,0.036222454,-0.062722303,-0.86369283,-0.49878706,0.036222454,-0.062722303
16.4548495,0.029152955,-0.072120874,-0.9243109,-0.37362822,0.029152955,-0.072120874
16.46655518,0.01847667,-0.07516716,-0.96817932,-0.23798597,0.01847667,-0.07516716
16.47826087,0.0065019464,-0.069340798,-0.99321501,-0.093131762,0.0065019464,-0.069340798
16.48996656,-0.003138659,-0.052550497,-0.99683693,0.059537614,-0.003138659,-0.052550497
16.50167224,-0.0052993193,-0.023702546,-0.9756186,0.21812486,-0.0052993193,-0.023702546
16.51337793,0.0067258961,0.016396749,-0.92504264,0.37944964,0.0067258961,0.016396749
16.52508361,0.040787199,0.063691041,-0.83970971,0.53774293,0.040787199,0.063691041
16.5367893,0.10437384,0.10921631,-0.71465511,0.68296849,0.10437384,0.10921631
16.54849498,0.20124616,0.13804701,-0.54856346,0.79970065,0.20124616,0.13804701
17.5083612,-0.99697525,0.077714337,-7.129552e-05,-0.00091463006,-0.99697525,0.077714337
17.52006689,-0.99625271,0.08648568,-7.6025973e-05,-0.00087576442,-0.99625271,0.08648568
17.53177258,-0.99546491,0.095125673,-8.0165887e-05,-0.00083891472,-0.99546491,0.095125673
17.54347826,-0.99461482,0.10363741,-8.3771465e-05,-0.00080396012,-0.99461482,0.10363741
17.55518395,-0.99370521,0.11202388,-8.6893627e-05,-0.00077078791,-0.99370521,0.11202388
17.56688963,-0.99273876,0.120288,-8.9578517e-05,-0.00073929291,-0.99273876,0.120288
17.57859532,-0.99171798,0.12843261,-9.1867979e-05,-0.00070937693,-0.99171798,0.12843261
17.590301,-0.99064528,0.13646044,-9.3799965e-05,-0.00068094821,-0.99064528,0.13646044
17.60200669,-0.98952295,0.14437418,-9.5408913e-05,-0.00065392102,-0.98952295,0.14437418
17.61371237,-0.98835314,0.15217641,-9.6726083e-05,-0.00062821518,-0.98835314,0.15217641
17.62541806,-0.98713794,0.15986965,-9.7779858e-05,-0.00060375566,-0.98713794,0.15986965
17.63712375,-0.98587931,0.16745636,-9.8596018e-05,-0.00058047227,-0.98587931,0.16745636
17.64882943,-0.98457912,0.17493892,-9.9197985e-05,-0.00055829924,-0.98457912,0.17493892
17.66053512,-0.98323916,0.18231963,-9.9607039e-05,-0.00053717496,-0.98323916,0.18231963
17.6722408,-0.98186113,0.18960076,-9.9842527e-05,-0.00051704169,-0.98186113,0.18960076
