freq,s11_real,s11_imag,s21_real,s21_imag,s22_real,s22_imag
14.85117057,0.24817302,0.96871549,0.00064442161,-0.00016509291,0.24817302,0.96871549
14.86287625,0.26376244,0.9645874,0.00070407096,-0.00019252529,0.26376244,0.9645874
14.87458194,0.27967676,0.96009388,0.00076979408,-0.00022424215,0.27967676,0.96009388
14.88628763,0.29592385,0.95521113,0.00084225891,-0.00026093132,0.29592385,0.95521113
14.89799331,0.31251153,0.94991347,0.00092221052,-0.00030339755,0.31251153,0.94991347
14.909699,0.32944755,0.94417327,0.00101048,-0.00035258376,0.32944755,0.94417327
14.92140468,0.34673955,0.93796071,0.0011079942,-0.00040959648,0.34673955,0.93796071
14.93311037,0.36439498,0.93124357,0.0012157862,-0.0004757363,0.36439498,0.93124357
14.94481605,0.38242098,0.92398707,0.001335007,-0.00055253446,0.38242098,0.92398707
14.95652174,0.40082434,0.91615353,0.0014669379,-0.0006417968,0.40082434,0.91615353
14.96822742,0.41961133,0.90770214,0.0016130029,-0.0007456568,0.41961133,0.90770214
14.97993311,0.43878757,0.89858865,0.0017747825,-0.00086663961,0.43878757,0.89858865
14.9916388,0.45835788,0.888765,0.0019540271,-0.0010077397,0.45835788,0.888765
15.55351171,0.0060391831,-0.016633505,0.93981608,0.34122221,0.0060391831,-0.016633505
15.56521739,0.00099146194,-0.005336317,0.98315997,0.18266638,0.00099146194,-0.005336317
15.57692308,-0.00017208969,0.0072879203,0.99969476,0.023605796,-0.00017208969,0.0072879203
15.58862876,0.0025439102,0.019102286,0.99106462,-0.13198312,0.0025439102,0.019102286
15.60033445,0.0083316935,0.028475415,0.95933828,-0.28069521,0.0083316935,0.028475415
15.61204013,0.01593041,0.03441994,0.90686165,-0.41971828,0.01593041,0.03441994
15.62374582,0.023933682,0.036597472,0.83612122,-0.54679896,0.023933682,0.036597472
15.63545151,0.031028846,0.035234008,0.7496438,-0.66017418,0.031028846,0.035234008
15.64715719,0.036160752,0.030985449,0.64993841,-0.75849349,0.036160752,0.030985449
15.65886288,0.038625076,0.02478396,0.53947229,-0.84075175,0.038625076,0.02478396
15.67056856,0.038101851,0.017686448,0.42066725,-0.90624197,0.038101851,0.017686448
15.68227425,0.034641495,0.010738791,0.29590215,-0.9545295,0.034641495,0.010738791
15.69397993,0.028615209,0.004864167,0.16751087,-0.98544285,0.028615209,0.004864167
15.70568562,0.020640833,0.00078032946,0.037770087,-0.99907295,0.020640833,0.00078032946
15.7173913,0.011494518,-0.0010518741,-0.091124091,-0.99577265,0.011494518,-0.0010518741
15.72909699,0.002018042,-0.00044879601,-0.21708775,-0.9761499,0.002018042,-0.00044879601
15.74080268,-0.0069693207,0.0025045529,-0.33818386,-0.94105092,-0.0069693207,0.0025045529
15.75250836,-0.014746854,0.0074873643,-0.45265446,-0.89153262,-0.014746854,0.0074873643
15.76421405,-0.020750903,0.013994026,-0.55894539,-0.82882665,-0.020750903,0.013994026
15.77591973,-0.02461276,0.021396163,-0.65572082,-0.75429877,-0.02461276,0.021396163
15.78762542,-0.026175352,0.02900865,-0.74186673,-0.66940802,-0.026175352,0.02900865
15.7993311,-0.025490225,0.036153329,-0.81648479,-0.57566984,-0.025490225,0.036153329
15.81103679,-0.022797855,0.042215495,-0.87887914,-0.47462572,-0.022797855,0.042215495
15.82274247,-0.018495146,0.046689789,-0.92853963,-0.36782082,-0.018495146,0.046689789
15.83444816,-0.013094183,0.049213584,-0.96512478,-0.25678927,-0.013094183,0.049213584
15.84615385,-0.0071761343,0.049587168,-0.98844704,-0.14304565,-0.0071761343,0.049587168
15.85785953,-0.0013437753,0.04778093,-0.99846215,-0.028080425,-0.0013437753,0.04778093
15.86956522,0.0038243786,0.043930343,-0.99526301,0.086643135,0.0038243786,0.043930343
15.8812709,0.0078157561,0.038320001,-0.97907774,0.19969292,0.0078157561,0.038320001
15.89297659,0.010219051,0.031358275,-0.95027042,0.30967461,0.010219051,0.031358275
15.90468227,0.010751351,0.023544493,-0.9093427,0.415242,0.010751351,0.023544493
15.91638796,0.0092756527,0.015430895,-0.85693431,0.5151111,0.0092756527,0.015430895
15.92809365,0.0058078383,0.0075818987,-0.79382038,0.60807729,0.0058078383,0.0075818987
15.93979933,0.00051282125,0.0005334444,-0.72090448,0.69303405,0.00051282125,0.0005334444
15.95150502,-0.0063096939,-0.0052447889,-0.6392065,0.76899137,-0.0063096939,-0.0052447889
15.9632107,-0.014248639,-0.0093816666,-0.5498458,0.83509195,-0.014248639,-0.0093816666
15.97491639,-0.022812295,-0.011629212,-0.45402038,0.89062329,-0.022812295,-0.011629212
15.98662207,-0.031463869,-0.011878017,-0.35298394,0.93502475,-0.031463869,-0.011878017
15.99832776,-0.039659226,-0.010162716,-0.24802245,0.9678888,-0.039659226,-0.010162716
16.01003344,-0.046884079,-0.0066575647,-0.14043246,0.98895717,-0.046884079,-0.0066575647
16.02173913,-0.052688163,-0.0016629427,-0.03150241,0.99811261,-0.052688163,-0.0016629427
16.03344482,-0.056714395,0.004415914,0.077501656,0.99536801,-0.056714395,0.004415914
16.0451505,-0.058721499,0.011096231,0.18534588,0.98085451,-0.058721499,0.011096231
16.05685619,-0.058599157,0.017849227,0.29083404,0.95481051,-0.058599157,0.017849227
16.06856187,-0.056375158,0.024134,0.39280961,0.91757289,-0.056375158,0.024134
16.08026756,-0.052214446,0.029431994,0.49015597,0.86957147,-0.052214446,0.029431994
16.09197324,-0.046410174,0.033280366,0.58179621,0.81132711,-0.046410174,0.033280366
16.10367893,-0.03936716,0.035302653,0.66669442,0.74345309,-0.03936716,0.035302653
16.11538462,-0.031578315,0.035235167,0.74385971,0.66665885,-0.031578315,0.035235167
16.1270903,-0.023594888,0.032947571,0.81235411,0.58175471,-0.023594888,0.032947571
16.13879599,-0.015991765,0.02845612,0.87130469,0.48965564,-0.015991765,0.02845612
16.15050167,-0.009329425,0.021928224,0.91991953,0.39138238,-0.009329425,0.021928224
16.16220736,-0.0041146969,0.013677274,0.95750643,0.28805804,-0.0041146969,0.013677274
16.17391304,-0.00076282221,0.0041472264,0.9834926,0.18089921,-0.00076282221,0.0041472264
16.18561873,0.00043635765,-0.0061128647,0.99744316,0.071200979,0.00043635765,-0.0061128647
16.19732441,-0.00065472052,-0.016483302,0.99907612,-0.039683532,-0.00065472052,-0.016483302
16.2090301,-0.004003919,-0.026315241,0.98827175,-0.15036762,-0.004003919,-0.026315241
16.22073579,-0.0094033255,-0.034976531,0.9650752,-0.25945729,-0.0094033255,-0.034976531
16.23244147,-0.01647555,-0.041898693,0.92969177,-0.36557663,-0.01647555,-0.041898693
16.24414716,-0.024692428,-0.046621661,0.88247594,-0.46738948,-0.024692428,-0.046621661
16.25585284,-0.033405232,-0.048833133,0.82391581,-0.56361525,-0.033405232,-0.048833133
16.26755853,-0.041884735,-0.04839981,0.75461593,-0.65303746,-0.041884735,-0.04839981
16.27926421,-0.049369035,-0.045388413,0.67528168,-0.73450476,-0.049369035,-0.045388413
16.2909699,-0.055116819,-0.040074937,0.58670845,-0.80692585,-0.055116819,-0.040074937
16.30267559,-0.058463739,-0.032940949,0.4897783,-0.86926066,-0.058463739,-0.032940949
16.31438127,-0.058879521,-0.024655897,0.38546573,-0.92051152,-0.058879521,-0.024655897
16.32608696,-0.056023135,-0.016044387,0.27485251,-0.95971875,-0.056023135,-0.016044387
16.33779264,-0.049792736,-0.0080373099,0.15914988,-0.98596521,-0.049792736,-0.0080373099
16.34949833,-0.040365981,-0.0016060803,0.039724055,-0.99839371,-0.040365981,-0.0016060803
16.36120401,-0.028224969,0.0023198094,-0.081880911,-0.99623967,-0.028224969,0.0023198094
16.3729097,-0.014158805,0.0029497128,-0.20393038,-0.97887856,-0.014158805,0.0029497128
16.38461538,0.0007637017,-0.00026200299,-0.3245042,-0.94588391,0.0007637017,-0.00026200299
16.39632107,0.015257743,-0.0075095071,-0.44152564,-0.89708746,0.015257743,-0.0075095071
16.40802676,0.027926134,-0.018541285,-0.55281587,-0.83262895,0.027926134,-0.018541285
16.41973244,0.037401547,-0.032592747,-0.65616897,-0.75298148,0.037401547,-0.032592747
16.43143813,0.042520289,-0.0483597,-0.74943395,-0.65894015,0.042520289,-0.0483597
16.44314381,0.042516089,-0.064023096,-0.83058183,-0.55156799,0.042516089,-0.064023096
16.4548495,0.037221369,-0.077330164,-0.89773038,-0.43210505,0.037221369,-0.077330164
16.46655518,0.027267614,-0.085733376,-0.94909736,-0.30186168,0.027267614,-0.085733376
16.47826087,0.014284617,-0.086592076,-0.98285781,-0.16213663,0.014284617,-0.086592076
16.48996656,0.001105205,-0.077458124,-0.99689352,-0.014224095,0.001105205,-0.077458124
16.50167224,-0.0080252639,-0.056501942,-0.98844953,0.14039461,-0.0080252639,-0.056501942
16.51337793,-0.0072820708,-0.02318707,-0.9537742,0.29953984,-0.0072820708,-0.02318707
16.52508361,0.01068597,0.020657026,-0.88795456,0.45934279,0.01068597,0.020657026
16.5367893,0.054046449,0.069281957,-0.78541653,0.61269884,0.054046449,0.069281957
16.54849498,0.12964146,0.11132238,-0.64188786,0.74751615,0.12964146,0.11132238
17.5083612,-0.99668844,0.081309851,-7.5786247e-05,-0.00092898062,-0.99668844,0.081309851
17.52006689,-0.99593584,0.09006117,-8.0414946e-05,-0.00088926367,-0.99593584,0.09006117
17.53177258,-0.99511877,0.098680798,-8.445071e-05,-0.00085161945,-0.99511877,0.098680798
17.54347826,-0.99424017,0.10717186,-8.7950557e-05,-0.00081592291,-0.99424017,0.10717186
17.55518395,-0.99330282,0.1155374,-9.09661e-05,-0.00078205748,-0.99330282,0.1155374
17.56688963,-0.99230935,0.12378035,-9.3544079e-05,-0.00074991441,-0.99230935,0.12378035
17.57859532,-0.99126229,0.13190357,-9.5726837e-05,-0.00071939222,-0.99126229,0.13190357
17.590301,-0.990164,0.13990985,-9.7552754e-05,-0.00069039615,-0.990164,0.13990985
17.60200669,-0.98901676,0.14780189,-9.9056625e-05,-0.00066283769,-0.98901676,0.14780189
17.61371237,-0.98782272,0.15558229,-0.00010027001,-0.0006366341,-0.98782272,0.15558229
17.62541806,-0.98658394,0.16325361,-0.00010122153,-0.00061170801,-0.98658394,0.16325361
17.63712375,-0.98530236,0.17081831,-0.00010193719,-0.00058798703,-0.98530236,0.17081831
17.64882943,-0.98397985,0.1782788,-0.00010244055,-0.00056540338,-0.98397985,0.1782788
17.66053512,-0.98261816,0.1856374,-0.00010275303,-0.00054389362,-0.98261816,0.1856374
17.6722408,-0.98121899,0.19289638,-0.00010289409,-0.00052339828,-0.98121899,0.19289638
