freq,s11_real,s11_imag,s21_real,s21_imag,s22_real,s22_imag
14.85117057,0.21049278,0.97759523,0.00058937982,-0.00012690344,0.21049278,0.97759523
14.86287625,0.22553482,0.97423488,0.00064390829,-0.0001490644,0.22553482,0.97423488
14.87458194,0.24089585,0.9705507,0.00070401056,-0.00017473917,0.24089585,0.9705507
14.88628763,0.25658436,0.96652151,0.00077030653,-0.00020449479,0.25658436,0.96652151
14.89799331,0.27260893,0.96212453,0.00084348949,-0.00023899481,0.27260893,0.96212453
14.909699,0.2889782,0.95733519,0.00092433508,-0.00027901689,0.2889782,0.95733519
14.92140468,0.30570088,0.95212701,0.0010137112,-0.00032547381,0.30570088,0.95212701
14.93311037,0.32278564,0.94647137,0.0011125891,-0.00037943862,0.32278564,0.94647137
14.94481605,0.34024111,0.94033733,0.0012220556,-0.0004421749,0.34024111,0.94033733
14.95652174,0.35807577,0.93369142,0.0013433266,-0.00051517311,0.35807577,0.93369142
14.96822742,0.37629791,0.92649735,0.0014777616,-0.00060019447,0.37629791,0.92649735
14.97993311,0.39491547,0.91871575,0.0016268797,-0.00069932397,0.39491547,0.91871575
14.9916388,0.413936,0.91030386,0.0017923765,-0.00081503462,0.413936,0.91030386
15.55351171,0.018441473,-0.033617145,0.87609878,0.48060454,0.018441473,-0.033617145
15.56521739,0.0072730604,-0.02098604,0.94463238,0.32737801,0.0072730604,-0.02098604
15.57692308,0.00084689765,-0.0049289553,0.98554546,0.16933733,0.00084689765,-0.0049289553
15.58862876,-0.00012967888,0.011767757,0.99987004,0.011018414,-0.00012967888,0.011767757
15.60033445,0.0038744516,0.02669842,0.98927347,-0.14356251,0.0038744516,0.02669842
15.61204013,0.011606888,0.038124545,0.95588758,-0.29101673,0.011606888,0.038124545
15.62374582,0.021417137,0.04507866,0.90211485,-0.42860007,0.021417137,0.04507866
15.63545151,0.031583563,0.047331463,0.83046522,-0.55415677,0.031583563,0.047331463
15.64715719,0.040558038,0.04527275,0.74344835,-0.66602551,0.040558038,0.04527275
15.65886288,0.047125845,0.039749453,0.64352149,-0.76294117,0.047125845,0.039749453
15.67056856,0.05049058,0.031892044,0.53307884,-0.8439553,0.05049058,0.031892044
15.68227425,0.050298018,0.022949144,0.41446296,-0.90838532,0.050298018,0.022949144
15.69397993,0.046612765,0.014141986,0.28998061,-0.95579208,0.046612765,0.014141986
15.70568562,0.039859747,0.0065454697,0.16191001,-0.98597845,0.039859747,0.0065454697
15.7173913,0.030741234,0.00099988036,0.032493135,-0.99899859,0.030741234,0.00099988036
15.72909699,0.020139353,-0.0019445432,-0.096087778,-0.9951672,0.020139353,-0.0019445432
15.74080268,0.0090138492,-0.0020499051,-0.22174566,-0.97506072,0.0090138492,-0.0020499051
15.75250836,-0.0016955717,0.00061817983,-0.34252945,-0.93950536,-0.0016955717,0.00061817983
15.76421405,-0.011154135,0.0057261251,-0.45666312,-0.88955134,-0.011154135,0.0057261251
15.77591973,-0.018697878,0.012728141,-0.56257665,-0.82643566,-0.018697878,0.012728141
15.78762542,-0.0238769,0.020934524,-0.65892514,-0.75153796,-0.0238769,0.020934524
15.7993311,-0.026475148,0.029584587,-0.74459462,-0.66633525,-0.026475148,0.029584587
15.81103679,-0.026508357,0.037917182,-0.81869611,-0.57236027,-0.026508357,0.037917182
15.82274247,-0.024203548,0.045233302,-0.88055071,-0.47116726,-0.024203548,0.045233302
15.83444816,-0.019964458,0.050947016,-0.92966994,-0.36430704,-0.019964458,0.050947016
15.84615385,-0.014327481,0.054622763,-0.96573524,-0.25331112,-0.014327481,0.054622763
15.85785953,-0.007912421,0.05599839,-0.98857982,-0.13968365,-0.007912421,0.05599839
15.86956522,-0.0013717739,0.054994313,-0.99817524,-0.024898406,-0.0013717739,0.054994313
15.8812709,0.0046583383,0.051709796,-0.9946235,0.089601838,0.0046583383,0.051709796
15.89297659,0.0096030083,0.046407731,-0.97815425,0.20240643,0.0096030083,0.046407731
15.90468227,0.012986993,0.039489542,-0.94912597,0.31214069,0.012986993,0.039489542
15.91638796,0.014464956,0.03146209,-0.90802892,0.4174738,0.014464956,0.03146209
15.92809365,0.013842021,0.022898786,-0.85548773,0.5171313,0.013842021,0.022898786
15.93979933,0.011083608,0.014397358,-0.79226124,0.60991146,0.011083608,0.014397358
15.95150502,0.0063140817,0.0065370658,-0.71923803,0.69470429,0.0063140817,0.0065370658
15.9632107,-0.00019556372,-0.00016178547,-0.63742653,0.7705111,-0.00019556372,-0.00016178547
15.97491639,-0.008049929,-0.0052732494,-0.54793966,0.8364625,-0.008049929,-0.0052732494
15.98662207,-0.016759582,-0.0084936427,-0.45197483,0.89183279,-0.016759582,-0.0084936427
15.99832776,-0.025777153,-0.0096601607,-0.35079071,0.9360492,-0.025777153,-0.0096601607
16.01003344,-0.034536372,-0.008759202,-0.24568293,0.96869521,-0.034536372,-0.008759202
16.02173913,-0.042491161,-0.005924268,-0.13796072,0.98950808,-0.042491161,-0.005924268
16.03344482,-0.049152113,-0.0014241076,-0.028926288,0.99837133,-0.049152113,-0.0014241076
16.0451505,-0.054118096,0.0043575691,0.080141492,0.99530377,-0.054118096,0.0043575691
16.05685619,-0.057101292,0.010949055,0.18799867,0.98044687,-0.057101292,0.010949055
16.06856187,-0.057944583,0.017822328,0.29344304,0.9540524,-0.057944583,0.017822328
16.08026756,-0.056630692,0.024427451,0.39531696,0.91647191,-0.056630692,0.024427451
16.09197324,-0.053282961,0.030227824,0.49250768,0.86814941,-0.053282961,0.030227824
16.10367893,-0.048157934,0.034734496,0.58394658,0.80961764,-0.048157934,0.034734496
16.11538462,-0.041630159,0.037537943,0.66860933,0.74149808,-0.041630159,0.037537943
16.1270903,-0.034169828,0.038335725,0.74551833,0.66450374,-0.034169828,0.038335725
16.13879599,-0.026314103,0.03695454,0.81374881,0.57944354,-0.026314103,0.03695454
16.15050167,-0.018633284,0.033365194,0.87243908,0.48722646,-0.018633284,0.033365194
16.16220736,-0.011693365,0.027689157,0.92080487,0.38886368,-0.011693365,0.027689157
16.17391304,-0.0060169486,0.020195627,0.9581569,0.2854668,-0.0060169486,0.020195627
16.18561873,-0.0020449487,0.011288466,0.98392001,0.17824086,-0.0020449487,0.011288466
16.19732441,-0.00010178659,0.0014830641,0.99765197,0.06847148,-0.00010178659,0.0014830641
16.2090301,-0.00036689785,-0.0086260537,0.99905943,-0.042493679,-0.00036689785,-0.0086260537
16.22073579,-0.0028551504,-0.018405111,0.98800912,-0.153268,-0.0028551504,-0.018405111
16.23244147,-0.0074082427,-0.027225951,0.96453257,-0.26245149,-0.0074082427,-0.027225951
16.24414716,-0.013698341,-0.034512759,0.92882386,-0.3686563,-0.013698341,-0.034512759
16.25585284,-0.021244244,-0.039787263,0.88123075,-0.47052951,-0.021244244,-0.039787263
16.26755853,-0.029439389,-0.042709102,0.82224093,-0.56677077,-0.029439389,-0.042709102
16.27926421,-0.037590181,-0.043108456,0.75246572,-0.65614326,-0.037590181,-0.043108456
16.2909699,-0.044962563,-0.04100861,0.67262453,-0.7374774,-0.044962563,-0.04100861
16.30267559,-0.050834418,-0.036636684,0.58353304,-0.80966833,-0.050834418,-0.036636684
16.31438127,-0.054551295,-0.030421257,0.48609802,-0.87166933,-0.054551295,-0.030421257
16.32608696,-0.055582864,-0.022975867,0.38132037,-0.92248438,-0.055582864,-0.022975867
16.33779264,-0.053577283,-0.015067458,0.27030676,-0.96116424,-0.053577283,-0.015067458
16.34949833,-0.048410101,-0.0075689505,0.1542884,-0.98681014,-0.048410101,-0.0075689505
16.36120401,-0.040223423,-0.0013954421,0.034643325,-0.99858899,-0.040223423,-0.0013954421
16.3729097,-0.029449886,0.0025755014,-0.087083095,-0.99576232,-0.029449886,0.0025755014
16.38461538,-0.016814909,0.0035972264,-0.20916629,-0.97772889,-0.016814909,0.0035972264
16.39632107,-0.0033102289,0.0011560533,-0.32970633,-0.94407703,-0.0033102289,0.0011560533
16.40802676,0.0098674107,-0.0049263507,-0.44665286,-0.89463936,0.0098674107,-0.0049263507
16.41973244,0.021415977,-0.01440194,-0.55785286,-0.8295385,0.021415977,-0.01440194
16.43143813,0.030065546,-0.026530337,-0.66111636,-0.74921116,0.030065546,-0.026530337
16.44314381,0.034747601,-0.04005152,-0.75428773,-0.65439935,0.034747601,-0.04005152
16.4548495,0.034786353,-0.053208034,-0.835302,-0.54610381,0.034786353,-0.053208034
16.46655518,0.030101173,-0.063823552,-0.90220028,-0.42550573,0.030101173,-0.063823552
16.47826087,0.021412383,-0.069442522,-0.95307654,-0.29387815,0.021412383,-0.069442522
16.48996656,0.010448823,-0.067540321,-0.98593312,-0.15252875,0.010448823,-0.067540321
16.50167224,0.00015882135,-0.055830835,-0.99843619,-0.0028402402,0.00015882135,-0.055830835
16.51337793,-0.0050873382,-0.032732629,-0.98759436,0.15349291,-0.0050873382,-0.032732629
16.52508361,0.00062785805,0.0018991009,-0.9494548,0.3138974,0.00062785805,0.0018991009
16.5367893,0.024606558,0.045645538,-0.87905978,0.47388281,0.024606558,0.045645538
16.54849498,0.07461549,0.091988475,-0.77116378,0.62552144,0.07461549,0.091988475
17.5083612,-0.99738667,0.072241897,-6.9736392e-05,-0.00096279515,-0.99738667,0.072241897
17.52006689,-0.9967038,0.081121354,-7.4974578e-05,-0.00092118096,-0.9967038,0.081121354
17.53177258,-0.99595354,0.089865238,-7.9561432e-05,-0.00088175908,-0.99595354,0.089865238
17.54347826,-0.99513898,0.098476804,-8.3559616e-05,-0.00084439612,-0.99513898,0.098476804
17.55518395,-0.99426308,0.10695921,-8.7025816e-05,-0.0008089678,-0.99426308,0.10695921
17.56688963,-0.99332861,0.11531552,-9.0011339e-05,-0.00077535826,-0.99332861,0.11531552
17.57859532,-0.99233823,0.1235487,-9.2562642e-05,-0.00074345944,-0.99233823,0.1235487
17.590301,-0.99129445,0.13166165,-9.472181e-05,-0.00071317047,-0.99129445,0.13166165
17.60200669,-0.99019967,0.13965718,-9.6526977e-05,-0.0006843972,-0.99019967,0.13965718
17.61371237,-0.98905617,0.14753799,-9.8012717e-05,-0.00065705165,-0.98905617,0.14753799
17.62541806,-0.98786609,0.15530674,-9.9210381e-05,-0.00063105161,-0.98786609,0.15530674
17.63712375,-0.98663149,0.162966,-0.00010014841,-0.0006063202,-0.98663149,0.162966
17.64882943,-0.98535434,0.17051825,-0.00010085261,-0.00058278547,-0.98535434,0.17051825
17.66053512,-0.98403649,0.17796591,-0.0001013464,-0.00056038011,-0.98403649,0.17796591
17.6722408,-0.98267971,0.18531135,-0.00010165105,-0.00053904104,-0.98267971,0.18531135
