freq,s11_real,s11_imag,s21_real,s21_imag,s22_real,s22_imag
14.85117057,0.19354587,0.98109106,0.00055624382,-0.00010973364,0.19354587,0.98109106
14.86287625,0.20830229,0.9780643,0.00060754393,-0.00012939108,0.20830229,0.9780643
14.87458194,0.22337233,0.97473296,0.000664079,-0.00015218206,0.22337233,0.97473296
14.88628763,0.23876454,0.9710772,0.00072643175,-0.00017861211,0.23876454,0.9710772
14.89799331,0.25448765,0.96707567,0.00079525431,-0.00020927256,0.25448765,0.96707567
14.909699,0.27055049,0.96270536,0.00087127676,-0.00024485618,0.27055049,0.96270536
14.92140468,0.28696197,0.95794146,0.00095531679,-0.00028617572,0.28696197,0.95794146
14.93311037,0.30373108,0.95275717,0.0010482904,-0.00033418627,0.30373108,0.95275717
14.94481605,0.3208668,0.94712355,0.0011512238,-0.00039001193,0.3208668,0.94712355
14.95652174,0.33837808,0.94100928,0.0012652667,-0.000454978,0.33837808,0.94100928
14.96822742,0.35627376,0.93438043,0.0013917071,-0.00053064971,0.35627376,0.93438043
14.97993311,0.37456249,0.9272002,0.0015319868,-0.00061887907,0.37456249,0.9272002
14.9916388,0.39325262,0.91942863,0.0016877196,-0.00072186152,0.39325262,0.91942863
15.55351171,0.033461299,-0.048259681,0.82036928,0.56881068,0.033461299,-0.048259681
15.56521739,0.017679213,-0.037998338,0.90587371,0.42146934,0.017679213,-0.037998338
15.57692308,0.0061560384,-0.022286696,0.96364636,0.26617871,0.0061560384,-0.022286696
15.58862876,0.00044611293,-0.0041165214,0.99417053,0.10773959,0.00044611293,-0.0041165214
15.60033445,0.00067639648,0.013662574,0.99868331,-0.049442066,0.00067639648,0.013662574
15.61204013,0.0059207046,0.028761936,0.97904051,-0.20153753,0.0059207046,0.028761936
15.62374582,0.014612772,0.039665262,0.93751012,-0.34538083,0.014612772,0.039665262
15.63545151,0.024927004,0.045668306,0.8765692,-0.47845531,0.024927004,0.045668306
15.64715719,0.035084298,0.046798515,0.79874993,-0.59881345,0.035084298,0.046798515
15.65886288,0.043568237,0.043665819,0.7065493,-0.70497035,0.043568237,0.043665819
15.67056856,0.049256082,0.037285071,0.60239486,-0.79580406,0.049256082,0.037285071
15.68227425,0.051477989,0.028897307,0.48864734,-0.8704819,0.051477989,0.028897307
15.69397993,0.050019746,0.019805956,0.36761932,-0.92841897,0.050019746,0.019805956
15.70568562,0.045082719,0.011237022,0.24159258,-0.96926483,0.045082719,0.011237022
15.7173913,0.03721264,0.0042284155,0.11282274,-0.99290904,0.03721264,0.0042284155
15.72909699,0.027207506,-0.00044842063,-0.016473164,-0.99949396,0.027207506,-0.00044842063
15.74080268,0.016014423,-0.0023330773,-0.14414526,-0.9894242,0.016014423,-0.0023330773
15.75250836,0.0046250816,-0.001287379,-0.26815009,-0.96336518,0.0046250816,-0.001287379
15.76421405,-0.0060209535,0.0025239549,-0.38659324,-0.92222722,-0.0060209535,0.0025239549
15.77591973,-0.015117359,0.0086779236,-0.4977677,-0.86713521,-0.015117359,0.0086779236
15.78762542,-0.022051015,0.01655596,-0.60018241,-0.79938772,-0.022051015,0.01655596
15.7993311,-0.026438081,0.025416634,-0.69257736,-0.72041073,-0.026438081,0.025416634
15.81103679,-0.028136269,0.034470421,-0.7739253,-0.63171178,-0.028136269,0.034470421
15.82274247,-0.02723575,0.042949751,-0.84342174,-0.53483951,-0.02723575,0.042949751
15.83444816,-0.024032669,0.050169326,-0.90046716,-0.43135179,-0.024032669,0.050169326
15.84615385,-0.018989965,0.055573541,-0.94464556,-0.32279364,-0.018989965,0.055573541
15.85785953,-0.01269016,0.058769578,-0.97570343,-0.21068439,-0.01269016,0.058769578
15.86956522,-0.0057843231,0.059546014,-0.9935322,-0.096512107,-0.0057843231,0.059546014
15.8812709,0.0010592324,0.057877644,-0.99815598,0.018267488,0.0010592324,0.057877644
15.89297659,0.0072035948,0.053917743,-0.98972523,0.13223067,0.0072035948,0.053917743
15.90468227,0.012086844,0.047979245,-0.96851557,0.24398668,0.012086844,0.047979245
15.91638796,0.015258566,0.040506592,-0.93493008,0.35218198,0.015258566,0.040506592
15.92809365,0.016407596,0.0320402,-0.889503,0.4555092,0.016407596,0.0320402
15.93979933,0.015379649,0.023175805,-0.83290232,0.55272062,0.015379649,0.023175805
15.95150502,0.012183933,0.014521268,-0.76592906,0.64264559,0.012183933,0.014521268
15.9632107,0.0069884784,0.0066536464,-0.6895118,0.72421017,0.0069884784,0.0066536464
15.97491639,0.00010460964,7.9422976e-05,-0.60469542,0.79645679,0.00010460964,7.9422976e-05
15.98662207,-0.0080381589,-0.0047993708,-0.51262446,0.85856189,-0.0080381589,-0.0047993708
15.99832776,-0.016924825,-0.007710849,-0.41452188,0.90984927,-0.016924825,-0.007710849
16.01003344,-0.025992612,-0.0085291735,-0.3116652,0.9497981,-0.025992612,-0.0085291735
16.02173913,-0.034670806,-0.0072798944,-0.20536189,0.9780447,-0.034670806,-0.0072798944
16.03344482,-0.042419818,-0.004134838,-0.096926261,0.99437858,-0.042419818,-0.004134838
16.0451505,-0.048766858,0.00060256058,0.012340299,0.99873377,-0.048766858,0.00060256058
16.05685619,-0.053336083,0.0065199767,0.12116471,0.99117701,-0.053336083,0.0065199767
16.06856187,-0.055871666,0.013125087,0.22831257,0.97189478,-0.055871666,0.013125087
16.08026756,-0.056252878,0.019878602,0.33259389,0.94118104,-0.056252878,0.019878602
16.09197324,-0.054500717,0.026229424,0.43286513,0.8994273,-0.054500717,0.026229424
16.10367893,-0.050776116,0.031650052,0.52802903,0.84711593,-0.050776116,0.031650052
16.11538462,-0.045369982,0.035670483,0.61703388,0.78481741,-0.045369982,0.035670483
16.1270903,-0.038685598,0.037909011,0.69887412,0.71319093,-0.038685598,0.037909011
16.13879599,-0.031214078,0.03809837,0.7725936,0.63298762,-0.031214078,0.03809837
16.15050167,-0.023503865,0.036105745,0.8372927,0.54505493,-0.023503865,0.036105745
16.16220736,-0.016125529,0.031945233,0.89213964,0.45034024,-0.016125529,0.031945233
16.17391304,-0.0096335684,0.02578149,0.93638568,0.34989193,-0.0096335684,0.02578149
16.18561873,-0.0045273273,0.017923641,0.96938315,0.24485621,-0.0045273273,0.017923641
16.19732441,-0.0012135524,0.0088090039,0.99060452,0.13646838,-0.0012135524,0.0088090039
16.2090301,2.6648112e-05,-0.0010230683,0.99966042,0.026038402,2.6648112e-05,-0.0010230683
16.22073579,-0.00093632822,-0.010966107,0.99631426,-0.085069128,-0.00093632822,-0.010966107
16.23244147,-0.004064346,-0.020388219,0.98049154,-0.19545881,-0.004064346,-0.020388219
16.24414716,-0.0091467718,-0.028677797,0.95228249,-0.30373011,-0.0091467718,-0.028677797
16.25585284,-0.015808154,-0.035290024,0.91193785,-0.40850223,-0.015808154,-0.035290024
16.26755853,-0.023528318,-0.039790746,0.85985846,-0.50843538,-0.023528318,-0.039790746
16.27926421,-0.03167392,-0.041894528,0.79658067,-0.6022465,-0.03167392,-0.041894528
16.2909699,-0.039539714,-0.041494096,0.72276022,-0.68871803,-0.039539714,-0.041494096
16.30267559,-0.046397309,-0.038679024,0.63915776,-0.7666998,-0.046397309,-0.038679024
16.31438127,-0.051548938,-0.033742035,0.54662912,-0.83510525,-0.051548938,-0.033742035
16.32608696,-0.054383642,-0.027171739,0.4461226,-0.89290466,-0.054383642,-0.027171739
16.33779264,-0.054433174,-0.019630832,0.33868474,-0.9391189,-0.054433174,-0.019630832
16.34949833,-0.051424574,-0.011918892,0.22547416,-0.972818,-0.051424574,-0.011918892
16.36120401,-0.045325749,-0.0049190747,0.10778143,-0.99312866,-0.045325749,-0.0049190747
16.3729097,-0.03637933,0.00047144003,-0.012949341,-0.99925404,-0.03637933,0.00047144003
16.38461538,-0.025118997,0.0034261751,-0.13510297,-0.99050719,-0.025118997,0.0034261751
16.39632107,-0.012361528,0.0032860649,-0.25688664,-0.9663569,-0.012361528,0.0032860649
16.40802676,0.00083216619,-0.00033802989,-0.37634093,-0.92648081,0.00083216619,-0.00033802989
16.41973244,0.013232345,-0.0074665648,-0.49137255,-0.87081695,0.013232345,-0.0074665648
16.43143813,0.023554204,-0.017668799,-0.59980818,-0.79960187,0.023554204,-0.017668799
16.44314381,0.030607642,-0.030010357,-0.69946199,-0.71338312,0.030607642,-0.030010357
16.4548495,0.033475755,-0.043043668,-0.78820136,-0.61299692,0.033475755,-0.043043668
16.46655518,0.031711732,-0.054850856,-0.86398807,-0.49951012,0.031711732,-0.054850856
16.47826087,0.025544212,-0.06314525,-0.92486813,-0.37413784,0.025544212,-0.06314525
16.48996656,0.016085599,-0.065437876,-0.96888394,-0.23816602,0.016085599,-0.065437876
16.50167224,0.0055431728,-0.059284655,-0.99389067,-0.092929743,0.0055431728,-0.059284655
16.51337793,-0.0025693793,-0.04265392,-0.99727888,0.060073909,-0.0025693793,-0.04265392
16.52508361,-0.003250748,-0.014493765,-0.97565109,0.21882483,-0.003250748,-0.014493765
16.5367893,0.010020681,0.024380026,-0.92459901,0.38002877,0.010020681,0.024380026
16.54849498,0.044863445,0.069974118,-0.83892089,0.5378686,0.044863445,0.069974118
17.5083612,-0.99777795,0.066619657,-6.57408e-05,-0.00098461511,-0.99777795,0.066619657
17.52006689,-0.99713942,0.07557835,-7.1381997e-05,-0.00094177504,-0.99713942,0.07557835
17.53177258,-0.9964316,0.084399283,-7.6333428e-05,-0.00090120481,-0.9964316,0.084399283
17.54347826,-0.99565772,0.093085781,-8.0661466e-05,-0.00086276561,-0.99565772,0.093085781
17.55518395,-0.99482079,0.10164107,-8.4426135e-05,-0.00082632813,-0.99482079,0.10164107
17.56688963,-0.99392371,0.11006827,-8.7681743e-05,-0.00079177189,-0.99392371,0.11006827
17.57859532,-0.99296921,0.11837043,-9.0477452e-05,-0.00075898452,-0.99296921,0.11837043
17.590301,-0.9919599,0.12655049,-9.2857779e-05,-0.0007278612,-0.9919599,0.12655049
17.60200669,-0.99089823,0.13461132,-9.4863058e-05,-0.0006983041,-0.99089823,0.13461132
17.61371237,-0.98978655,0.14255569,-9.6529839e-05,-0.00067022185,-0.98978655,0.14255569
17.62541806,-0.9886271,0.1503863,-9.7891264e-05,-0.00064352908,-0.9886271,0.1503863
17.63712375,-0.98742198,0.15810577,-9.8977386e-05,-0.000618146,-0.98742198,0.15810577
17.64882943,-0.98617323,0.16571664,-9.981547e-05,-0.00059399795,-0.98617323,0.16571664
17.66053512,-0.98488274,0.17322139,-0.00010043026,-0.0005710151,-0.98488274,0.17322139
17.6722408,-0.98355235,0.18062241,-0.0001008442,-0.00054913205,-0.98355235,0.18062241
