freq,s11_real,s11_imag,s21_real,s21_imag,s22_real,s22_imag
14.85117057,-0.34766687,0.93761809,0.00025409934,9.4219515e-05,-0.34766687,0.93761809
14.86287625,-0.33915581,0.94073017,0.00027943256,0.00010074215,-0.33915581,0.94073017
14.87458194,-0.33039326,0.94384331,0.00030764597,0.00010769177,-0.33039326,0.94384331
14.88628763,-0.32136625,0.94695491,0.00033911058,0.0001150833,-0.32136625,0.94695491
14.89799331,-0.31206086,0.95006203,0.00037425121,0.00012292792,-0.31206086,0.95006203
14.909699,-0.30246212,0.95316131,0.00041355523,0.00013123151,-0.30246212,0.95316131
14.92140468,-0.29255394,0.9562489,0.00045758283,0.00013999249,-0.29255394,0.9562489
14.93311037,-0.28231896,0.95932045,0.00050697922,0.0001491992,-0.28231896,0.95932045
14.94481605,-0.27173843,0.96237097,0.00056248907,0.00015882638,-0.27173843,0.96237097
14.95652174,-0.26079209,0.96539477,0.00062497373,0.00016883063,-0.26079209,0.96539477
14.96822742,-0.24945798,0.96838536,0.00069543166,0.00017914457,-0.24945798,0.96838536
14.97993311,-0.2377123,0.97133528,0.00077502298,0.00018966931,-0.2377123,0.97133528
14.9916388,-0.22552914,0.97423602,0.00086509879,0.0002002646,-0.22552914,0.97423602
15.55351171,-0.69795015,0.27526369,0.2425603,0.61502845,-0.69795015,0.27526369
15.56521739,-0.66494186,0.37965352,0.31892176,0.55857358,-0.66494186,0.37965352
15.57692308,-0.61743018,0.46952589,0.38203022,0.50237269,-0.61743018,0.46952589
15.58862876,-0.55892141,0.54477805,0.43635361,0.4476821,-0.55892141,0.54477805
15.60033445,-0.49190582,0.60569738,0.48549049,0.39428205,-0.49190582,0.60569738
15.61204013,-0.41805855,0.65248031,0.53218928,0.34098543,-0.41805855,0.65248031
15.62374582,-0.33852213,0.68490918,0.57842,0.28588895,-0.33852213,0.68490918
15.63545151,-0.25423808,0.7021267,0.62538149,0.22644886,-0.25423808,0.7021267
15.64715719,-0.16635691,0.70247765,0.67336625,0.15946291,-0.16635691,0.70247765
15.65886288,-0.07679339,0.68344572,0.7214112,0.081059271,-0.07679339,0.68344572
15.67056856,0.010998661,0.64181104,0.76667138,-0.013138382,0.010998661,0.64181104
15.68227425,0.091032708,0.57430766,0.80353067,-0.12736653,0.091032708,0.57430766
15.69397993,0.15385573,0.47922369,0.82274044,-0.26414247,0.15385573,0.47922369
15.70568562,0.18657471,0.35929982,0.81149596,-0.42138798,0.18657471,0.35929982
15.7173913,0.17548453,0.22532506,0.75609836,-0.58885403,0.17548453,0.22532506
15.72909699,0.11244028,0.097638788,0.64835015,-0.74663641,0.11244028,0.097638788
15.74080268,0.002459657,0.0013944133,0.49317328,-0.8699265,0.002459657,0.0013944133
15.75250836,-0.13450459,-0.044414161,0.31039194,-0.93999614,-0.13450459,-0.044414161
15.76421405,-0.27177962,-0.036070389,0.12652443,-0.95332384,-0.27177962,-0.036070389
15.77591973,-0.38789087,0.015641157,-0.037130951,-0.92082426,-0.38789087,0.015641157
15.78762542,-0.47258591,0.093753246,-0.17051714,-0.85953289,-0.47258591,0.093753246
15.7993311,-0.52526367,0.18287037,-0.27324605,-0.78485228,-0.52526367,0.18287037
15.81103679,-0.55042428,0.27240221,-0.35004748,-0.70731669,-0.55042428,0.27240221
15.82274247,-0.55397195,0.35637633,-0.40707115,-0.6327749,-0.55397195,0.35637633
15.83444816,-0.54130663,0.43203861,-0.44997721,-0.56378212,-0.54130663,0.43203861
15.84615385,-0.51669356,0.498504,-0.48330348,-0.5009384,-0.51669356,0.498504
15.85785953,-0.48325474,0.55581852,-0.51045268,-0.44381155,-0.48325474,0.55581852
15.86956522,-0.4431768,0.60439843,-0.53389282,-0.39147837,-0.4431768,0.60439843
15.8812709,-0.3979506,0.64472245,-0.55538415,-0.34280713,-0.3979506,0.64472245
15.89297659,-0.3485794,0.67717138,-0.57616653,-0.29658634,-0.3485794,0.67717138
15.90468227,-0.29574518,0.70194619,-0.59709278,-0.25156816,-0.29574518,0.70194619
15.91638796,-0.23994212,0.71902463,-0.6187106,-0.20646683,-0.23994212,0.71902463
15.92809365,-0.18159146,0.72813571,-0.64129849,-0.15993493,-0.18159146,0.72813571
15.93979933,-0.12115291,0.72874384,-0.66485867,-0.11053207,-0.12115291,0.72874384
15.95150502,-0.059247503,0.72004366,-0.68906613,-0.056698572,-0.059247503,0.72004366
15.9632107,0.003194302,0.70097639,-0.71316993,0.0032498671,0.003194302,0.70097639
15.97491639,0.064748929,0.67029032,-0.73584368,0.071081275,0.064748929,0.67029032
15.98662207,0.12328052,0.62668471,-0.75498996,0.14852055,0.12328052,0.62668471
15.99832776,0.17571191,0.56909311,-0.7675277,0.23698014,0.17571191,0.56909311
16.01003344,0.21786211,0.49717025,-0.76924103,0.33708468,0.21786211,0.49717025
16.02173913,0.24450643,0.41201463,-0.75484742,0.4479575,0.24450643,0.41201463
16.03344482,0.24989803,0.31704142,-0.71852482,0.56635483,0.24989803,0.31704142
16.0451505,0.22897915,0.21868352,-0.65512673,0.68597014,0.22897915,0.21868352
16.05685619,0.17924671,0.12632646,-0.56205074,0.79750311,0.17924671,0.12632646
16.06856187,0.10265773,0.05087907,-0.44114586,0.89009159,0.10265773,0.05087907
16.08026756,0.0064121303,0.0020128568,-0.29949695,0.95407359,0.0064121303,0.0020128568
16.09197324,-0.09832143,-0.01480406,-0.14815192,0.98395363,-0.09832143,-0.01480406
16.10367893,-0.19941249,0.00017989729,0.00088401729,0.97991522,-0.19941249,0.00017989729
16.11538462,-0.28692547,0.041749127,0.13780349,0.94706968,-0.28692547,0.041749127
16.1270903,-0.35488292,0.10201954,0.25675854,0.89315462,-0.35488292,0.10201954
16.13879599,-0.40126889,0.17285239,0.35586152,0.82611616,-0.40126889,0.17285239
16.15050167,-0.42694218,0.24740902,0.43609519,0.75254909,-0.42694218,0.24740902
16.16220736,-0.43432384,0.32070229,0.49999564,0.67713899,-0.43432384,0.32070229
16.17391304,-0.42636968,0.38947901,0.55061859,0.60277207,-0.42636968,0.38947901
16.18561873,-0.40595284,0.45181957,0.5909133,0.5309264,-0.40595284,0.45181957
16.19732441,-0.37557884,0.50670426,0.62342567,0.46209496,-0.37557884,0.50670426
16.2090301,-0.33730942,0.55365528,0.65020585,0.39613197,-0.33730942,0.55365528
16.22073579,-0.29279547,0.5924777,0.67281892,0.33249915,-0.29279547,0.5924777
16.23244147,-0.24335666,0.62308686,0.69239451,0.27042588,-0.24335666,0.62308686
16.24414716,-0.19007537,0.64539994,0.70968059,0.20900653,-0.19007537,0.64539994
16.25585284,-0.13389147,0.65927262,0.72508481,0.14725725,-0.13389147,0.65927262
16.26755853,-0.075693968,0.66446725,0.73869648,0.084149922,-0.075693968,0.66446725
16.27926421,-0.016410947,0.66064555,0.75028713,0.018637714,-0.016410947,0.66064555
16.2909699,0.042899913,0.64738446,0.75929,-0.050315503,0.042899913,0.64738446
16.30267559,0.10095874,0.62421888,0.76476077,-0.12368944,0.10095874,0.62421888
16.31438127,0.15617069,0.59071969,0.76532529,-0.2023318,0.15617069,0.59071969
16.32608696,0.20654143,0.54661938,0.7591259,-0.28683752,0.20654143,0.54661938
16.33779264,0.24962004,0.49199873,0.74378809,-0.37736767,0.24962004,0.49199873
16.34949833,0.28250398,0.42754317,0.71644411,-0.47339854,0.28250398,0.42754317
16.36120401,0.30195848,0.35486036,0.67386763,-0.57340877,0.30195848,0.35486036
16.3729097,0.30471555,0.27681524,0.61278557,-0.67454845,0.30471555,0.27681524
16.38461538,0.28800661,0.19778231,0.53042226,-0.77239017,0.28800661,0.19778231
16.39632107,0.25032417,0.12365294,0.42527206,-0.86092475,0.25032417,0.12365294
16.40802676,0.19228544,0.06141132,0.2979738,-0.93298798,0.19228544,0.06141132
16.41973244,0.11731348,0.018173228,0.15200319,-0.9812249,0.11731348,0.018173228
16.43143813,0.031762585,-0.00019670929,-0.0061898698,-0.99947626,0.031762585,-0.00019670929
16.44314381,-0.055774085,0.0095127153,-0.16786073,-0.98418572,-0.055774085,0.0095127153
16.4548495,-0.13589371,0.046987101,-0.32338547,-0.93527907,-0.13589371,0.046987101
16.46655518,-0.20008162,0.10842532,-0.46394421,-0.85613496,-0.20008162,0.10842532
16.47826087,-0.24206474,0.18744734,-0.58285974,-0.7526903,-0.24206474,0.18744734
16.48996656,-0.25842128,0.27644447,-0.67619295,-0.63210758,-0.25842128,0.27644447
16.50167224,-0.24843786,0.3678512,-0.74258743,-0.5015257,-0.24843786,0.3678512
16.51337793,-0.21349496,0.45500264,-0.78264563,-0.3672306,-0.21349496,0.45500264
16.52508361,-0.156323,0.53251075,-0.79818103,-0.23431274,-0.156323,0.53251075
16.5367893,-0.080369293,0.59627505,-0.79158895,-0.1066948,-0.080369293,0.59627505
16.54849498,0.010625986,0.64329939,-0.76543656,0.012643442,0.010625986,0.64329939
17.5083612,-0.9974751,0.071010469,-6.9013987e-05,-0.00096943077,-0.9974751,0.071010469
17.52006689,-0.9967549,0.080491034,-7.4487509e-05,-0.00092241068,-0.9967549,0.080491034
17.53177258,-0.9959616,0.089775902,-7.915636e-05,-0.00087814986,-0.9959616,0.089775902
17.54347826,-0.99509987,0.098871341,-8.3109441e-05,-0.00083646275,-0.99509987,0.098871341
17.55518395,-0.99417408,0.10778338,-8.6426012e-05,-0.00079717765,-0.99417408,0.10778338
17.56688963,-0.99318831,0.11651781,-8.9176777e-05,-0.00076013559,-0.99318831,0.11651781
17.57859532,-0.99214636,0.1250802,-9.1424837e-05,-0.00072518927,-0.99214636,0.1250802
17.590301,-0.99105181,0.13347592,-9.3226532e-05,-0.0006922022,-0.99105181,0.13347592
17.60200669,-0.98990798,0.14171011,-9.4632183e-05,-0.00066104778,-0.98990798,0.14171011
17.61371237,-0.98871797,0.14978773,-9.5686756e-05,-0.00063160857,-0.98871797,0.14978773
17.62541806,-0.98748471,0.15771356,-9.6430438e-05,-0.0006037755,-0.98748471,0.15771356
17.63712375,-0.98621093,0.16549218,-9.6899162e-05,-0.00057744731,-0.98621093,0.16549218
17.64882943,-0.98489917,0.17312801,-9.712506e-05,-0.00055252984,-0.98489917,0.17312801
17.66053512,-0.98355183,0.1806253,-9.7136871e-05,-0.00052893557,-0.98355183,0.1806253
17.6722408,-0.98217116,0.18798815,-9.6960303e-05,-0.00050658306,-0.98217116,0.18798815
