freq,s11_real,s11_imag,s21_real,s21_imag,s22_real,s22_imag
14.85117057,0.18285359,0.98314001,0.00052032786,-9.6775449e-05,0.18285359,0.98314001
14.86287625,0.19739289,0.98032429,0.00056799773,-0.000114369,0.19739289,0.98032429
14.87458194,0.21224013,0.97721734,0.00062050136,-0.00013476561,0.21224013,0.97721734
14.88628763,0.22740379,0.9738003,0.00067837382,-0.00015841521,0.22740379,0.9738003
14.89799331,0.2428925,0.97005291,0.00074221367,-0.00018584361,0.2428925,0.97005291
14.909699,0.25871502,0.96595333,0.0008126908,-0.00021766612,0.25871502,0.96595333
14.92140468,0.27488023,0.96147803,0.0008905552,-0.00025460386,0.27488023,0.96147803
14.93311037,0.2913971,0.95660163,0.00097664685,-0.00029750322,0.2913971,0.95660163
14.94481605,0.30827464,0.95129673,0.0010719067,-0.00034735916,0.30827464,0.95129673
14.95652174,0.32552184,0.9455337,0.0011773887,-0.00040534329,0.32552184,0.9455337
14.96822742,0.34314766,0.93928046,0.0012942737,-0.00047283747,0.34314766,0.93928046
14.97993311,0.3611609,0.93250226,0.0014238841,-0.00055147454,0.3611609,0.93250226
14.9916388,0.37957016,0.9251614,0.0015676999,-0.00064318735,0.37957016,0.9251614
15.55351171,0.042562142,-0.046749744,0.73796952,0.67186599,0.042562142,-0.046749744
15.56521739,0.026770704,-0.042367314,0.84431486,0.5334986,0.026770704,-0.042367314
15.57692308,0.012808158,-0.030824414,0.92293785,0.38349906,0.012808158,-0.030824414
15.58862876,0.0034359244,-0.014750517,0.97381509,0.22683646,0.0034359244,-0.014750517
15.60033445,-0.00019930785,0.0029145364,0.99766572,0.068224438,-0.00019930785,0.0029145364
15.61204013,0.0017243631,0.019496923,0.9959209,-0.088082066,0.0017243631,0.019496923
15.62374582,0.0080944859,0.032948821,0.97056507,-0.23843722,0.0080944859,0.032948821
15.63545151,0.017271197,0.042008941,0.92392963,-0.37985654,0.017271197,0.042008941
15.64715719,0.027447647,0.046205625,0.85850555,-0.50998028,0.027447647,0.046205625
15.65886288,0.036930038,0.045755028,0.77681049,-0.62698335,0.036930038,0.045755028
15.67056856,0.044328871,0.04140271,0.68131775,-0.72947028,0.044328871,0.04140271
15.68227425,0.048668869,0.034245052,0.57443521,-0.81638398,0.048668869,0.034245052
15.69397993,0.049431618,0.02555417,0.45851418,-0.88694321,0.049431618,0.02555417
15.70568562,0.046545563,0.016620229,0.33586826,-0.94061139,0.046545563,0.016620229
15.7173913,0.040336275,0.0086191259,0.20878652,-0.97709103,0.040336275,0.0086191259
15.72909699,0.031448065,0.002510331,0.079531936,-0.99633297,0.031448065,0.002510331
15.74080268,0.020747148,-0.0010321677,-0.049677684,-0.99854926,0.020747148,-0.0010321677
15.75250836,0.0092163359,-0.0016546693,-0.1767034,-0.9842196,0.0092163359,-0.0016546693
15.76421405,-0.0021489194,0.000674636,-0.29952735,-0.95408506,-0.0021489194,0.000674636
15.77591973,-0.012434067,0.0056936482,-0.41629552,-0.90912651,-0.012434067,0.0056936482
15.78762542,-0.020881243,0.012897901,-0.52535413,-0.85052963,-0.020881243,0.012897901
15.7993311,-0.026942482,0.021607955,-0.62527418,-0.77964056,-0.026942482,0.021607955
15.81103679,-0.030308506,0.031044328,-0.71486209,-0.69791821,-0.030308506,0.031044328
15.82274247,-0.030913997,0.040402201,-0.79315686,-0.60688894,-0.030913997,0.040402201
15.83444816,-0.028922431,0.048919547,-0.85941645,-0.508108,-0.028922431,0.048919547
15.84615385,-0.024694834,0.055934226,-0.91309764,-0.40313053,-0.024694834,0.055934226
15.85785953,-0.01874726,0.060927464,-0.95383354,-0.29349268,-0.01874726,0.060927464
15.86956522,-0.011701589,0.063552758,-0.98141277,-0.18070165,-0.011701589,0.063552758
15.8812709,-0.0042336578,0.063650382,-0.99576301,-0.066232436,-0.0042336578,0.063650382
15.89297659,0.0029779351,0.061248413,-0.99694044,0.048471852,0.0029779351,0.061248413
15.90468227,0.0092996329,0.056551578,-0.98512524,0.16199907,0.0092996329,0.056551578
15.91638796,0.014185065,0.049919487,-0.96062199,0.27296926,0.014185065,0.049919487
15.92809365,0.017209632,0.041835997,-0.92386324,0.38003986,0.017209632,0.041835997
15.93979933,0.018095904,0.032871727,-0.87541373,0.48191576,0.018095904,0.032871727
15.95150502,0.016728582,0.023642043,-0.81597291,0.5773642,0.016728582,0.023642043
15.9632107,0.013158224,0.014763168,-0.74637361,0.66523331,0.013158224,0.014763168
15.97491639,0.0075936214,0.0068092714,-0.66757535,0.74447238,0.0075936214,0.0068092714
15.98662207,0.00038344322,0.0002734711,-0.58065181,0.81415186,0.00038344322,0.0002734711
15.99832776,-0.0080113852,-0.0044645806,-0.48677275,0.87348049,-0.0080113852,-0.0044645806
16.01003344,-0.017052385,-0.0071623382,-0.3871817,0.9218179,-0.017052385,-0.0071623382
16.02173913,-0.026162591,-0.0077277975,-0.2831713,0.95868129,-0.026162591,-0.0077277975
16.03344482,-0.034767009,-0.0062221636,-0.17605851,0.98374587,-0.034767009,-0.0062221636
16.0451505,-0.042331573,-0.0028520788,-0.067161812,0.9968396,-0.042331573,-0.0028520788
16.05685619,-0.048398046,0.002047498,0.042217957,0.99793341,-0.048398046,0.002047498
16.06856187,-0.052612836,0.0080381045,0.15081193,0.98712868,-0.052612836,0.0080381045
16.08026756,-0.054748346,0.014608306,0.25739256,0.96464412,-0.054748346,0.014608306
16.09197324,-0.054716037,0.021207867,0.36077832,0.93080363,-0.054716037,0.021207867
16.10367893,-0.052570926,0.027283545,0.45983505,0.88602688,-0.052570926,0.027283545
16.11538462,-0.048507594,0.032314636,0.55347541,0.83082354,-0.048507594,0.032314636
16.1270903,-0.042848084,0.035846554,0.64065818,0.7657912,-0.042848084,0.035846554
16.13879599,-0.036022248,0.037520841,0.72038934,0.69161679,-0.036022248,0.037520841
16.15050167,-0.028541351,0.03710009,0.7917261,0.60908026,-0.028541351,0.03710009
16.16220736,-0.020965953,0.034486294,0.85378508,0.51905891,-0.020965953,0.034486294
16.17391304,-0.013869497,0.029731239,0.90575466,0.4225307,-0.013869497,0.029731239
16.18561873,-0.0077993704,0.023037745,0.94691104,0.32057435,-0.0077993704,0.023037745
16.19732441,-0.003237721,0.014750915,0.9766369,0.21436486,-0.003237721,0.014750915
16.2090301,-0.00056462254,0.0053391552,0.99444047,0.10516336,-0.00056462254,0.0053391552
16.22073579,-2.6413149e-05,-0.0046345623,0.99997302,-0.0056990141,-2.6413149e-05,-0.0046345623
16.23244147,-0.0017119452,-0.014549811,0.99304241,-0.11684236,-0.0017119452,-0.014549811
16.24414716,-0.0055390929,-0.023771978,0.97362082,-0.22686275,-0.0055390929,-0.023771978
16.25585284,-0.011253158,-0.031698753,0.94184561,-0.33435819,-0.011253158,-0.031698753
16.26755853,-0.018437891,-0.037806506,0.89801331,-0.43795297,-0.018437891,-0.037806506
16.27926421,-0.026538835,-0.041693124,0.8425678,-0.53631789,-0.026538835,-0.041693124
16.2909699,-0.034897786,-0.043114159,0.77608483,-0.62818441,-0.034897786,-0.043114159
16.30267559,-0.042796447,-0.042009676,0.69925582,-0.71235171,-0.042796447,-0.042009676
16.31438127,-0.049506912,-0.038519753,0.6128741,-0.78768689,-0.049506912,-0.038519753
16.32608696,-0.054346448,-0.032987187,0.51782655,-0.85312014,-0.054346448,-0.032987187
16.33779264,-0.0567339,-0.025946296,0.4150928,-0.9076376,-0.0567339,-0.025946296
16.34949833,-0.056244963,-0.018096925,0.30575305,-0.95027579,-0.056244963,-0.018096925
16.36120401,-0.05266312,-0.010262849,0.19100355,-0.98012189,-0.05266312,-0.010262849
16.3729097,-0.046022326,-0.0033340238,0.072177306,-0.99632388,-0.046022326,-0.0033340238
16.38461538,-0.036636464,0.0018071973,-0.04923477,-0.99811344,-0.036636464,0.0018071973
16.39632107,-0.025109484,0.004374297,-0.17156838,-0.98484246,-0.025109484,0.004374297
16.40802676,-0.01231941,0.0037753776,-0.29298298,-0.95603083,-0.01231941,0.0037753776
16.41973244,0.00063028703,-0.00028455498,-0.41147759,-0.91141961,0.00063028703,-0.00028455498
16.43143813,0.012496623,-0.0077082007,-0.52492833,-0.85101978,0.012496623,-0.0077082007
16.44314381,0.022021424,-0.017930488,-0.63114537,-0.77514455,0.022021424,-0.017930488
16.4548495,0.028090417,-0.029876858,-0.72793971,-0.68441368,0.028090417,-0.029876858
16.46655518,0.029918959,-0.041967616,-0.81318231,-0.57972243,0.029918959,-0.041967616
16.47826087,0.02725403,-0.052177362,-0.8848313,-0.4621778,0.02725403,-0.052177362
16.48996656,0.020583484,-0.058155997,-0.94090015,-0.33301817,0.020583484,-0.058155997
16.50167224,0.011348275,-0.057420435,-0.97934248,-0.19355213,0.011348275,-0.057420435
16.51337793,0.002156813,-0.047639558,-0.99784015,-0.045175789,0.002156813,-0.047639558
16.52508361,-0.0030084893,-0.02706375,-0.99350952,0.11044156,-0.0030084893,-0.02706375
16.5367893,0.0013529346,0.0048078087,-0.96260039,0.2708792,0.0013529346,0.0048078087
16.54849498,0.022169658,0.046200857,-0.90038991,0.43205555,0.022169658,0.046200857
17.5083612,-0.99821398,0.059731315,-6.0489263e-05,-0.0010108806,-0.99821398,0.059731315
17.52006689,-0.99763061,0.068791211,-6.6649626e-05,-0.00096657271,-0.99763061,0.068791211
17.53177258,-0.99697551,0.077710836,-7.2071534e-05,-0.00092462722,-0.99697551,0.077710836
17.54347826,-0.99625201,0.086493588,-7.682602e-05,-0.00088489885,-0.99625201,0.086493588
17.55518395,-0.99546327,0.095142763,-8.0977298e-05,-0.00084725231,-0.99546327,0.095142763
17.56688963,-0.99461229,0.10366156,-8.4583451e-05,-0.00081156158,-0.99461229,0.10366156
17.57859532,-0.99370191,0.11205309,-8.7697039e-05,-0.00077770918,-0.99370191,0.11205309
17.590301,-0.99273483,0.12032036,-9.0365644e-05,-0.00074558557,-0.99273483,0.12032036
17.60200669,-0.99171361,0.12846629,-9.2632362e-05,-0.00071508854,-0.99171361,0.12846629
17.61371237,-0.99064069,0.13649374,-9.4536242e-05,-0.00068612266,-0.99064069,0.13649374
17.62541806,-0.98951838,0.14440545,-9.6112676e-05,-0.00065859882,-0.98951838,0.14440545
17.63712375,-0.98834888,0.1522041,-9.7393755e-05,-0.00063243373,-0.98834888,0.1522041
17.64882943,-0.98713427,0.1598923,-9.8408586e-05,-0.00060754952,-0.98713427,0.1598923
17.66053512,-0.98587656,0.16747256,-9.9183577e-05,-0.00058387334,-0.98587656,0.16747256
17.6722408,-0.98457763,0.17494734,-9.9742693e-05,-0.00056133704,-0.98457763,0.17494734
