freq,s11_real,s11_imag,s21_real,s21_imag,s22_real,s22_imag
14.85117057,0.1828116,0.98314782,0.00052821727,-9.8219454e-05,0.1828116,0.98314782
14.86287625,0.19737725,0.98032743,0.00057673272,-0.00011611826,0.19737725,0.98032743
14.87458194,0.2122523,0.97721469,0.0006301814,-0.00013687622,0.2122523,0.97721469
14.88628763,0.22744528,0.9737906,0.00068911108,-0.00016095356,0.22744528,0.9737906
14.89799331,0.24296492,0.97003476,0.00075413477,-0.00018888838,0.24296492,0.97003476
14.909699,0.25882006,0.96592517,0.00082593877,-0.00022131065,0.25882006,0.96592517
14.92140468,0.27501969,0.96143813,0.00090529178,-0.000258959,0.27501969,0.96143813
14.93311037,0.29157284,0.95654806,0.00099305504,-0.00030270082,0.29157284,0.95654806
14.94481605,0.30848864,0.95122734,0.0010901937,-0.00035355626,0.30848864,0.95122734
14.95652174,0.32577619,0.94544607,0.0011977895,-0.00041272718,0.32577619,0.94544607
14.96822742,0.34344454,0.93917191,0.0013170546,-0.00048163196,0.34344454,0.93917191
14.97993311,0.36150262,0.9323698,0.0014493472,-0.00056194742,0.36150262,0.9323698
14.9916388,0.37995913,0.92500167,0.0015961883,-0.00065565971,0.37995913,0.92500167
15.55351171,0.042515687,-0.050082635,0.76070207,0.64576815,0.042515687,-0.050082635
15.56521739,0.025615509,-0.043706854,0.86163968,0.50498576,0.025615509,-0.043706854
15.57692308,0.011502384,-0.030422367,0.93488074,0.35346878,0.011502384,-0.030422367
15.58862876,0.0026143581,-0.013067555,0.98048137,0.19615984,0.0026143581,-0.013067555
15.60033445,-0.00020189069,0.0053478456,0.99927385,0.037724365,-0.00020189069,0.0053478456
15.61204013,0.0026289298,0.022181697,0.99280211,-0.11766489,0.0026289298,0.022181697
15.62374582,0.0098165714,0.03548142,0.9631399,-0.26646994,0.0098165714,0.03548142
15.63545151,0.01961375,0.04411023,0.91267546,-0.40582396,0.01961375,0.04411023
15.64715719,0.030168023,0.047723552,0.84392597,-0.53348037,0.030168023,0.047723552
15.65886288,0.039788001,0.046649474,0.75941262,-0.64771384,0.039788001,0.046649474
15.67056856,0.047119534,0.041720701,0.6615987,-0.74721234,0.047119534,0.041720701
15.68227425,0.051241866,0.034092464,0.55287614,-0.83098733,0.051241866,0.034092464
15.69397993,0.051698838,0.02506797,0.43557906,-0.89831493,0.051698838,0.02506797
15.70568562,0.048479989,0.015943748,0.31200454,-0.94870894,0.048479989,0.015943748
15.7173913,0.041964241,0.0078817892,0.18442548,-0.98191859,0.041964241,0.0078817892
15.72909699,0.03283702,0.0018126439,0.055087502,-0.99793978,0.03283702,0.0018126439
15.74080268,0.021990823,-0.0016280219,-0.073811884,-0.99702836,0.021990823,-0.0016280219
15.75250836,0.010419081,-0.0021286662,-0.20015841,-0.97970584,0.010419081,-0.0021286662
15.76421405,-0.00088700856,0.00030164681,-0.32196372,-0.94675154,-0.00088700856,0.00030164681
15.77591973,-0.011029909,0.0053655224,-0.4374078,-0.89917961,-0.011029909,0.0053655224
15.78762542,-0.019278428,0.012531951,-0.54487398,-0.83820262,-0.019278428,0.012531951
15.7993311,-0.025117312,0.021105596,-0.64297184,-0.76518683,-0.025117312,0.021105596
15.81103679,-0.028272322,0.030302365,-0.73054606,-0.68160465,-0.028272322,0.030302365
15.82274247,-0.028712096,0.039323651,-0.80667206,-0.5889902,-0.028712096,0.039323651
15.83444816,-0.026630114,0.047423154,-0.87064147,-0.48890215,-0.026630114,0.047423154
15.84615385,-0.022411265,0.053962096,-0.92194163,-0.38289613,-0.022411265,0.053962096
15.85785953,-0.016587828,0.058450519,-0.96023342,-0.27250719,-0.016587828,0.058450519
15.86956522,-0.0097894338,0.060573872,-0.98533108,-0.15924083,-0.0097894338,0.060573872
15.8812709,-0.0026909332,0.060205236,-0.99718683,-0.044570262,-0.0026909332,0.060205236
15.89297659,0.0040385574,0.057404166,-0.99588131,0.070063274,0.0040385574,0.057404166
15.90468227,0.0097827598,0.052403526,-0.98161987,0.1832501,0.0097827598,0.052403526
15.91638796,0.014019277,0.045585931,-0.95473353,0.29361414,0.014019277,0.045585931
15.92809365,0.016352692,0.037451629,-0.91568263,0.39981908,0.016352692,0.037451629
15.93979933,0.016538161,0.028579898,-0.86506059,0.50057951,0.016538161,0.028579898
15.95150502,0.01449432,0.019586399,-0.8035957,0.59467659,0.01449432,0.019586399
15.9632107,0.01030483,0.011079179,-0.73214851,0.68097696,0.01030483,0.011079179
15.97491639,0.004208596,0.0036162533,-0.65170395,0.75845315,0.004208596,0.0036162533
15.98662207,-0.0034205424,-0.0023323423,-0.56335743,0.82620292,-0.0034205424,-0.0023323423
15.99832776,-0.012103029,-0.0064154136,-0.46829576,0.88346558,-0.012103029,-0.0064154136
16.01003344,-0.021289388,-0.0084223395,-0.36777417,0.92963325,-0.021289388,-0.0084223395
16.02173913,-0.03039981,-0.0082944018,-0.26309139,0.96425618,-0.03039981,-0.0082944018
16.03344482,-0.038864541,-0.0061253424,-0.15556517,0.9870418,-0.038864541,-0.0061253424
16.0451505,-0.046162224,-0.0021516408,-0.046510132,0.9978483,-0.046162224,-0.0021516408
16.05685619,-0.05185374,0.0032662614,0.062780388,0.99667404,-0.05185374,0.0032662614
16.06856187,-0.055609655,0.0096700519,0.17104754,0.98364465,-0.055609655,0.0096700519
16.08026756,-0.057229992,0.016534946,0.27707518,0.95899983,-0.057229992,0.016534946
16.09197324,-0.056655655,0.023304319,0.37969361,0.92308169,-0.056655655,0.023304319
16.10367893,-0.053971287,0.029425596,0.47778025,0.876326,-0.053971287,0.029425596
16.11538462,-0.049399712,0.03438556,0.57025872,0.81925716,-0.049399712,0.03438556
16.1270903,-0.043288364,0.037743397,0.65609818,0.75248703,-0.043288364,0.037743397
16.13879599,-0.036088312,0.039159915,0.73431479,0.67671702,-0.036088312,0.039159915
16.15050167,-0.028326692,0.038421407,0.80397638,0.59274225,-0.028326692,0.038421407
16.16220736,-0.020573641,0.035456697,0.86421141,0.50145606,-0.020573641,0.035456697
16.17391304,-0.013405194,0.030346,0.91422214,0.40385306,-0.013405194,0.030346
16.18561873,-0.0073640056,0.023320426,0.95330145,0.30102869,-0.0073640056,0.023320426
16.19732441,-0.002920251,0.014751386,0.98085186,0.19417386,-0.002920251,0.014751386
16.2090301,-0.0004353553,0.0051297388,0.99640477,0.08456378,-0.0004353553,0.0051297388
16.22073579,-0.00013140926,-0.0049646813,0.99963756,-0.026459227,-0.00013140926,-0.0049646813
16.23244147,-0.0020689794,-0.01490162,0.99038642,-0.13750781,-0.0020689794,-0.01490162
16.24414716,-0.0061355733,-0.024044679,0.96865306,-0.24717494,-0.0061355733,-0.024044679
16.25585284,-0.012046264,-0.031798267,0.93460438,-0.3540599,-0.012046264,-0.031798267
16.26755853,-0.019357018,-0.037653811,0.88856526,-0.45679237,-0.019357018,-0.037653811
16.27926421,-0.027490258,-0.041231824,0.8310059,-0.55405182,-0.027490258,-0.041231824
16.2909699,-0.035771296,-0.042316724,0.76252583,-0.64458054,-0.035771296,-0.042316724
16.30267559,-0.043473595,-0.040881894,0.68383776,-0.72718954,-0.043473595,-0.040881894
16.31438127,-0.049870445,-0.037103033,0.59575447,-0.80075772,-0.049870445,-0.037103033
16.32608696,-0.054290444,-0.031358434,0.49918145,-0.86422629,-0.054290444,-0.031358434
16.33779264,-0.056174133,-0.024215137,0.39511764,-0.91659159,-0.056174133,-0.024215137
16.34949833,-0.055128924,-0.016400094,0.28466458,-0.95690016,-0.055128924,-0.016400094
16.36120401,-0.050979034,-0.0087555514,0.16904312,-0.98425043,-0.050979034,-0.0087555514
16.3729097,-0.043806328,-0.0021782175,0.04961466,-0.99780491,-0.043806328,-0.0021782175
16.38461538,-0.033976878,0.0024574978,-0.072098213,-0.99681562,-0.033976878,0.0024574978
16.39632107,-0.022146967,0.0043902188,-0.19439793,-0.98066288,-0.022146967,0.0043902188
16.40802676,-0.0092416697,0.003071893,-0.31541206,-0.94890484,-0.0092416697,0.003071893
16.41973244,0.0036003138,-0.0017300451,-0.43311304,-0.90133076,0.0036003138,-0.0017300451
16.43143813,0.015119709,-0.0098396208,-0.54535974,-0.83800795,0.015119709,-0.0098396208
16.44314381,0.024067896,-0.020601748,-0.64995756,-0.75930987,0.024067896,-0.020601748
16.4548495,0.029371752,-0.032847922,-0.74472577,-0.66591429,0.029371752,-0.032847922
16.46655518,0.030323293,-0.044909963,-0.82755337,-0.55876562,0.030323293,-0.044909963
16.47826087,0.026783587,-0.054690162,-0.8964182,-0.43900574,0.026783587,-0.054690162
16.48996656,0.019392574,-0.059794111,-0.94934214,-0.30789299,0.019392574,-0.059794111
16.50167224,0.0097814608,-0.057736561,-0.98425897,-0.1667486,0.0097814608,-0.057736561
16.51337793,0.00078690923,-0.046246559,-0.99878517,-0.016994849,0.00078690923,-0.046246559
16.52508361,-0.0033468887,-0.023729846,-0.98991527,0.13961895,-0.0033468887,-0.023729846
16.5367893,0.0031538208,0.010010558,-0.95373259,0.30047294,0.0031538208,0.010010558
16.54849498,0.027431806,0.052674737,-0.8853689,0.46108,0.027431806,0.052674737
17.5083612,-0.99806188,0.062221198,-6.2448914e-05,-0.0010017146,-0.99806188,0.062221198
17.52006689,-0.99745835,0.071245544,-6.8418752e-05,-0.00095788243,-0.99745835,0.071245544
17.53177258,-0.99678397,0.080130332,-7.3667084e-05,-0.00091638418,-0.99678397,0.080130332
17.54347826,-0.99604205,0.088878941,-7.8263387e-05,-0.00087707643,-0.99604205,0.088878941
17.55518395,-0.99523569,0.097494651,-8.2270474e-05,-0.00083982568,-0.99523569,0.097494651
17.56688963,-0.99436786,0.10598065,-8.5745158e-05,-0.00080450756,-0.99436786,0.10598065
17.57859532,-0.99344137,0.11434001,-8.8738853e-05,-0.00077100611,-0.99344137,0.11434001
17.590301,-0.99245888,0.12257575,-9.1298104e-05,-0.0007392132,-0.99245888,0.12257575
17.60200669,-0.99142292,0.13069077,-9.3465066e-05,-0.00070902794,-0.99142292,0.13069077
17.61371237,-0.9903359,0.1386879,-9.5277938e-05,-0.00068035613,-0.9903359,0.1386879
17.62541806,-0.9892001,0.14656988,-9.6771339e-05,-0.00065310977,-0.9892001,0.14656988
17.63712375,-0.98801769,0.15433937,-9.7976661e-05,-0.00062720663,-0.98801769,0.15433937
17.64882943,-0.98679074,0.16199895,-9.8922375e-05,-0.00060256984,-0.98679074,0.16199895
17.66053512,-0.98552121,0.16955115,-9.9634309e-05,-0.00057912745,-0.98552121,0.16955115
17.6722408,-0.98421098,0.1769984,-0.00010013591,-0.00055681215,-0.98421098,0.1769984
