freq,s11_real,s11_imag,s21_real,s21_imag,s22_real,s22_imag
14.85117057,0.24745941,0.96889803,0.00064736013,-0.00016533768,0.24745941,0.96889803
14.86287625,0.26304301,0.96478383,0.00070735432,-0.00019285627,0.26304301,0.96478383
14.87458194,0.27895174,0.96030479,0.00077346653,-0.00022467849,0.27895174,0.96030479
14.88628763,0.29519345,0.95543709,0.00084637089,-0.00026149618,0.29519345,0.95543709
14.89799331,0.31177604,0.95015512,0.00092681957,-0.0003041189,0.31177604,0.95015512
14.909699,0.32870728,0.94443124,0.0010156518,-0.00035349546,0.32870728,0.94443124
14.92140468,0.34599488,0.93823565,0.0011138039,-0.00041073951,0.34599488,0.93823565
14.93311037,0.36364632,0.93153617,0.0012223199,-0.00047716034,0.36364632,0.93153617
14.94481605,0.38166881,0.92429801,0.0013423632,-0.00055429976,0.38166881,0.92429801
14.95652174,0.40006921,0.91648352,0.0014752295,-0.00064397658,0.40006921,0.91648352
14.96822742,0.41885386,0.9080519,0.0016223598,-0.00074834014,0.41885386,0.9080519
14.97993311,0.43802849,0.8989589,0.0017853539,-0.00086993507,0.43802849,0.8989589
14.9916388,0.45759797,0.88915646,0.0019659845,-0.0010117798,0.45759797,0.88915646
15.55351171,0.0090013204,-0.025858459,0.94406253,0.32862784,0.0090013204,-0.025858459
15.56521739,0.0024482084,-0.014184709,0.98532812,0.1700626,0.0024482084,-0.014184709
15.57692308,1.2388921e-05,-0.0011039723,0.99993643,0.011221417,1.2388921e-05,-0.0011039723
15.58862876,0.001630988,0.01121192,0.98952087,-0.14394472,0.001630988,0.01121192
15.60033445,0.0064507804,0.021119395,0.95614832,-0.29204922,0.0064507804,0.021119395
15.61204013,0.013179638,0.027632728,0.90216851,-0.43029607,0.013179638,0.027632728
15.62374582,0.020393627,0.030421982,0.83007506,-0.55644766,0.020393627,0.030421982
15.63545151,0.026774498,0.029723025,0.74240379,-0.66875727,0.026774498,0.029723025
15.64715719,0.031270921,0.026199159,0.64167369,-0.76589204,0.031270921,0.026199159
15.65886288,0.033188818,0.020784972,0.53036213,-0.84686628,0.033188818,0.020784972
15.67056856,0.032221824,0.014533515,0.41090028,-0.91099478,0.032221824,0.014533515
15.68227425,0.028434395,0.0084802763,0.28567441,-0.95786727,0.028434395,0.0084802763
15.69397993,0.022209648,0.0035321411,0.15702277,-0.9873389,0.022209648,0.0035321411
15.70568562,0.01417319,0.00038600723,0.027222198,-0.99952885,0.01417319,0.00038600723
15.7173913,0.0051034512,-0.00052088257,-0.10153594,-0.99481865,0.0051034512,-0.00052088257
15.72909699,-0.0041615916,0.00097081336,-0.22717768,-0.97384395,-0.0041615916,0.00097081336
15.74080268,-0.012812393,0.0047530864,-0.3477809,-0.93747624,-0.012812393,0.0047530864
15.75250836,-0.020143096,0.010485171,-0.46160666,-0.88679401,-0.020143096,0.010485171
15.76421405,-0.025608767,0.017645815,-0.56712281,-0.82304589,-0.025608767,0.017645815
15.77591973,-0.028861773,0.025596047,-0.66301714,-0.74760959,-0.028861773,0.025596047
15.78762542,-0.029766912,0.033645369,-0.74819957,-0.66195115,-0.029766912,0.033645369
15.7993311,-0.028396994,0.041115177,-0.8217947,-0.56758843,-0.028396994,0.041115177
15.81103679,-0.02501201,0.047394602,-0.88312784,-0.46606156,-0.02501201,0.047394602
15.82274247,-0.020025816,0.051985538,-0.93170759,-0.35891145,-0.020025816,0.051985538
15.83444816,-0.013964395,0.054535074,-0.9672086,-0.24766598,-0.013964395,0.054535074
15.84615385,-0.0074195612,0.054854742,-0.98945683,-0.13383228,-0.0074195612,0.054854742
15.85785953,-0.0010015255,0.052926836,-0.99841915,-0.018892915,-0.0010015255,0.052926836
15.86956522,0.0047067538,0.048898659,-0.99419761,0.095696764,0.0047067538,0.048898659
15.8812709,0.0091909107,0.043065946,-0.97702789,0.20851222,0.0091909107,0.043065946
15.89297659,0.012040067,0.035847047,-0.94728046,0.31816624,0.012040067,0.035847047
15.90468227,0.012973485,0.027749757,-0.90546258,0.42331922,0.012973485,0.027749757
15.91638796,0.011857581,0.019333048,-0.85221903,0.52269337,0.011857581,0.019333048
15.92809365,0.0087123866,0.011166226,-0.78832973,0.61508995,0.0087123866,0.011166226
15.93979933,0.0037071987,0.0037882674,-0.71470279,0.6994082,0.0037071987,0.0037882674
15.95150502,-0.0028541375,-0.0023298488,-0.63236252,0.77466384,-0.0028541375,-0.0023298488
15.9632107,-0.010557082,-0.0068172237,-0.54243252,0.84000538,-0.010557082,-0.0068172237
15.97491639,-0.018907475,-0.0094273592,-0.44611489,0.89472629,-0.018907475,-0.0094273592
15.98662207,-0.027367392,-0.010053206,-0.34466721,0.93827207,-0.027367392,-0.010053206
15.99832776,-0.035393058,-0.0087322186,-0.23937918,0.97024156,-0.035393058,-0.0087322186
16.01003344,-0.042472119,-0.0056414973,-0.13155085,0.99038309,-0.042472119,-0.0056414973
16.02173913,-0.048157789,-0.0010838334,-0.022474062,0.99858629,-0.048157789,-0.0010838334
16.03344482,-0.052097875,0.0045339876,0.086581918,0.99487126,-0.052097875,0.0045339876
16.0451505,-0.054057179,0.010728904,0.19438011,0.97937689,-0.054057179,0.010728904
16.05685619,-0.05393232,0.016973454,0.29972133,0.9523499,-0.05393232,0.016973454
16.06856187,-0.051758487,0.022729935,0.4014464,0.91413631,-0.051758487,0.022729935
16.08026756,-0.047708002,0.027485053,0.49843649,0.86517604,-0.047708002,0.027485053
16.09197324,-0.042080849,0.030783363,0.58961323,0.80600113,-0.042080849,0.030783363
16.10367893,-0.035287556,0.03225788,0.67394034,0.73723716,-0.035287556,0.03225788
16.11538462,-0.027825045,0.031656269,0.75042809,0.65960695,-0.027825045,0.031656269
16.1270903,-0.020246335,0.028861054,0.81814163,0.57393502,-0.020246335,0.028861054
16.13879599,-0.013125375,0.023902328,0.87621348,0.48115105,-0.013125375,0.023902328
16.15050167,-0.0070186722,0.016961632,0.92385987,0.38229044,-0.0070186722,0.016961632
16.16220736,-0.0024259147,0.0083659918,0.96039955,0.27849028,-0.0024259147,0.0083659918
16.17391304,0.00024786884,-0.0014283485,0.98527348,0.1709797,0.00024786884,-0.0014283485
16.18561873,0.00072576297,-0.011862221,0.99806309,0.061064218,0.00072576297,-0.011862221
16.19732441,-0.0011147686,-0.022308698,0.99850465,-0.04989541,-0.0011147686,-0.022308698
16.2090301,-0.005225287,-0.032115111,0.98649808,-0.16050811,-0.005225287,-0.032115111
16.22073579,-0.011381274,-0.04064913,0.96210866,-0.26937901,-0.011381274,-0.04064913
16.23244147,-0.019189448,-0.047345686,0.92556147,-0.37513479,-0.019189448,-0.047345686
16.24414716,-0.028107434,-0.051751339,0.87722962,-0.47644514,-0.028107434,-0.051751339
16.25585284,-0.03747478,-0.053562976,0.81761802,-0.57203796,-0.03747478,-0.053562976
16.26755853,-0.046553613,-0.05265818,0.74734577,-0.66070733,-0.046553613,-0.05265818
16.27926421,-0.054576755,-0.049115243,0.66713034,-0.74131382,-0.054576755,-0.049115243
16.2909699,-0.060801,-0.043221364,0.57777674,-0.81277869,-0.060801,-0.043221364
16.30267559,-0.064563194,-0.035467909,0.48017441,-0.87407446,-0.064563194,-0.035467909
16.31438127,-0.065336775,-0.026531798,0.37530325,-0.92421569,-0.065336775,-0.026531798
16.32608696,-0.062786131,-0.017241977,0.26424888,-0.9622542,-0.062786131,-0.017241977
16.33779264,-0.056815506,-0.0085299562,0.1482251,-0.98728342,-0.056815506,-0.0085299562
16.34949833,-0.047608092,-0.0013636866,0.028599772,-0.99845564,-0.047608092,-0.0013636866
16.36120401,-0.035649592,0.0033349669,-0.093082135,-0.99501442,-0.035649592,0.0033349669
16.3729097,-0.021729297,0.0047869052,-0.21508544,-0.97634173,-0.021729297,0.0047869052
16.38461538,-0.0069112358,0.0024613676,-0.33548938,-0.94201542,-0.0069112358,0.0024613676
16.39632107,0.0075310642,-0.0038185725,-0.45221566,-0.89186866,0.0075310642,-0.0038185725
16.40802676,0.020219738,-0.013783076,-0.56308143,-0.82603904,0.020219738,-0.013783076
16.41973244,0.029816388,-0.026649754,-0.66587191,-0.74499354,0.029816388,-0.026649754
16.43143813,0.035197689,-0.041099116,-0.75841885,-0.64951739,0.035197689,-0.041099116
16.44314381,0.035651574,-0.055301956,-0.83866293,-0.54066177,0.035651574,-0.055301956
16.4548495,0.031081891,-0.06700454,-0.90467245,-0.41965709,0.031081891,-0.06700454
16.46655518,0.022213323,-0.073674577,-0.95458968,-0.28781447,0.022213323,-0.073674577
16.47826087,0.010795745,-0.072715492,-0.98648153,-0.14645851,0.010795745,-0.072715492
16.48996656,-0.00018820554,-0.061774485,-0.99808548,0.003040822,-0.00018820554,-0.061774485
16.50167224,-0.0063206667,-0.039205749,-0.98647359,0.15903716,-0.0063206667,-0.039205749
16.51337793,-0.0016156629,-0.0047994207,-0.94772763,0.31904026,-0.0016156629,-0.0047994207
16.52508361,0.021336022,0.039085593,-0.87686807,0.47866426,0.021336022,0.039085593
16.5367893,0.070468029,0.085955573,-0.76854455,0.63006759,0.070468029,0.085955573
16.54849498,0.15181603,0.12364689,-0.61928078,0.76036482,0.15181603,0.12364689
17.5083612,-0.99669164,0.081270563,-7.5397433e-05,-0.00092466435,-0.99669164,0.081270563
17.52006689,-0.99593936,0.090022231,-8.0009785e-05,-0.00088516906,-0.99593936,0.090022231
17.53177258,-0.9951226,0.09864219,-8.4032102e-05,-0.00084773305,-0.9951226,0.09864219
17.54347826,-0.9942443,0.10713357,-8.7521075e-05,-0.00081223219,-0.9942443,0.10713357
17.55518395,-0.99330724,0.11549939,-9.0528023e-05,-0.00077855076,-0.99330724,0.11549939
17.56688963,-0.99231406,0.12374262,-9.3099423e-05,-0.00074658082,-0.99231406,0.12374262
17.57859532,-0.99126727,0.13186611,-9.5277388e-05,-0.00071622162,-0.99126727,0.13186611
17.590301,-0.99016926,0.13987263,-9.7100086e-05,-0.00068737909,-0.99016926,0.13987263
17.60200669,-0.98902229,0.14776488,-9.8602128e-05,-0.00065996534,-0.98902229,0.14776488
17.61371237,-0.98782852,0.15554549,-9.9814905e-05,-0.00063389821,-0.98782852,0.15554549
17.62541806,-0.98659,0.163217,-0.0001007669,-0.00060910086,-0.98659,0.163217
17.63712375,-0.98530868,0.17078187,-0.00010148396,-0.00058550142,-0.98530868,0.17078187
17.64882943,-0.98398642,0.17824252,-0.00010198956,-0.00056303256,-0.98398642,0.17824252
17.66053512,-0.98262499,0.18560126,-0.000102305,-0.00054163127,-0.98262499,0.18560126
17.6722408,-0.98122607,0.19286037,-0.00010244963,-0.00052123848,-0.98122607,0.19286037
