freq,s11_real,s11_imag,s21_real,s21_imag,s22_real,s22_imag
14.85117057,0.2088957,0.97793774,0.00058967947,-0.00012596048,0.2088957,0.97793774
14.86287625,0.22392089,0.9746071,0.00064426432,-0.00014802297,0.22392089,0.9746071
14.87458194,0.23926518,0.97095399,0.000704433,-0.00017358834,0.23926518,0.97095399
14.88628763,0.2549371,0.96695731,0.00077080719,-0.00020322237,0.2549371,0.96695731
14.89799331,0.27094528,0.96259435,0.00084408236,-0.00023758724,0.27094528,0.96259435
14.909699,0.28729844,0.95784063,0.00092503668,-0.00027745909,0.28729844,0.95784063
14.92140468,0.30400533,0.95266974,0.0010145411,-0.00032374903,0.30400533,0.95266974
14.93311037,0.3210747,0.94705314,0.0011135706,-0.00037752828,0.3210747,0.94705314
14.94481605,0.33851527,0.94096,0.0012232162,-0.00044005842,0.33851527,0.94096
14.95652174,0.35633562,0.93435692,0.0013446991,-0.00051282777,0.35633562,0.93435692
14.96822742,0.37454413,0.92720772,0.001479385,-0.00059759528,0.37454413,0.92720772
14.97993311,0.39314887,0.91947312,0.0016288005,-0.00069644352,0.39314887,0.91947312
14.9916388,0.41215753,0.91111047,0.0017946504,-0.00081184302,0.41215753,0.91111047
15.55351171,0.017372562,-0.031738477,0.87661541,0.47982943,0.017372562,-0.031738477
15.56521739,0.006370746,-0.018433748,0.94496732,0.32658289,0.006370746,-0.018433748
15.57692308,0.00030733718,-0.0017972838,0.98569073,0.16855402,0.00030733718,-0.0017972838
15.58862876,-0.00015796512,0.015345105,0.99982927,0.010292412,-0.00015796512,0.015345105
15.60033445,0.0044557922,0.030565994,0.98906887,-0.14418263,0.0044557922,0.030565994
15.61204013,0.012848712,0.042120506,0.95555967,-0.29149011,0.012848712,0.042120506
15.62374582,0.023328915,0.049046413,0.90171708,-0.42890152,0.023328915,0.049046413
15.63545151,0.034140928,0.05112733,0.83005623,-0.55428066,0.034140928,0.05112733
15.64715719,0.043710197,0.048770337,0.74308402,-0.66598574,0.043710197,0.048770337
15.65886288,0.05080205,0.042841766,0.64324836,-0.76276817,0.05080205,0.042841766
15.67056856,0.054605453,0.034492318,0.53292956,-0.84369106,0.054605453,0.034492318
15.68227425,0.054755974,0.02499108,0.41445414,-0.90807764,0.054755974,0.02499108
15.69397993,0.051311868,0.015579699,0.29011277,-0.95548885,0.051311868,0.015579699
15.70568562,0.044695335,0.0073532002,0.16216943,-0.98572275,0.044695335,0.0073532002
15.7173913,0.03560944,0.0011713227,0.032854947,-0.99882488,0.03560944,0.0011713227
15.72909699,0.024940517,-0.0023974511,-0.095655656,-0.9950991,0.024940517,-0.0023974511
15.74080268,0.013655648,-0.0030988302,-0.22127846,-0.97511013,0.013655648,-0.0030988302
15.75250836,0.0027045037,-0.00098449907,-0.34206175,-0.93967307,0.0027045037,-0.00098449907
15.76421405,-0.0070662527,0.0036229518,-0.45622573,-0.88982865,-0.0070662527,0.0036229518
15.77591973,-0.014979676,0.010185562,-0.56219446,-0.82680666,-0.014979676,0.010185562
15.78762542,-0.020572635,0.01801833,-0.65861586,-0.75198222,-0.020572635,0.01801833
15.7993311,-0.023616344,0.026362425,-0.74436859,-0.66683033,-0.023616344,0.026362425
15.81103679,-0.024114885,0.034456189,-0.81855673,-0.57288404,-0.024114885,0.034456189
15.82274247,-0.022285068,0.041598294,-0.88049552,-0.4716997,-0.022285068,0.041598294
15.83444816,-0.018522023,0.047199265,-0.92969198,-0.36483145,-0.018522023,0.047199265
15.84615385,-0.013355113,0.050819301,-0.96582454,-0.25381489,-0.013355113,0.050819301
15.85785953,-0.0073985324,0.052191735,-0.98872488,-0.14015846,-0.0073985324,0.052191735
15.86956522,-0.0013003611,0.051232505,-0.99836437,-0.025340049,-0.0013003611,0.051232505
15.8812709,0.0043067706,0.048036622,-0.99484591,0.089193888,0.0043067706,0.048036622
15.89297659,0.0088507756,0.042863034,-0.97840095,0.20202973,0.0088507756,0.042863034
15.90468227,0.011858781,0.036109527,-0.94939037,0.31179063,0.011858781,0.036109527
15.91638796,0.012987536,0.028279582,-0.90830724,0.41714452,0.012987536,0.028279582
15.92809365,0.012044084,0.019943389,-0.85577906,0.5168166,0.012044084,0.019943389
15.93979933,0.008995651,0.011695528,-0.79256748,0.60960568,0.008995651,0.011695528
15.95150502,0.0039683053,0.0041120897,-0.71956354,0.69440309,0.0039683053,0.0041120897
15.9632107,-0.0027653736,-0.0022898799,-0.63777763,0.77021218,-0.0027653736,-0.0022898799
15.97491639,-0.010808565,-0.0070878206,-0.54832397,0.83616611,-0.010808565,-0.0070878206
15.98662207,-0.019670624,-0.009981581,-0.45240046,0.89154207,-0.019670624,-0.009981581
15.99832776,-0.028803217,-0.010812028,-0.35126545,0.9357703,-0.028803217,-0.010812028
16.01003344,-0.037639391,-0.0095693568,-0.24621338,0.96843723,-0.037639391,-0.0095693568
16.02173913,-0.04563268,-0.0063909662,-0.13855142,0.98928273,-0.04563268,-0.0063909662
16.03344482,-0.052293595,-0.0015495952,-0.029579037,0.9981924,-0.052293595,-0.0015495952
16.0451505,-0.057221234,0.0045669667,0.079428263,0.99518643,-0.057221234,0.0045669667
16.05685619,-0.060128339,0.011482833,0.18723031,0.98040682,-0.060128339,0.011482833
16.06856187,-0.060858714,0.018665678,0.29262884,0.95410491,-0.060858714,0.018665678
16.08026756,-0.059396429,0.02556113,0.39447015,0.91663078,-0.059396429,0.02556113
16.09197324,-0.055866695,0.03162801,0.49164508,0.86842599,-0.055866695,0.03162801
16.10367893,-0.050528559,0.036372683,0.58308802,0.81001991,-0.050528559,0.036372683
16.11538462,-0.043759846,0.039380912,0.66777685,0.74202985,-0.043759846,0.039380912
16.1270903,-0.036034934,0.040345654,0.74473513,0.66516411,-0.036034934,0.040345654
16.13879599,-0.027896188,0.039089318,0.81303807,0.58022661,-0.027896188,0.039089318
16.15050167,-0.019920189,0.035579003,0.8718227,0.4881214,-0.019920189,0.035579003
16.16220736,-0.012680265,0.029933365,0.92030222,0.38985513,-0.012680265,0.029933365
16.17391304,-0.0067072888,0.02242001,0.95778373,0.28653565,-0.0067072888,0.02242001
16.18561873,-0.0024511474,0.013442749,0.98368763,0.17936535,-0.0024511474,0.013442749
16.19732441,-0.00024560018,0.0035187115,0.99756676,0.069628491,-0.00024560018,0.0035187115
16.2090301,-0.00027936411,-0.0067538805,0.9991228,-0.041327212,-0.00027936411,-0.0067538805
16.22073579,-0.0025760604,-0.016735563,0.98821794,-0.15211374,-0.0025760604,-0.016735563
16.23244147,-0.0069851366,-0.025790594,0.96488001,-0.26132856,-0.0069851366,-0.025790594
16.24414716,-0.013185069,-0.0333339,0.92930058,-0.36758052,-0.013185069,-0.0333339
16.25585284,-0.020699169,-0.038876595,0.88182628,-0.46951312,-0.020699169,-0.038876595
16.26755853,-0.028923332,-0.042066734,0.82294503,-0.56582268,-0.028923332,-0.042066734
16.27926421,-0.0371642,-0.042722346,0.75326962,-0.65526979,-0.0371642,-0.042722346
16.2909699,-0.044685655,-0.040854394,0.67352172,-0.73668352,-0.044685655,-0.040854394
16.30267559,-0.050761178,-0.036677875,0.58451957,-0.80895915,-0.050761178,-0.036677875
16.31438127,-0.054729566,-0.030609804,0.48717216,-0.87105166,-0.054729566,-0.030609804
16.32608696,-0.056051358,-0.023253089,0.38248153,-0.92196823,-0.056051358,-0.023253089
16.33779264,-0.05436319,-0.015365412,0.27155381,-0.9607638,-0.05436319,-0.015365412
16.34949833,-0.049526721,-0.007812345,0.15561747,-0.98654411,-0.049526721,-0.007812345
16.36120401,-0.041667943,-0.0015042205,0.036045313,-0.99847997,-0.041667943,-0.0015042205
16.3729097,-0.031201513,0.0026827986,-0.085624858,-0.99583515,-0.031201513,0.0026827986
16.38461538,-0.018833682,0.0039992918,-0.20767785,-0.97800778,-0.018833682,0.0039992918
16.39632107,-0.0055368914,0.0019239619,-0.32822378,-0.94458181,-0.0055368914,0.0019239619
16.40802676,0.0075101086,-0.0037343443,-0.44522148,-0.89538119,0.0075101086,-0.0037343443
16.41973244,0.019020327,-0.012745423,-0.55652432,-0.83051578,0.019020327,-0.012745423
16.43143813,0.027734317,-0.024390913,-0.65994403,-0.7504064,0.027734317,-0.024390913
16.44314381,0.032588239,-0.037435514,-0.75332048,-0.65577804,0.032588239,-0.037435514
16.4548495,0.032904659,-0.050147339,-0.83457732,-0.54761595,0.032904659,-0.050147339
16.46655518,0.028595294,-0.060374708,-0.90173777,-0.42709038,0.028595294,-0.060374708
16.47826087,0.020367783,-0.065684636,-0.95287327,-0.29547116,0.020367783,-0.065684636
16.48996656,0.0099343258,-0.063572894,-0.98596212,-0.15407304,0.0099343258,-0.063572894
16.50167224,0.00022280537,-0.051772614,-0.99864963,-0.0042977259,0.00022280537,-0.051772614
16.51337793,-0.0044227979,-0.028721836,-0.9879333,0.15212918,-0.0044227979,-0.028721836
16.52508361,0.0018774511,0.0057049341,-0.94986772,0.31259436,0.0018774511,0.0057049341
16.5367893,0.026368465,0.049076247,-0.87953125,0.47256851,0.026368465,0.049076247
16.54849498,0.076734126,0.09488659,-0.7717494,0.62410838,0.076734126,0.09488659
17.5083612,-0.99740045,0.072051384,-6.9656178e-05,-0.00096424385,-0.99740045,0.072051384
17.52006689,-0.99671897,0.080934719,-7.4912804e-05,-0.0009225585,-0.99671897,0.080934719
17.53177258,-0.99597003,0.089682314,-7.9516173e-05,-0.00088306959,-0.99597003,0.089682314
17.54347826,-0.99515672,0.09829743,-8.3529135e-05,-0.00084564347,-0.99515672,0.09829743
17.55518395,-0.99428199,0.10678323,-8.7008547e-05,-0.0008101556,-0.99428199,0.10678323
17.56688963,-0.99334864,0.11514278,-9.0005868e-05,-0.00077648989,-0.99334864,0.11514278
17.57859532,-0.99235933,0.12337907,-9.2567694e-05,-0.00074453806,-0.99235933,0.12337907
17.590301,-0.99131657,0.13149499,-9.4736233e-05,-0.00071419904,-0.99131657,0.13149499
17.60200669,-0.99022277,0.13949335,-9.6549732e-05,-0.0006853785,-0.99022277,0.13949335
17.61371237,-0.98908019,0.14737687,-9.8042865e-05,-0.00065798829,-0.98908019,0.14737687
17.62541806,-0.987891,0.15514821,-9.9247074e-05,-0.00063194602,-0.987891,0.15514821
17.63712375,-0.98665726,0.16280993,-0.00010019088,-0.00060717466,-0.98665726,0.16280993
17.64882943,-0.98538093,0.17036453,-0.00010090017,-0.00058360214,-0.98538093,0.17036453
17.66053512,-0.98406387,0.17781444,-0.00010139843,-0.00056116099,-0.98406387,0.17781444
17.6722408,-0.98270785,0.18516202,-0.00010170697,-0.00053978803,-0.98270785,0.18516202
