freq,s11_real,s11_imag,s21_real,s21_imag,s22_real,s22_imag
14.85117057,0.20828924,0.97806709,0.00058088936,-0.00012370624,0.20828924,0.97806709
14.86287625,0.22327337,0.97475565,0.00063454047,-0.00014534514,0.22327337,0.97475565
14.87458194,0.23857464,0.9711239,0.00069366696,-0.00017041218,0.23857464,0.9711239
14.88628763,0.25420146,0.96715097,0.00075887697,-0.00019945969,0.25420146,0.96715097
14.89799331,0.27016238,0.96281439,0.00083085059,-0.0002331338,0.27016238,0.96281439
14.909699,0.28646601,0.95808993,0.00091034865,-0.00027219151,0.28646601,0.95808993
14.92140468,0.303121,0.9529515,0.00099822249,-0.00031752109,0.303121,0.9529515
14.93311037,0.32013601,0.94737089,0.0010954248,-0.00037016644,0.32013601,0.94737089
14.94481605,0.33751963,0.94131762,0.0012030216,-0.00043135641,0.33751963,0.94131762
14.95652174,0.35528034,0.93475873,0.0013222055,-0.00050253997,0.35528034,0.93475873
14.96822742,0.37342642,0.92765848,0.0014543104,-0.00058542874,0.37342642,0.92765848
14.97993311,0.39196585,0.91997812,0.0016008269,-0.00068204825,0.39196585,0.91997812
14.9916388,0.41090619,0.91167558,0.001763419,-0.00079480004,0.41090619,0.91167558
15.55351171,0.024660878,-0.042035749,0.86150083,0.50541187,0.024660878,-0.042035749
15.56521739,0.01161151,-0.03068711,0.93478096,0.35370613,0.01161151,-0.03068711
15.57692308,0.0030395959,-0.015181124,0.98042125,0.19630196,0.0030395959,-0.015181124
15.58862876,-6.2618639e-05,0.0016555878,0.99928412,0.037795526,-6.2618639e-05,0.0016555878
15.60033445,0.0020502685,0.017297265,0.99289767,-0.11768952,0.0020502685,0.017297265
15.61204013,0.008260558,0.029844066,0.96330066,-0.2666326,0.008260558,0.029844066
15.62374582,0.016978075,0.038158771,0.91284879,-0.40615605,0.016978075,0.038158771
15.63545151,0.026481134,0.041857314,0.8440418,-0.53398516,0.026481134,0.041857314
15.64715719,0.035178443,0.041203215,0.75940226,-0.64836176,0.035178443,0.041203215
15.65886288,0.041785572,0.036951092,0.66141108,-0.7479465,0.041785572,0.036951092
15.67056856,0.045423717,0.030173126,0.55248783,-0.83173521,0.045423717,0.030173126
15.68227425,0.045654284,0.02209059,0.43499729,-0.89900225,0.045654284,0.02209059
15.69397993,0.042463381,0.013923625,0.31126376,-0.94927228,0.042463381,0.013923625
15.70568562,0.036208834,0.0067668729,0.18357943,-0.98231447,0.036208834,0.0067668729
15.7173913,0.027540786,0.0014954506,0.05419899,-0.99814916,0.027540786,0.0014954506
15.72909699,0.017306116,-0.0012962589,-0.074681305,-0.99705643,0.017306116,-0.0012962589
15.74080268,0.0064465452,-0.0013224861,-0.20095697,-0.97957796,0.0064465452,-0.0013224861
15.75250836,-0.0041000979,0.0013976841,-0.32265507,-0.9465067,-0.0041000979,0.0013976841
15.76421405,-0.013487056,0.0065716018,-0.43797318,-0.89886284,-0.013487056,0.0065716018
15.77591973,-0.021027694,0.013685659,-0.54531133,-0.83785804,-0.021027694,0.013685659
15.78762542,-0.026242409,0.022071644,-0.64329252,-0.76485222,-0.026242409,0.022071644
15.7993311,-0.028882154,0.030978955,-0.73077025,-0.68130828,-0.028882154,0.030978955
15.81103679,-0.028929829,0.039645487,-0.8068239,-0.58874994,-0.028929829,0.039645487
15.82274247,-0.026582731,0.047361421,-0.87074493,-0.48872643,-0.026582731,0.047361421
15.83444816,-0.022220258,0.053521941,-0.92201751,-0.38278632,-0.022220258,0.053521941
15.84615385,-0.016361465,0.05766664,-0.96029794,-0.2724605,-0.016361465,0.05766664
15.85785953,-0.0096167713,0.0595048,-0.98539592,-0.15925316,-0.0096167713,0.0595048
15.86956522,-0.0026376269,0.058926812,-0.99726029,-0.044638434,-0.0026376269,0.058926812
15.8812709,0.0039326867,0.056002621,-0.99597018,0.069940274,0.0039326867,0.056002621
15.89297659,0.0095044871,0.050968512,-0.98173158,0.18307097,0.0095044871,0.050968512
15.90468227,0.013581148,0.044203796,-0.95487801,0.29337615,0.013581148,0.044203796
15.91638796,0.015790721,0.03619922,-0.91587349,0.39951974,0.015790721,0.03619922
15.92809365,0.015908201,0.027519188,-0.86531547,0.50021872,0.015908201,0.027519188
15.93979933,0.013867299,0.018760204,-0.80393553,0.59425871,0.013867299,0.018760204
15.95150502,0.009761148,0.010508222,-0.73259599,0.68051262,0.009761148,0.010508222
15.9632107,0.0038320319,0.003297749,-0.65228122,0.75796019,0.0038320319,0.003297749
15.97491639,-0.0035490017,-0.0024245097,-0.56408356,0.82570652,-0.0035490017,-0.0024245097
15.98662207,-0.011911007,-0.006328962,-0.4691842,0.88299732,-0.011911007,-0.006328962
15.99832776,-0.020718202,-0.0082234911,-0.36883069,0.92922928,-0.020718202,-0.0082234911
16.01003344,-0.029408492,-0.0080636995,-0.26431283,0.96395479,-0.029408492,-0.0080636995
16.02173913,-0.037432612,-0.0059527338,-0.15693904,0.98688069,-0.037432612,-0.0059527338
16.03344482,-0.044291126,-0.0021312047,-0.048015214,0.99786186,-0.044291126,-0.0021312047
16.0451505,-0.049566976,0.0030415941,0.061172543,0.99689106,-0.049566976,0.0030415941
16.05685619,-0.052951748,0.0091134904,0.16937052,0.98408673,-0.052951748,0.0091134904
16.06856187,-0.054264448,0.015570328,0.27536523,0.95968064,-0.054264448,0.015570328
16.08026756,-0.053462113,0.021869956,0.37798722,0.92400713,-0.053462113,0.021869956
16.09197324,-0.050642035,0.027477389,0.47611193,0.87749519,-0.050642035,0.027477389
16.10367893,-0.046035722,0.031899347,0.56865946,0.8206641,-0.046035722,0.031899347
16.11538462,-0.039994976,0.034716499,0.65459468,0.75412265,-0.039994976,0.034716499
16.1270903,-0.032970663,0.035611838,0.73292952,0.67857133,-0.032970663,0.035611838
16.13879599,-0.025485026,0.034393649,0.80272855,0.59480625,-0.025485026,0.034393649
16.15050167,-0.018098631,0.031011613,0.86311863,0.50372309,-0.018098631,0.031011613
16.16220736,-0.011373465,0.02556466,0.91330263,0.40631933,-0.011373465,0.02556466
16.17391304,-0.0058340977,0.018299485,0.95257636,0.30369289,-0.0058340977,0.018299485
16.18561873,-0.0019292635,0.0095990143,0.98034742,0.1970357,-0.0019292635,0.0095990143
16.19732441,3.4501837e-06,-3.922448e-05,0.99615383,0.08762165,3.4501837e-06,-3.922448e-05
16.2090301,-0.00023297814,-0.010034092,0.9996802,-0.023211231,-0.00023297814,-0.010034092
16.22073579,-0.0026741131,-0.019759595,0.99076945,-0.1340832,-0.0026741131,-0.019759595
16.23244147,-0.0071838394,-0.028588978,0.96942823,-0.24359796,-0.0071838394,-0.028588978
16.24414716,-0.013456176,-0.035941146,0.93582548,-0.35036813,-0.013456176,-0.035941146
16.25585284,-0.021029554,-0.041326051,0.89028435,-0.45303828,-0.021029554,-0.041326051
16.26755853,-0.029313011,-0.044385761,0.83326896,-0.5503031,-0.029313011,-0.044385761
16.27926421,-0.037622909,-0.044928269,0.76536836,-0.64091906,-0.037622909,-0.044928269
16.2909699,-0.045228189,-0.042951616,0.68728085,-0.72370892,-0.045228189,-0.042951616
16.30267559,-0.051401829,-0.038656536,0.59980157,-0.79755978,-0.051401829,-0.038656536
16.31438127,-0.055476049,-0.032446262,0.5038165,-0.86141661,-0.055476049,-0.032446262
16.32608696,-0.056898722,-0.02491244,0.40030449,-0.9142747,-0.056898722,-0.02491244
16.33779264,-0.055288278,-0.016806182,0.290348,-0.95517475,-0.055288278,-0.016806182
16.34949833,-0.050483838,-0.008993356,0.17515139,-0.98320521,-0.050483838,-0.008993356
16.36120401,-0.042586489,-0.0023934875,0.056063352,-0.9975157,-0.042586489,-0.0023934875
16.3729097,-0.031986394,0.002097529,-0.065401496,-0.99734403,-0.031986394,0.002097529
16.38461538,-0.019369311,0.003699059,-0.18754865,-0.98205736,-0.019369311,0.003699059
16.39632107,-0.0056954648,0.0018472133,-0.30850453,-0.95120403,-0.0056954648,0.0018472133
16.40802676,0.0078556963,-0.0037016478,-0.4262381,-0.90456933,0.0078556963,-0.0037016478
16.41973244,0.01997898,-0.012776635,-0.53860562,-0.84222419,0.01997898,-0.012776635
16.43143813,0.029375228,-0.024720899,-0.6434151,-0.76455411,0.029375228,-0.024720899
16.44314381,0.034916321,-0.038356906,-0.73849916,-0.67225634,0.034916321,-0.038356906
16.4548495,0.035833889,-0.051999862,-0.82177702,-0.56629893,0.035833889,-0.051999862
16.46655518,0.031920509,-0.063526641,-0.89127998,-0.44784534,0.031920509,-0.063526641
16.47826087,0.023734719,-0.070504618,-0.94511262,-0.31816331,0.023734719,-0.070504618
16.48996656,0.0128073,-0.070387788,-0.98132536,-0.17855552,0.0128073,-0.070387788
16.50167224,0.0018510737,-0.060802372,-0.99768587,-0.030373651,0.0018510737,-0.060802372
16.51337793,-0.0050320747,-0.039975499,-0.99136452,0.12479195,-0.0050320747,-0.039975499
16.52508361,-0.0021990139,-0.0074064009,-0.95860983,0.28461818,-0.0021990139,-0.0074064009
16.5367893,0.017457069,0.035087204,-0.89462087,0.44510409,0.017457069,0.035087204
16.54849498,0.06178468,0.081888744,-0.79406292,0.59911682,0.06178468,0.081888744
17.5083612,-0.99750715,0.070558766,-6.864457e-05,-0.00097044569,-0.99750715,0.070558766
17.52006689,-0.99683756,0.079460717,-7.4007617e-05,-0.00092842822,-0.99683756,0.079460717
17.53177258,-0.99610003,0.0882266,-7.870755e-05,-0.00088862762,-0.99610003,0.0882266
17.54347826,-0.99529768,0.09685968,-8.2808146e-05,-0.00085090882,-0.99529768,0.09685968
17.55518395,-0.99443348,0.10536313,-8.6367096e-05,-0.00081514598,-0.99443348,0.10536313
17.56688963,-0.99351024,0.11374003,-8.9436611e-05,-0.00078122181,-0.99351024,0.11374003
17.57859532,-0.99253063,0.12199336,-9.2063965e-05,-0.0007490269,-0.99253063,0.12199336
17.590301,-0.9914972,0.13012602,-9.429198e-05,-0.00071845917,-0.9914972,0.13012602
17.60200669,-0.99041235,0.13814084,-9.6159457e-05,-0.00068942333,-0.99041235,0.13814084
17.61371237,-0.98927838,0.14604053,-9.7701573e-05,-0.00066183033,-0.98927838,0.14604053
17.62541806,-0.98809747,0.15382777,-9.8950223e-05,-0.00063559698,-0.98809747,0.15382777
17.63712375,-0.98687168,0.16150512,-9.993434e-05,-0.00061064548,-0.98687168,0.16150512
17.64882943,-0.98560299,0.16907509,-0.00010068018,-0.00058690306,-0.98560299,0.16907509
17.66053512,-0.98429328,0.1765401,-0.00010121156,-0.00056430158,-0.98429328,0.1765401
17.6722408,-0.98294433,0.18390254,-0.00010155012,-0.00054277727,-0.98294433,0.18390254
