freq,s11_real,s11_imag,s21_real,s21_imag,s22_real,s22_imag
14.85117057,0.20707608,0.97832467,0.00057664038,-0.00012205399,0.20707608,0.97832467
14.86287625,0.22201853,0.97504223,0.00062984626,-0.00014341691,0.22201853,0.97504223
14.87458194,0.23727664,0.97144186,0.00068847745,-0.00016816201,0.23727664,0.97144186
14.88628763,0.25285879,0.96750288,0.00075313618,-0.00019683363,0.25285879,0.96750288
14.89799331,0.26877348,0.96320303,0.00082449596,-0.00023006847,0.26877348,0.96320303
14.909699,0.2850293,0.95851834,0.00090331025,-0.00026861237,0.2850293,0.95851834
14.92140468,0.30163485,0.95342296,0.00099042215,-0.0003133403,0.30163485,0.95342296
14.93311037,0.31859878,0.94788897,0.0010867752,-0.00036528038,0.31859878,0.94788897
14.94481605,0.33592964,0.94188623,0.0011934253,-0.00042564263,0.33592964,0.94188623
14.95652174,0.35363592,0.9353821,0.0013115539,-0.00049585358,0.35363592,0.9353821
14.96822742,0.37172588,0.92834124,0.0014424824,-0.000577598,0.37172588,0.92834124
14.97993311,0.39020752,0.92072532,0.0015876879,-0.00067286924,0.39020752,0.92072532
14.9916388,0.40908843,0.91249273,0.0017488198,-0.00078403028,0.40908843,0.91249273
15.55351171,0.027835593,-0.04586143,0.85362959,0.51811045,0.027835593,-0.04586143
15.56521739,0.013670817,-0.034592156,0.92936451,0.36728477,0.013670817,-0.034592156
15.57692308,0.004034013,-0.018751438,0.97745297,0.21028029,0.004034013,-0.018751438
15.58862876,6.4114353e-05,-0.0012374991,0.99865981,0.051740182,6.4114353e-05,-0.0012374991
15.60033445,0.0016038197,0.015314864,0.99444331,-0.10414117,0.0016038197,0.015314864
15.61204013,0.0075811092,0.028882733,0.96680464,-0.25376586,0.0075811092,0.028882733
15.62374582,0.016405941,0.038210637,0.91808921,-0.39418651,0.016405941,0.038210637
15.63545151,0.026321713,0.042813459,0.85080401,-0.52307429,0.026321713,0.042813459
15.64715719,0.03567856,0.042877112,0.76748601,-0.63863434,0.03567856,0.042877112
15.65886288,0.043119951,0.039103858,0.67062933,-0.73950514,0.043119951,0.039103858
15.67056856,0.047689554,0.032537923,0.56266067,-0.82466961,0.047689554,0.032537923
15.68227425,0.048872037,0.024394875,0.44594415,-0.89339254,0.048872037,0.024394875
15.69397993,0.046582368,0.015908634,0.32279682,-0.9451874,0.046582368,0.015908634
15.70568562,0.041116631,0.0082039575,0.19549986,-0.97980708,0.041116631,0.0082039575
15.7173913,0.033075603,0.0021988603,0.066296948,-0.99724916,0.033075603,0.0021988603
15.72909699,0.023271276,-0.0014605841,-0.0626231,-0.99776483,0.023271276,-0.0014605841
15.74080268,0.012626018,-0.0024324151,-0.18915684,-0.9818627,0.012626018,-0.0024324151
15.75250836,0.0020737152,-0.00067936159,-0.31132439,-0.95030119,0.0020737152,-0.00067936159
15.76421405,-0.0075287197,0.0035584545,-0.4273082,-0.90406767,-0.0075287197,0.0035584545
15.77591973,-0.015472731,0.0098128464,-0.53548601,-0.84434533,-0.015472731,0.0098128464
15.78762542,-0.021248053,0.017451633,-0.63445331,-0.77247198,-0.021248053,0.017451633
15.7993311,-0.024569537,0.025749678,-0.7230333,-0.68989575,-0.024569537,0.025749678
15.81103679,-0.025381769,0.03395965,-0.80027463,-0.59813295,-0.025381769,0.03395965
15.82274247,-0.023844312,0.041376555,-0.86543965,-0.49873203,-0.023844312,0.041376555
15.83444816,-0.020301635,0.047391787,-0.91798664,-0.39324597,-0.020301635,0.047391787
15.84615385,-0.01524223,0.051534209,-0.95754993,-0.28321374,-0.01524223,0.051534209
15.85785953,-0.0092512803,0.053497202,-0.98392151,-0.17014971,-0.0092512803,0.053497202
15.86956522,-0.0029607648,0.053151796,-0.99703639,-0.055538862,-0.0029607648,0.053151796
15.8812709,0.0029997003,0.050546667,-0.99696316,0.059164944,0.0029997003,0.050546667
15.89297659,0.0080485394,0.045896271,-0.98389969,0.17254028,0.0080485394,0.045896271
15.90468227,0.011692128,0.039558683,-0.95817289,0.28320154,0.011692128,0.039558683
15.91638796,0.013557016,0.032004957,-0.92024088,0.38980587,0.013557016,0.032004957
15.92809365,0.013412909,0.023782125,-0.87069525,0.49106444,0.013412909,0.023782125
15.93979933,0.011185246,0.015472224,-0.81026139,0.58575762,0.011185246,0.015472224
15.95150502,0.0069567914,0.0076500553,-0.73979482,0.67275307,0.0069567914,0.0076500553
15.9632107,0.00095827401,0.0008424783,-0.66027269,0.75102487,0.00095827401,0.0008424783
15.97491639,-0.0064510712,-0.0045079555,-0.57277973,0.81967155,-0.0064510712,-0.0045079555
15.98662207,-0.014811501,-0.0080725578,-0.47848964,0.87793116,-0.014811501,-0.0080725578
15.99832776,-0.023597059,-0.0096573051,-0.37864285,0.9251916,-0.023597059,-0.0096573051
16.01003344,-0.032253491,-0.0092136963,-0.27452281,0.96099534,-0.032253491,-0.0092136963
16.02173913,-0.04023698,-0.0068393098,-0.16743261,0.98503834,-0.04023698,-0.0068393098
16.03344482,-0.047050952,-0.0027685185,-0.058673983,0.99716393,-0.047050952,-0.0027685185
16.0451505,-0.052278662,0.0026454996,0.050469857,0.99735286,-0.052278662,0.0026454996
16.05685619,-0.055609695,0.0089558325,0.15874688,0.98571131,-0.055609695,0.0089558325
16.06856187,-0.056859163,0.015652102,0.26494412,0.96245865,-0.056859163,0.015652102
16.08026756,-0.055978877,0.022193969,0.36789156,0.9279168,-0.055978877,0.022193969
16.09197324,-0.053060231,0.028045978,0.46646308,0.88250226,-0.053060231,0.028045978
16.10367893,-0.048328885,0.032711964,0.55957614,0.82672171,-0.048328885,0.032711964
16.11538462,-0.042131578,0.035767354,0.64619185,0.76117128,-0.042131578,0.035767354
16.1270903,-0.034915623,0.036887794,0.72531706,0.68653867,-0.034915623,0.036887794
16.13879599,-0.027201857,0.035872572,0.79600975,0.60360723,-0.027201857,0.035872572
16.15050167,-0.019552117,0.032661332,0.85738846,0.51326014,-0.019552117,0.032661332
16.16220736,-0.012532692,0.027342724,0.90864584,0.41648295,-0.012532692,0.027342724
16.17391304,-0.006675621,0.0201538,0.94906553,0.31436265,-0.006675621,0.0201538
16.18561873,-0.0024401621,0.011469425,0.97804113,0.20808182,-0.0024401621,0.011469425
16.19732441,-0.0001770782,0.0017815694,0.99509507,0.098906974,-0.0001770782,0.0017815694
16.2090301,-9.8554701e-05,-0.008330885,0.99989533,-0.011828801,-9.8554701e-05,-0.008330885
16.22073579,-0.0022564067,-0.018240282,0.99226766,-0.12274807,-0.0022564067,-0.018240282
16.23244147,-0.0065307847,-0.027313944,0.9722018,-0.23245419,-0.0065307847,-0.027313944
16.24414716,-0.012630833,-0.034960536,0.93985065,-0.33955704,-0.012630833,-0.034960536
16.25585284,-0.020107815,-0.04067573,0.89552271,-0.44269655,-0.020107815,-0.04067573
16.26755853,-0.02838025,-0.04408383,0.83966922,-0.54056154,-0.02838025,-0.04408383
16.27926421,-0.036769719,-0.044972378,0.77286811,-0.63190218,-0.036769719,-0.044972378
16.2909699,-0.044545404,-0.043317287,0.69580792,-0.71553522,-0.044545404,-0.043317287
16.30267559,-0.050975023,-0.039296633,0.60927491,-0.79034259,-0.050975023,-0.039296633
16.31438127,-0.055379731,-0.033291742,0.51414603,-0.85526523,-0.055379731,-0.033291742
16.32608696,-0.057190447,-0.025874518,0.41139001,-0.90929534,-0.057190447,-0.025874518
16.33779264,-0.056002921,-0.017780051,0.30207714,-0.95147094,-0.056002921,-0.017780051
16.34949833,-0.051628402,-0.0098636161,0.18739674,-0.980877,-0.051628402,-0.0098636161
16.36120401,-0.044135916,-0.0030413944,0.068679397,-0.99665737,-0.044135916,-0.0030413944
16.3729097,-0.033881034,0.0017849992,-0.052581065,-0.99804014,-0.033881034,0.0017849992
16.38461538,-0.021514824,0.0038185636,-0.17471239,-0.98437702,-0.021514824,0.0038185636
16.39632107,-0.0079660031,0.0024673964,-0.29586261,-0.9551941,-0.0079660031,0.0024673964
16.40802676,0.0056103025,-0.0025518023,-0.41401893,-0.91024741,0.0056103025,-0.0025518023
16.41973244,0.017921661,-0.011118063,-0.52704958,-0.8495728,0.017921661,-0.011118063
16.43143813,0.027665884,-0.022631714,-0.63276601,-0.77351767,0.027665884,-0.022631714
16.44314381,0.033692587,-0.035975113,-0.728995,-0.68274218,0.033692587,-0.035975113
16.4548495,0.035189711,-0.049520372,-0.81364231,-0.57818302,0.035189711,-0.049520372
16.46655518,0.031883874,-0.061191972,-0.88472291,-0.46098193,0.031883874,-0.061191972
16.47826087,0.024245432,-0.068588983,-0.94033003,-0.33239607,0.024245432,-0.068588983
16.48996656,0.013694899,-0.069173745,-0.97851823,-0.19372536,0.013694899,-0.069173745
16.50167224,0.0028124859,-0.060547171,-0.99708624,-0.046315805,0.0028124859,-0.060547171
16.51337793,-0.0044540192,-0.040860268,-0.99327118,0.10827263,-0.0044540192,-0.040860268
16.52508361,-0.0026285354,-0.0094559494,-0.96342202,0.26780906,-0.0026285354,-0.0094559494
16.5367893,0.015248578,0.03212855,-0.90284201,0.42849917,0.015248578,0.03212855
16.54849498,0.056985736,0.078725385,-0.80621655,0.5835836,0.056985736,0.078725385
17.5083612,-0.997617,0.068988151,-6.7523299e-05,-0.00097643421,-0.997617,0.068988151
17.52006689,-0.9969599,0.077910766,-7.2999858e-05,-0.00093411906,-0.9969599,0.077910766
17.53177258,-0.99623433,0.086696897,-7.780331e-05,-0.00089403809,-0.99623433,0.086696897
17.54347826,-0.99544345,0.095349822,-8.1998331e-05,-0.0008560551,-0.99544345,0.095349822
17.55518395,-0.99459026,0.10387272,-8.5643428e-05,-0.0008200432,-0.99459026,0.10387272
17.56688963,-0.99367757,0.11226868,-8.8791554e-05,-0.00078588412,-0.99367757,0.11226868
17.57859532,-0.9927081,0.1205407,-9.149065e-05,-0.00075346755,-0.9927081,0.1205407
17.590301,-0.99168438,0.12869169,-9.3784144e-05,-0.00072269056,-0.99168438,0.12869169
17.60200669,-0.99060887,0.13672447,-9.5711389e-05,-0.00069345706,-0.99060887,0.13672447
17.61371237,-0.98948386,0.14464179,-9.7308059e-05,-0.00066567729,-0.98948386,0.14464179
17.62541806,-0.98831154,0.1524463,-9.8606504e-05,-0.00063926738,-0.98831154,0.1524463
17.63712375,-0.98709402,0.16014059,-9.9636068e-05,-0.00061414888,-0.98709402,0.16014059
17.64882943,-0.98583327,0.16772719,-0.00010042338,-0.00059024844,-0.98583327,0.16772719
17.66053512,-0.98453118,0.17520851,-0.00010099261,-0.00056749738,-0.98453118,0.17520851
17.6722408,-0.98318956,0.18258694,-0.00010136569,-0.0005458314,-0.98318956,0.18258694
