freq,s11_real,s11_imag,s21_real,s21_imag,s22_real,s22_imag
14.85117057,0.20248405,0.97928539,0.00057458477,-0.00011880525,0.20248405,0.97928539
14.86287625,0.2173849,0.97608575,0.00062766621,-0.00013978809,0.2173849,0.97608575
14.87458194,0.23260197,0.97257176,0.00068616977,-0.00016410557,0.23260197,0.97257176
14.88628763,0.24814376,0.96872291,0.00075069886,-0.00019229569,0.24814376,0.96872291
14.89799331,0.26401891,0.96451713,0.00082192859,-0.00022498791,0.26401891,0.96451713
14.909699,0.28023616,0.95993063,0.00090061452,-0.00026291978,0.28023616,0.95993063
14.92140468,0.2968043,0.95493777,0.00098760254,-0.00030695685,0.2968043,0.95493777
14.93311037,0.31373217,0.94951083,0.0010838398,-0.00035811641,0.31373217,0.94951083
14.94481605,0.33102856,0.94361989,0.0011903868,-0.00041759614,0.33102856,0.94361989
14.95652174,0.34870218,0.93723254,0.0013084309,-0.00048680844,0.34870218,0.93723254
14.96822742,0.36676158,0.93031368,0.0014393011,-0.00056742189,0.36676158,0.93031368
14.97993311,0.38521507,0.92282523,0.0015844839,-0.00066141137,0.38521507,0.92282523
14.9916388,0.40407058,0.91472582,0.001745641,-0.00077111866,0.40407058,0.91472582
15.55351171,0.027704967,-0.045278217,0.8517862,0.52119342,0.027704967,-0.045278217
15.56521739,0.013452092,-0.033685981,0.9280774,0.37061656,0.013452092,-0.033685981
15.57692308,0.003848813,-0.017586794,0.97672196,0.21375244,0.003848813,-0.017586794
15.58862876,-5.0698227e-06,9.1597651e-05,0.99847176,0.055264242,-5.0698227e-06,9.1597651e-05
15.60033445,0.0016895756,0.01670067,0.99478128,-0.10064017,0.0016895756,0.01670067
15.61204013,0.007818465,0.030219041,0.96765034,-0.25035674,0.007818465,0.030219041
15.62374582,0.016755129,0.039405377,0.91942091,-0.39093691,0.016755129,0.039405377
15.63545151,0.026715075,0.043797677,0.85259248,-0.52005205,0.026715075,0.043797677
15.64715719,0.036030153,0.043610377,0.76969091,-0.63590555,0.036030153,0.043610377
15.65886288,0.043335166,0.039576638,0.67319761,-0.73713007,0.043335166,0.039576638
15.67056856,0.047674215,0.032771531,0.56552736,-0.822698,0.047674215,0.032771531
15.68227425,0.048540735,0.024439399,0.44903551,-0.89185964,0.048540735,0.024439399
15.69397993,0.045865828,0.015839088,0.32603501,-0.94411155,0.045865828,0.015839088
15.70568562,0.039967829,0.008114811,0.19880833,-0.97918945,0.039967829,0.008114811
15.7173913,0.031474265,0.0021972029,0.069605351,-0.99707554,0.031474265,0.0021972029
15.72909699,0.021226369,-0.0012628312,-0.059375072,-0.99800924,0.021226369,-0.0012628312
15.74080268,0.010175999,-0.0019266454,-0.18601745,-0.98249185,0.010175999,-0.0019266454
15.75250836,-0.00071550641,0.0002319108,-0.30832977,-0.95127924,-0.00071550641,0.0002319108
15.76421405,-0.010567857,0.0049548086,-0.42448401,-0.9053602,-0.010567857,0.0049548086
15.77591973,-0.018654767,0.011750726,-0.53285039,-0.84592221,-0.018654767,0.011750726
15.78762542,-0.024454846,0.019960986,-0.63202041,-0.77430854,-0.024454846,0.019960986
15.7993311,-0.027678767,0.02883253,-0.72081668,-0.69197246,-0.027678767,0.02883253
15.81103679,-0.028273659,0.037590463,-0.79829002,-0.60043367,-0.028273659,0.037590463
15.82274247,-0.02640773,0.045504076,-0.86370656,-0.50124146,-0.02640773,0.045504076
15.83444816,-0.022439333,0.051942069,-0.91652862,-0.39594671,-0.022439333,0.051942069
15.84615385,-0.016875113,0.056414462,-0.95639366,-0.28608358,-0.016875113,0.056414462
15.85785953,-0.010321681,0.058600241,-0.98309473,-0.17315954,-0.010321681,0.058600241
15.86956522,-0.0034347503,0.058360876,-0.99656521,-0.058651495,-0.0034347503,0.058360876
15.8812709,0.0031309813,0.055740583,-0.99686899,0.055994716,0.0031309813,0.055740583
15.89297659,0.00876848,0.050954608,-0.98419631,0.16936458,0.00876848,0.050954608
15.90468227,0.012959301,0.044367079,-0.9588641,0.28007722,0.012959301,0.044367079
15.91638796,0.015306869,0.036460221,-0.92131894,0.38679163,0.015306869,0.036460221
15.92809365,0.015560531,0.027796974,-0.87214042,0.48821745,0.015560531,0.027796974
15.93979933,0.013629167,0.018979405,-0.81204259,0.58313022,0.013629167,0.018979405
15.95150502,0.0095836821,0.01060556,-0.74187139,0.67038982,0.0095836821,0.01060556
15.9632107,0.0036483234,0.0032276314,-0.66259693,0.74896033,0.0036483234,0.0032276314
15.97491639,-0.0038184066,-0.0026857215,-0.5753001,0.81792909,-0.0038184066,-0.0026857215
15.98662207,-0.012351731,-0.0067802962,-0.48115398,0.87652285,-0.012351731,-0.0067802962
15.99832776,-0.021415239,-0.0088384743,-0.38140146,0.92411914,-0.021415239,-0.0088384743
16.01003344,-0.030439481,-0.008791242,-0.27733085,0.96025192,-0.030439481,-0.008791242
16.02173913,-0.038861615,-0.0067196646,-0.17025171,0.98461108,-0.038861615,-0.0067196646
16.03344482,-0.046163296,-0.0028462247,-0.061472867,0.99703658,-0.046163296,-0.0028462247
16.0451505,-0.051904378,0.0024828428,0.047715753,0.99750838,-0.051904378,0.0024828428
16.05685619,-0.055750503,0.0088225675,0.15605661,0.98613406,-0.055750503,0.0088225675
16.06856187,-0.057493293,0.015659672,0.26233306,0.96313585,-0.057493293,0.015659672
16.08026756,-0.057062388,0.022446393,0.36537357,0.92883917,-0.057062388,0.022446393
16.09197324,-0.054529082,0.028635743,0.46405272,0.88366377,-0.054529082,0.028635743
16.10367893,-0.050101652,0.033716399,0.55729051,0.82811854,-0.050101652,0.033716399
16.11538462,-0.044112744,0.03724554,0.64405197,0.76280004,-0.044112744,0.03724554
16.1270903,-0.036999381,0.038878076,0.7233484,0.68839424,-0.036999381,0.038878076
16.13879599,-0.029276374,0.038390747,0.79424195,0.60568042,-0.029276374,0.038390747
16.15050167,-0.02150418,0.035699651,0.85585407,0.51553556,-0.02150418,0.035699651
16.16220736,-0.014252612,0.030869798,0.90737832,0.41893735,-0.014252612,0.030869798
16.17391304,-0.0080622217,0.024115559,0.94809663,0.31696405,-0.0080622217,0.024115559
16.18561873,-0.0034055908,0.015791185,0.97739797,0.21078959,-0.0034055908,0.015791185
16.19732441,-0.00065116817,0.0063712137,0.99479726,0.10167299,-0.00065116817,0.0063712137
16.2090301,-3.2417721e-05,-0.0035787092,0.99995257,-0.009058066,-3.2417721e-05,-0.0035787092
16.22073579,-0.0016249809,-0.013439159,0.99267814,-0.12002857,-0.0016249809,-0.013439159
16.23244147,-0.0053341289,-0.022580177,0.9729516,-0.22984095,-0.0053341289,-0.022580177
16.24414716,-0.010894069,-0.030407491,0.94091436,-0.33710067,-0.010894069,-0.030407491
16.25585284,-0.017879746,-0.036408402,0.89686521,-0.44044016,-0.017879746,-0.036408402
16.26755853,-0.025730802,-0.040193968,0.84124834,-0.53853839,-0.025730802,-0.040193968
16.27926421,-0.033786445,-0.041534414,0.77463798,-0.63013441,-0.033786445,-0.041534414
16.2909699,-0.041329319,-0.040385201,0.69772252,-0.71403376,-0.041329319,-0.040385201
16.30267559,-0.047636052,-0.036901789,0.61129138,-0.7891083,-0.047636052,-0.036901789
16.31438127,-0.052031964,-0.031441645,0.51622731,-0.85429121,-0.052031964,-0.031441645
16.32608696,-0.053947335,-0.0245524,0.41350647,-0.9085699,-0.053947335,-0.0245524
16.33779264,-0.052972479,-0.016945233,0.30420693,-0.95098103,-0.052972479,-0.016945233
16.34949833,-0.048908404,-0.0094526257,0.18952476,-0.98061153,-0.048908404,-0.0094526257
16.36120401,-0.04180912,-0.002969943,0.07079495,-0.99660988,-0.04180912,-0.002969943
16.3729097,-0.03201051,0.0016190353,-0.05048772,-0.99821025,-0.03201051,0.0016190353
16.38461538,-0.020139641,0.0035309648,-0.17265398,-0.98477029,-0.020139641,0.0035309648
16.39632107,-0.0070976546,0.0021821132,-0.29385869,-0.95582003,-0.0070976546,0.0021821132
16.40802676,0.0059901869,-0.0027093693,-0.41209871,-0.91111549,0.0059901869,-0.0027093693
16.41973244,0.017861752,-0.011028656,-0.52525289,-0.85068721,0.017861752,-0.011028656
16.43143813,0.027243334,-0.022190011,-0.63114167,-0.77487134,0.027243334,-0.022190011
16.44314381,0.033008887,-0.035096802,-0.72759632,-0.68431149,0.033008887,-0.035096802
16.4548495,0.034364677,-0.048147624,-0.81251988,-0.57992441,0.034364677,-0.048147624
16.46655518,0.031048676,-0.059296718,-0.8839155,-0.46283179,0.031048676,-0.059296718
16.47826087,0.02353588,-0.066174076,-0.93985505,-0.33427465,0.02353588,-0.066174076
16.48996656,0.013245972,-0.066272943,-0.97836314,-0.19554542,0.013245972,-0.066272943
16.50167224,0.0027543072,-0.057225681,-0.9972031,-0.047995998,0.0027543072,-0.057225681
16.51337793,-0.0040001961,-0.037217944,-0.99357674,0.10678993,-0.0040001961,-0.037217944
16.52508361,-0.0015581707,-0.0056344104,-0.9638071,0.26653648,-0.0015581707,-0.0056344104
16.5367893,0.017005062,0.035937012,-0.90319566,0.42738385,0.017005062,0.035937012
16.54849498,0.059427219,0.08227712,-0.80647038,0.58249842,0.059427219,0.08227712
17.5083612,-0.99762303,0.068900865,-6.739936e-05,-0.00097588258,-0.99762303,0.068900865
17.52006689,-0.99696645,0.077826848,-7.2877964e-05,-0.00093357096,-0.99696645,0.077826848
17.53177258,-0.99624136,0.086616067,-7.7682942e-05,-0.00089349427,-0.99624136,0.086616067
17.54347826,-0.99545092,0.095271811,-8.1879053e-05,-0.00085551621,-0.99545092,0.095271811
17.55518395,-0.99459813,0.10379727,-8.5524877e-05,-0.00081950982,-0.99459813,0.10379727
17.56688963,-0.99368583,0.11219555,-8.8673428e-05,-0.00078535673,-0.99368583,0.11219555
17.57859532,-0.99271672,0.12046965,-9.1372702e-05,-0.00075294658,-0.99271672,0.12046965
17.590301,-0.99169336,0.12862249,-9.3666172e-05,-0.00072217638,-0.99169336,0.12862249
17.60200669,-0.99061819,0.1366569,-9.5593233e-05,-0.00069294997,-0.99061819,0.1366569
17.61371237,-0.98949352,0.14457564,-9.7189593e-05,-0.00066517755,-0.98949352,0.14457564
17.62541806,-0.98832156,0.15238138,-9.8487631e-05,-0.0006387752,-0.98832156,0.15238138
17.63712375,-0.98710438,0.16007672,-9.9516719e-05,-0.00061366445,-0.98710438,0.16007672
17.64882943,-0.98584399,0.16766416,-0.0001003035,-0.00058977188,-0.98584399,0.16766416
17.66053512,-0.98454227,0.17514617,-0.00010087217,-0.0005670288,-0.98454227,0.17514617
17.6722408,-0.98320104,0.18252511,-0.00010124468,-0.00054537087,-0.98320104,0.18252511
