freq,s11_real,s11_imag,s21_real,s21_imag,s22_real,s22_imag
14.85117057,0.20204288,0.9793765,0.00057452927,-0.00011852393,0.20204288,0.9793765
14.86287625,0.21693436,0.97618598,0.00062761027,-0.00013947161,0.21693436,0.97618598
14.87458194,0.23214188,0.97268168,0.00068611432,-0.00016374922,0.23214188,0.97268168
14.88628763,0.24767397,0.96884313,0.00075064513,-0.00019189408,0.24767397,0.96884313
14.89799331,0.26353928,0.96464829,0.00082187818,-0.00022453487,0.26353928,0.96464829
14.909699,0.27974656,0.96007343,0.00090056951,-0.00026240828,0.27974656,0.96007343
14.92140468,0.29630461,0.95509293,0.00098756559,-0.00030637881,0.29630461,0.95509293
14.93311037,0.31322229,0.94967915,0.0010838143,-0.00035746261,0.31322229,0.94967915
14.94481605,0.33050841,0.9438022,0.001190377,-0.000416856,0.33050841,0.9438022
14.95652174,0.3481717,0.93742974,0.0013084423,-0.00048596984,0.3481717,0.93742974
14.96822742,0.36622075,0.93052671,0.0014393405,-0.00056647097,0.36622075,0.93052671
14.97993311,0.38466389,0.92305511,0.00158456,-0.00066033222,0.38466389,0.92305511
14.9916388,0.4035091,0.91497364,0.0017457645,-0.00076989307,0.4035091,0.91497364
15.55351171,0.027853799,-0.045517054,0.85175099,0.52122223,0.027853799,-0.045517054
15.56521739,0.013478492,-0.033745075,0.92804867,0.37068215,0.013478492,-0.033745075
15.57692308,0.0038233737,-0.017462849,0.97670448,0.2138429,0.0038233737,-0.017462849
15.58862876,-2.1226426e-05,0.00038274379,0.99846564,0.055373484,-2.1226426e-05,0.00038274379
15.60033445,0.0017307253,0.017129099,0.99478675,-0.10051332,0.0017307253,0.017129099
15.61204013,0.0079500663,0.030746193,0.9676703,-0.25021124,0.0079500663,0.030746193
15.62374582,0.016995435,0.039989132,0.91946128,-0.39077228,0.016995435,0.039989132
15.63545151,0.027068731,0.044396553,0.85266111,-0.51987043,0.027068731,0.044396553
15.64715719,0.036490241,0.044186686,0.76979575,-0.63571259,0.036490241,0.044186686
15.65886288,0.043885547,0.040098676,0.67334487,-0.73693476,0.043885547,0.040098676
15.67056856,0.048291931,0.033214992,0.56572013,-0.82251164,0.048291931,0.033214992
15.68227425,0.049198355,0.024788195,0.44927302,-0.89169435,0.049198355,0.024788195
15.69397993,0.04653372,0.016085684,0.32631269,-0.94397875,0.04653372,0.016085684
15.70568562,0.040616339,0.008260109,0.19911841,-0.97909854,0.040616339,0.008260109
15.7173913,0.032075763,0.0022499882,0.069937928,-0.99703298,0.032075763,0.0022499882
15.72909699,0.02175708,-0.0012868873,-0.059030761,-0.99801821,0.02175708,-0.0012868873
15.74080268,0.010617499,-0.002006377,-0.18567183,-0.9825524,0.010617499,-0.002006377
15.75250836,-0.00037521847,0.00012146901,-0.30799194,-0.95138888,-0.00037521847,0.00012146901
15.76421405,-0.0103338,0.0048405578,-0.42416119,-0.90551481,-0.0103338,0.0048405578
15.77591973,-0.018524929,0.011659628,-0.53254769,-0.84611692,-0.018524929,0.011659628
15.78762542,-0.024420624,0.019918325,-0.6317411,-0.77453862,-0.024420624,0.019918325
15.7993311,-0.027725788,0.028860429,-0.72056266,-0.69223393,-0.027725788,0.028860429
15.81103679,-0.028382888,0.037706722,-0.7980625,-0.60072362,-0.028382888,0.037706722
15.82274247,-0.026556736,0.045721368,-0.86350671,-0.50155803,-0.026556736,0.045721368
15.83444816,-0.022603625,0.052267473,-0.91635819,-0.39628885,-0.022603625,0.052267473
15.84615385,-0.01702946,0.0568493,-0.95625533,-0.28645053,-0.01702946,0.0568493
15.85785953,-0.010441378,0.059140184,-0.98299223,-0.17355025,-0.010441378,0.059140184
15.86956522,-0.0034967884,0.058996284,-0.99650321,-0.059064074,-0.0034967884,0.058996284
15.8812709,0.0031468562,0.056457042,-0.99685274,0.055563525,0.0031468562,0.056457042
15.89297659,0.0088788406,0.051733646,-0.98423114,0.16891969,0.0088788406,0.051733646
15.90468227,0.013176268,0.045187056,-0.95895474,0.27962531,0.013176268,0.045187056
15.91638796,0.015637528,0.037297352,-0.92146894,0.38634099,0.015637528,0.037297352
15.92809365,0.016006569,0.028626479,-0.87235159,0.48777763,0.016006569,0.028626479
15.93979933,0.01418677,0.019776717,-0.81231456,0.58271148,0.01418677,0.019776717
15.95150502,0.0102437,0.011347554,-0.74220147,0.67000244,0.0102437,0.011347554
15.9632107,0.0043967236,0.0038937831,-0.66298013,0.74861396,0.0043967236,0.0038937831
15.97491639,-0.0029998198,-0.0021123003,-0.57572939,0.81763207,-0.0029998198,-0.0021123003
15.98662207,-0.011484378,-0.0063120289,-0.48162081,0.87628173,-0.011484378,-0.0063120289
15.99832776,-0.020522664,-0.0084827406,-0.3818963,0.92393835,-0.020522664,-0.0084827406
16.01003344,-0.029546158,-0.0085500803,-0.27784391,0.96013368,-0.029546158,-0.0085500803
16.02173913,-0.037991748,-0.0065897609,-0.17077355,0.98455553,-0.037991748,-0.0065897609
16.03344482,-0.045339679,-0.0028191682,-0.061994914,0.99704212,-0.045339679,-0.0028191682
16.0451505,-0.051147363,0.0024200729,0.047200817,0.99757214,-0.051147363,0.0024200729
16.05685619,-0.055077137,0.0086869307,0.15555468,0.9862524,-0.055077137,0.0086869307
16.06856187,-0.05691662,0.015471258,0.26184864,0.96330495,-0.05691662,0.015471258
16.08026756,-0.056590946,0.022227522,0.36490999,0.92905549,-0.056590946,0.022227522
16.09197324,-0.054166574,0.028410009,0.46361248,0.88392439,-0.054166574,0.028410009
16.10367893,-0.049846804,0.033507681,0.55687578,0.82842133,-0.049846804,0.033507681
16.11538462,-0.043959335,0.03707701,0.643665,0.76314365,-0.043959335,0.03707701
16.1270903,-0.03693645,0.038771218,0.72299203,0.68877792,-0.03693645,0.038771218
16.13879599,-0.029288607,0.03836441,0.79391987,0.60610361,-0.029288607,0.03836441
16.15050167,-0.021572488,0.035769163,0.85557106,0.51599744,-0.021572488,0.035769163
16.16220736,-0.014354893,0.031046192,0.90714015,0.4194363,-0.014354893,0.031046192
16.17391304,-0.0081743001,0.024404944,0.94790989,0.31749713,-0.0081743001,0.024404944
16.18561873,-0.0035023138,0.016194322,0.97726954,0.21135213,-0.0035023138,0.016194322
16.19732441,-0.00070760531,0.006883339,0.99473381,0.10225835,-0.00070760531,0.006883339
16.2090301,-2.510389e-05,-0.0029677729,0.99995982,-0.0084584911,-2.510389e-05,-0.0029677729
16.22073579,-0.0015331248,-0.012744595,0.99276022,-0.11942516,-0.0015331248,-0.012744595
16.23244147,-0.0051407043,-0.021821479,0.97311045,-0.22924537,-0.0051407043,-0.021821479
16.24414716,-0.010586714,-0.029607526,0.94114935,-0.3365252,-0.010586714,-0.029607526
16.25585284,-0.017451413,-0.035592286,0.89717298,-0.43989689,-0.017451413,-0.035592286
16.26755853,-0.025180126,-0.039387837,0.84162293,-0.53803848,-0.025180126,-0.039387837
16.27926421,-0.033117827,-0.040764163,0.77507123,-0.62968729,-0.033117827,-0.040764163
16.2909699,-0.040552744,-0.039675262,0.69820472,-0.71364664,-0.040552744,-0.039675262
16.30267559,-0.046766672,-0.036273992,0.61181202,-0.78878586,-0.046766672,-0.036273992
16.31438127,-0.051089488,-0.030914191,0.51677596,-0.85403559,-0.051089488,-0.030914191
16.32608696,-0.052955262,-0.02413896,0.41407357,-0.90838105,-0.052955262,-0.02413896
16.33779264,-0.051957166,-0.016654163,0.30478436,-0.95085729,-0.051957166,-0.016654163
16.34949833,-0.047897994,-0.0092863217,0.19010622,-0.98055044,-0.047897994,-0.0092863217
16.36120401,-0.040832287,-0.002924357,0.071375889,-0.99660908,-0.040832287,-0.002924357
16.3729097,-0.031095034,0.001554661,-0.049910505,-0.99826831,-0.031095034,0.001554661
16.38461538,-0.019310813,0.0033740566,-0.17208316,-0.98488735,-0.019310813,0.0033740566
16.39632107,-0.0063765855,0.0019563185,-0.29329749,-0.95599796,-0.0063765855,0.0019563185
16.40802676,0.0065882304,-0.0029751221,-0.4115521,-0.91135757,0.0065882304,-0.0029751221
16.41973244,0.018328803,-0.01130162,-0.52472861,-0.85099719,0.018328803,-0.01130162
16.43143813,0.027579757,-0.022435543,-0.63065084,-0.77525191,0.027579757,-0.022435543
16.44314381,0.033223826,-0.035280575,-0.72715325,-0.68476245,0.033223826,-0.035280575
16.4548495,0.034475824,-0.048237874,-0.812141,-0.5804408,0.034475824,-0.048237874
16.46655518,0.031081474,-0.059266257,-0.88361734,-0.46340246,0.031081474,-0.059266257
16.47826087,0.023522377,-0.066001908,-0.93965135,-0.33488174,0.023522377,-0.066001908
16.48996656,0.013223677,-0.065945534,-0.9782615,-0.19616512,0.013223677,-0.065945534
16.50167224,0.0027652787,-0.056738267,-0.99720161,-0.048601067,0.0027652787,-0.056738267
16.51337793,-0.0039101471,-0.036576542,-0.99366141,0.10622552,-0.0039101471,-0.036576542
16.52508361,-0.001341073,-0.0048593247,-0.9639514,0.26603062,-0.001341073,-0.0048593247
16.5367893,0.01739484,0.036806043,-0.90336435,0.42693745,0.01739484,0.036806043
16.54849498,0.060022313,0.08317624,-0.80663079,0.58208745,0.060022313,0.08317624
17.5083612,-0.99765856,0.068384431,-6.6948791e-05,-0.00097671404,-0.99765856,0.068384431
17.52006689,-0.99700615,0.077316624,-7.2459122e-05,-0.00093436814,-0.99700615,0.077316624
17.53177258,-0.99628506,0.086111947,-7.7293504e-05,-0.00089425877,-0.99628506,0.086111947
17.54347826,-0.99549847,0.094773693,-8.1516883e-05,-0.00085624955,-0.99549847,0.094773693
17.55518395,-0.99464938,0.10330505,-8.5188004e-05,-0.00082021345,-0.99464938,0.10330505
17.56688963,-0.99374063,0.11170913,-8.8360033e-05,-0.00078603204,-0.99374063,0.11170913
17.57859532,-0.99277494,0.11998893,-9.1081109e-05,-0.00075359488,-0.99277494,0.11998893
17.590301,-0.99175487,0.12814737,-9.3394834e-05,-0.00072279891,-0.99175487,0.12814737
17.60200669,-0.99068286,0.1361873,-9.534072e-05,-0.00069354793,-0.99068286,0.1361873
17.61371237,-0.98956123,0.14411145,-9.6954583e-05,-0.00066575207,-0.98956123,0.14411145
17.62541806,-0.9883922,0.15192251,-9.8268902e-05,-0.00063932734,-0.9883922,0.15192251
17.63712375,-0.98717784,0.15962308,-9.9313141e-05,-0.00061419523,-0.98717784,0.15962308
17.64882943,-0.98592016,0.16721566,-0.00010011403,-0.00059028228,-0.98592016,0.16721566
17.66053512,-0.98462106,0.17470272,-0.00010069584,-0.00056751973,-0.98462106,0.17470272
17.6722408,-0.98328234,0.18208663,-0.00010108058,-0.00054584322,-0.98328234,0.18208663
