freq,s11_real,s11_imag,s21_real,s21_imag,s22_real,s22_imag
14.85117057,0.22535308,0.97427695,0.00062386084,-0.00014430082,0.22535308,0.97427695
14.86287625,0.24066323,0.97060843,0.00068181947,-0.00016905775,0.24066323,0.97060843
14.87458194,0.25629783,0.96659755,0.00074571954,-0.000197731,0.25629783,0.96659755
14.88628763,0.27226531,0.96222185,0.00081622218,-0.000230954,0.27226531,0.96222185
14.89799331,0.28857413,0.9574571,0.00089406645,-0.00026946841,0.28857413,0.9574571
14.909699,0.30523279,0.95227721,0.00098007877,-0.00031414401,0.30523279,0.95227721
14.92140468,0.32224979,0.94665399,0.0010751832,-0.00036600233,0.32224979,0.94665399
14.93311037,0.33963354,0.94055701,0.001180413,-0.00042624514,0.33963354,0.94055701
14.94481605,0.35739231,0.93395332,0.0012969232,-0.00049628857,0.35739231,0.93395332
14.95652174,0.37553415,0.92680728,0.001426004,-0.00057780428,0.37553415,0.92680728
14.96822742,0.39406681,0.91908021,0.0015690963,-0.0006727691,0.39406681,0.91908021
14.97993311,0.41299757,0.91073015,0.0017278067,-0.00078352515,0.41299757,0.91073015
14.9916388,0.43233316,0.90171147,0.0019039245,-0.00091285264,0.43233316,0.90171147
15.55351171,0.010178818,-0.024470266,0.92298185,0.38392981,0.010178818,-0.024470266
15.56521739,0.0025030784,-0.010745123,0.97386444,0.2268619,0.0025030784,-0.010745123
15.57692308,-0.00031908837,0.0046837922,0.99767647,0.067967781,-0.00031908837,0.0046837922
15.58862876,0.0017200145,0.019341209,0.99588123,-0.088563757,0.0017200145,0.019341209
15.60033445,0.007712237,0.031298599,0.97045291,-0.23912772,0.007712237,0.031298599
15.61204013,0.016217055,0.039342659,0.92369879,-0.38074889,0.016217055,0.039342659
15.62374582,0.025604901,0.042992393,0.85809188,-0.51105222,0.025604901,0.042992393
15.63545151,0.034327646,0.042413169,0.77614804,-0.62818544,0.034327646,0.042413169
15.64715719,0.041106415,0.038272876,0.68035609,-0.73072637,0.041106415,0.038272876
15.65886288,0.045041918,0.031575159,0.57315213,-0.81760068,0.045041918,0.031575159
15.67056856,0.045659341,0.023493428,0.45692125,-0.88802379,0.045659341,0.023493428
15.68227425,0.042901334,0.015220269,0.33400891,-0.94147006,0.042901334,0.015220269
15.69397993,0.03708162,0.0078409548,0.20672827,-0.977664,0.03708162,0.0078409548
15.70568562,0.028810478,0.002236273,0.077355035,-0.99658474,0.028810478,0.002236273
15.7173913,0.018902475,-0.00098239484,-0.051892411,-0.99847329,0.018902475,-0.00098239484
15.72909699,0.0082764861,-0.0015048679,-0.17888512,-0.983834,0.0082764861,-0.0015048679
15.74080268,-0.0021424167,0.00067776808,-0.30162242,-0.95342481,-0.0021424167,0.00067776808
15.75250836,-0.011510622,0.0053010049,-0.41827047,-0.90823412,-0.011510622,0.0053010049
15.76421405,-0.019136419,0.011876696,-0.52719445,-0.84944614,-0.019136419,0.011876696
15.77591973,-0.0245289,0.019757391,-0.62697978,-0.77839857,-0.0245289,0.019757391
15.78762542,-0.027423793,0.028207401,-0.71644073,-0.69653784,-0.027423793,0.028207401
15.7993311,-0.027787168,0.03647339,-0.79461697,-0.60537711,-0.027787168,0.03647339
15.81103679,-0.02579995,0.043848592,-0.86076085,-0.50646068,-0.02579995,0.043848592
15.82274247,-0.021827285,0.049726509,-0.914319,-0.40133728,-0.021827285,0.049726509
15.83444816,-0.016377229,0.053641653,-0.95491224,-0.2915424,-0.016377229,0.053641653
15.84615385,-0.010053059,0.055296324,-0.98231734,-0.17858862,-0.010053059,0.055296324
15.85785953,-0.0035030317,0.054573522,-0.9964529,-0.063961532,-0.0035030317,0.054573522
15.86956522,0.0026291722,0.051536746,-0.99737061,0.050881349,0.0026291722,0.051536746
15.8812709,0.0077505946,0.046417892,-0.98525185,0.16451173,0.0077505946,0.046417892
15.89297659,0.011359436,0.039594751,-0.96040839,0.27553393,0.011359436,0.039594751
15.90468227,0.013077816,0.031559862,-0.92328551,0.38259224,0.013077816,0.031559862
15.91638796,0.01267523,0.022882822,-0.87446499,0.48438279,0.01267523,0.022882822
15.92809365,0.010081463,0.014168456,-0.81466596,0.57966973,0.010081463,0.014168456
15.93979933,0.005388288,0.0060135708,-0.74474145,0.66730426,0.005388288,0.0060135708
15.95150502,-0.00116004,-0.0010347856,-0.66566969,0.7462449,-0.00116004,-0.0010347856
15.9632107,-0.009186686,-0.0065166938,-0.57853966,0.81557648,-0.009186686,-0.0065166938
15.97491639,-0.018210925,-0.010089773,-0.4845316,0.87452598,-0.018210925,-0.010089773
15.98662207,-0.027683323,-0.011550622,-0.38489383,0.92247328,-0.027683323,-0.011550622
15.99832776,-0.037024651,-0.010846054,-0.28091794,0.95895602,-0.037024651,-0.010846054
16.01003344,-0.045665618,-0.0080737671,-0.1739144,0.98366826,-0.045665618,-0.0080737671
16.02173913,-0.053084627,-0.0034729376,-0.065190658,0.99645378,-0.053084627,-0.0034729376
16.03344482,-0.058841172,0.0025940667,0.043966671,0.9972953,-0.058841172,0.0025940667
16.0451505,-0.062603015,0.009667163,0.15230477,0.98630151,-0.062603015,0.009667163
16.05685619,-0.064165914,0.017219273,0.2586125,0.96369384,-0.064165914,0.017219273
16.06856187,-0.063465233,0.024690281,0.36172395,0.92979478,-0.063465233,0.024690281
16.08026756,-0.060579192,0.031522315,0.46051876,0.8850192,-0.060579192,0.031522315
16.09197324,-0.055723914,0.037194582,0.55392091,0.82986928,-0.055723914,0.037194582
16.10367893,-0.049240609,0.041256132,0.6408978,0.76493353,-0.049240609,0.041256132
16.11538462,-0.041575455,0.043355018,0.72046118,0.69088893,-0.041575455,0.043355018
16.1270903,-0.033252926,0.043262381,0.7916715,0.60850542,-0.033252926,0.043262381
16.13879599,-0.024843582,0.040889999,0.85364635,0.51865085,-0.024843582,0.040889999
16.15050167,-0.016927682,0.036299919,0.90557335,0.42229454,-0.016927682,0.036299919
16.16220736,-0.010056417,0.029704997,0.94672664,0.32050763,-0.010056417,0.029704997
16.17391304,-0.0047129993,0.021459507,0.97648592,0.21445867,-0.0047129993,0.021459507
16.18561873,-0.0012762153,0.012039589,0.99435586,0.10540328,-0.0012762153,0.012039589
16.19732441,1.0739103e-05,0.0020140336,0.99998376,-0.0053320501,1.0739103e-05,0.0020140336
16.2090301,-0.00093657067,-0.00799318,0.99317317,-0.11637131,-0.00093657067,-0.00799318
16.22073579,-0.0040309661,-0.017346372,0.97389163,-0.22631384,-0.0040309661,-0.017346372
16.23244147,-0.0090127275,-0.025444726,0.94227145,-0.33376016,-0.0090127275,-0.025444726
16.24414716,-0.015461268,-0.031768585,0.89860376,-0.43733624,-0.015461268,-0.031768585
16.25585284,-0.02281909,-0.035922084,0.84332668,-0.53571355,-0.02281909,-0.035922084
16.26755853,-0.030426792,-0.037668997,0.77701013,-0.62762291,-0.030426792,-0.037668997
16.27926421,-0.037567211,-0.036959192,0.70034001,-0.71186136,-0.037567211,-0.036959192
16.2909699,-0.043516341,-0.033943679,0.61410493,-0.78729238,-0.043516341,-0.033943679
16.30267559,-0.047598503,-0.028976787,0.51918852,-0.85284114,-0.047598503,-0.028976787
16.31438127,-0.04924311,-0.022604347,0.41656933,-0.90748783,-0.04924311,-0.022604347
16.32608696,-0.048040236,-0.015536929,0.30732918,-0.95026287,-0.048040236,-0.015536929
16.33779264,-0.043791728,-0.008607322,0.19266911,-0.98024834,-0.043791728,-0.008607322
16.34949833,-0.036553853,-0.0027116725,0.073929951,-0.9965896,-0.036553853,-0.0027116725
16.36120401,-0.026666373,0.0012655141,-0.047387052,-0.99851979,-0.026666373,0.0012655141
16.3729097,-0.014761864,0.0025408049,-0.16960624,-0.98539807,-0.014761864,0.0025408049
16.38461538,-0.0017484123,0.00053155804,-0.29087693,-0.95675873,-0.0017484123,0.00053155804
16.39632107,0.011240692,-0.0050414089,-0.40919235,-0.91236498,0.011240692,-0.0050414089
16.40802676,0.022934628,-0.014058855,-0.52243096,-0.85225715,0.022934628,-0.014058855
16.41973244,0.032050644,-0.025928972,-0.6284175,-0.77678304,0.032050644,-0.025928972
16.43143813,0.037453258,-0.039547676,-0.72499365,-0.68659846,0.037453258,-0.039547676
16.44314381,0.038338293,-0.053304926,-0.81008027,-0.58263086,0.038338293,-0.053304926
16.4548495,0.034430978,-0.065144813,-0.8817068,-0.46600835,0.034430978,-0.065144813
16.46655518,0.026189334,-0.072684104,-0.93798033,-0.33797047,0.026189334,-0.072684104
16.47826087,0.015009852,-0.07339606,-0.97696963,-0.19979505,0.015009852,-0.07339606
16.48996656,0.0034376393,-0.064879414,-0.99648939,-0.052799044,0.0034376393,-0.064879414
16.50167224,-0.0046227093,-0.045261554,-0.99379469,0.10149948,-0.0046227093,-0.045261554
16.51337793,-0.0037385152,-0.013829551,-0.96525028,0.26093421,-0.0037385152,-0.013829551
16.52508361,0.013024175,0.027979299,-0.90615853,0.42181068,0.013024175,0.027979299
16.5367893,0.053501299,0.075146247,-0.81115431,0.57751133,0.053501299,0.075146247
16.54849498,0.12457983,0.11745749,-0.67587171,0.71685496,0.12457983,0.11745749
17.5083612,-0.9969524,0.078006561,-7.3241202e-05,-0.00093604938,-0.9969524,0.078006561
17.52006689,-0.99622489,0.086805294,-7.8061717e-05,-0.00089587883,-0.99622489,0.086805294
17.53177258,-0.99543188,0.095470596,-8.2271589e-05,-0.00085781136,-0.99543188,0.095470596
17.54347826,-0.99457636,0.10400565,-8.5929551e-05,-0.00082171977,-0.99457636,0.10400565
17.55518395,-0.99366119,0.11241356,-8.9088756e-05,-0.00078748544,-0.99366119,0.11241356
17.56688963,-0.99268907,0.12069731,-9.1797329e-05,-0.00075499781,-0.99268907,0.12069731
17.57859532,-0.99166255,0.12885983,-9.4098861e-05,-0.00072415367,-0.99166255,0.12885983
17.590301,-0.99058408,0.13690394,-9.6032853e-05,-0.00069485667,-0.99058408,0.13690394
17.60200669,-0.98945597,0.14483239,-9.763511e-05,-0.00066701684,-0.98945597,0.14483239
17.61371237,-0.98828043,0.15264785,-9.8938103e-05,-0.00064055009,-0.98828043,0.15264785
17.62541806,-0.98705955,0.1603529,-9.9971285e-05,-0.00061537777,-0.98705955,0.1603529
17.63712375,-0.98579532,0.16795007,-0.00010076138,-0.00059142634,-0.98579532,0.16795007
17.64882943,-0.98448963,0.1754418,-0.00010133264,-0.00056862695,-0.98448963,0.1754418
17.66053512,-0.9831443,0.18283046,-0.00010170709,-0.00054691515,-0.9831443,0.18283046
17.6722408,-0.98176103,0.19011836,-0.00010190473,-0.00052623054,-0.98176103,0.19011836
