freq,s11_real,s11_imag,s21_real,s21_imag,s22_real,s22_imag
14.85117057,0.24405853,0.96976026,0.00066573629,-0.00016754514,0.24405853,0.96976026
14.86287625,0.25958606,0.96571968,0.00072775182,-0.00019562015,0.25958606,0.96571968
14.87458194,0.2754398,0.96131796,0.0007961347,-0.00022811098,0.2754398,0.96131796
14.88628763,0.29162793,0.9565314,0.00087159304,-0.00026573187,0.29162793,0.9565314
14.89799331,0.30815864,0.95133445,0.00095491805,-0.00030931945,0.30815864,0.95133445
14.909699,0.32504012,0.94569958,0.0010469938,-0.00035985529,0.32504012,0.94569958
14.92140468,0.34228044,0.93959704,0.0011488082,-0.0004184928,0.34228044,0.93959704
14.93311037,0.35988759,0.93299469,0.0012614647,-0.00048658958,0.35988759,0.93299469
14.94481605,0.3778693,0.92585774,0.0013861952,-0.00056574633,0.3778693,0.92585774
14.95652174,0.39623299,0.9181485,0.0015243744,-0.00065785373,0.39623299,0.9181485
14.96822742,0.41498568,0.90982608,0.001677534,-0.00076514909,0.41498568,0.90982608
14.97993311,0.43413379,0.90084607,0.0018473792,-0.000890285,0.43413379,0.90084607
14.9916388,0.45368304,0.89116019,0.0020358037,-0.0010364126,0.45368304,0.89116019
15.55351171,-0.0019133203,0.0066271998,0.96073785,0.27737194,-0.0019133203,0.0066271998
15.56521739,-0.00274671,0.023024836,0.99269262,0.11842164,-0.00274671,0.023024836
15.57692308,0.0015200414,0.038724268,0.99847985,-0.039193271,0.0015200414,0.038724268
15.58862876,0.010091587,0.051591802,0.98004446,-0.19170107,0.010091587,0.051591802
15.60033445,0.021526826,0.060205256,0.93969158,-0.33599353,0.021526826,0.060205256
15.61204013,0.034107066,0.063907313,0.87990238,-0.46960022,0.034107066,0.063907313
15.62374582,0.046134212,0.062740278,0.80319417,-0.59060513,0.046134212,0.062740278
15.63545151,0.05614461,0.057311537,0.71203902,-0.69754111,0.05614461,0.057311537
15.64715719,0.063042083,0.048628659,0.60883455,-0.78929173,0.063042083,0.048628659
15.65886288,0.066162332,0.037930445,0.49590973,-0.86501871,0.066162332,0.037930445
15.67056856,0.065282735,0.026529737,0.37554621,-0.92412087,0.065282735,0.026529737
15.68227425,0.060590206,0.01567701,0.24999853,-0.9662214,0.060590206,0.01567701
15.69397993,0.052617827,0.0064500959,0.121502,-0.99117457,0.052617827,0.0064500959
15.70568562,0.042159667,-0.00032647896,-0.0077367518,-0.99908088,0.042159667,-0.00032647896
15.7173913,0.030172925,-0.0041304921,-0.13556614,-0.99030013,0.030172925,-0.0041304921
15.72909699,0.017676524,-0.0047590291,-0.25992813,-0.96545443,0.017676524,-0.0047590291
15.74080268,0.0056551281,-0.0023154312,-0.37890188,-0.92541668,0.0056551281,-0.0023154312
15.75250836,-0.0050234913,0.0028294473,-0.49074491,-0.87128422,-0.0050234913,0.0028294473
15.76421405,-0.013671737,0.010095221,-0.5939256,-0.80434044,-0.013671737,0.010095221
15.77591973,-0.0198227,0.018761515,-0.68714316,-0.72600919,-0.0198227,0.018761515
15.78762542,-0.02324729,0.028041237,-0.76933369,-0.63780791,-0.02324729,0.028041237
15.7993311,-0.023949819,0.037150627,-0.83966402,-0.54130451,-0.023949819,0.037150627
15.81103679,-0.022145637,0.04537069,-0.89751628,-0.43808172,-0.022145637,0.04537069
15.82274247,-0.018225328,0.052096479,-0.94246726,-0.32971086,-0.018225328,0.052096479
15.83444816,-0.01271019,0.056872441,-0.97426665,-0.21773488,-0.01271019,0.056872441
15.84615385,-0.0062033182,0.059413468,-0.99281735,-0.10365936,-0.0062033182,0.059413468
15.85785953,0.00065999134,0.059612291,-0.99816021,0.011051028,0.00065999134,0.059612291
15.86956522,0.0072594963,0.057534465,-0.99046392,0.12497325,0.0072594963,0.057534465
15.8812709,0.013032521,0.053402545,-0.97002001,0.23672665,0.013032521,0.053402545
15.89297659,0.017509807,0.047571245,-0.93724179,0.34497568,0.017509807,0.047571245
15.90468227,0.020343193,0.040495546,-0.89266532,0.44843605,0.020343193,0.040495546
15.91638796,0.021323966,0.0326939,-0.8369505,0.54588484,0.021323966,0.0326939
15.92809365,0.020391172,0.024708882,-0.77088017,0.63617406,0.020391172,0.024708882
15.93979933,0.017629633,0.01706777,-0.6953558,0.71824661,0.017629633,0.01706777
15.95150502,0.013258086,0.01024561,-0.61138876,0.79115298,0.013258086,0.01024561
15.9632107,0.0076084278,0.0046331787,-0.52008699,0.85406684,0.0076084278,0.0046331787
15.97491639,0.0010977658,0.00051192569,-0.42263768,0.90629792,0.0010977658,0.00051192569
15.98662207,-0.0058045867,-0.001962561,-0.32028728,0.94730064,-0.0058045867,-0.001962561
15.99832776,-0.012612655,-0.0027676943,-0.21432017,0.97667811,-0.012612655,-0.0027676943
16.01003344,-0.018859318,-0.0020115087,-0.10603799,0.99418118,-0.018859318,-0.0020115087
16.02173913,-0.024129358,7.8661771e-05,0.0032590361,0.99970353,-0.024129358,7.8661771e-05
16.03344482,-0.02808796,0.0031752871,0.11228757,0.99327362,-0.02808796,0.0031752871
16.0451505,-0.03050304,0.0068759426,0.21979303,0.97504529,-0.03050304,0.0068759426
16.05685619,-0.031260277,0.010732985,0.32455773,0.94528825,-0.031260277,0.010732985
16.06856187,-0.03037025,0.014285692,0.42540622,0.90437996,-0.03037025,0.014285692
16.08026756,-0.027967454,0.017092972,0.52120868,0.8527996,-0.027967454,0.017092972
16.09197324,-0.024301382,0.018764831,0.61088383,0.79112469,-0.024301382,0.018764831
16.10367893,-0.019720138,0.018990871,0.6934027,0.72002998,-0.019720138,0.018990871
16.11538462,-0.014647341,0.0175642,0.76779439,0.640288,-0.014647341,0.0175642
16.1270903,-0.0095534125,0.014399244,0.83315468,0.55277,-0.0095534125,0.014399244
16.13879599,-0.0049226425,0.009542116,0.8886575,0.45844582,-0.0049226425,0.009542116
16.15050167,-0.0012178454,0.0031724393,0.93356913,0.35838128,-0.0012178454,0.0031724393
16.16220736,0.0011552681,-0.0044040558,0.96726389,0.25373183,0.0011552681,-0.0044040558
16.17391304,0.0018815792,-0.012772333,0.98923992,0.14573166,0.0018815792,-0.012772333
16.18561873,0.00076538055,-0.021433719,0.99913316,0.035678226,0.00076538055,-0.021433719
16.19732441,-0.0022478951,-0.029839188,0.99672789,-0.075087155,-0.0022478951,-0.029839188
16.2090301,-0.0070590924,-0.037428273,0.98196222,-0.18520123,-0.0070590924,-0.037428273
16.22073579,-0.013413349,-0.043671079,0.95492791,-0.29330123,-0.013413349,-0.043671079
16.23244147,-0.020909387,-0.048110476,0.91586453,-0.39804566,-0.020909387,-0.048110476
16.24414716,-0.029019947,-0.05040154,0.86514903,-0.49813119,-0.029019947,-0.05040154
16.25585284,-0.037122461,-0.050345454,0.80328259,-0.59230426,-0.037122461,-0.050345454
16.26755853,-0.044538486,-0.047915486,0.73087736,-0.6793664,-0.044538486,-0.047915486
16.27926421,-0.050580041,-0.043273088,0.64864576,-0.75817398,-0.050580041,-0.043273088
16.2909699,-0.054600758,-0.036772542,0.55739501,-0.82763358,-0.054600758,-0.036772542
16.30267559,-0.056049606,-0.028952808,0.45802887,-0.88669596,-0.056049606,-0.028952808
16.31438127,-0.054524709,-0.020515345,0.35155721,-0.93435203,-0.054524709,-0.020515345
16.32608696,-0.049824248,-0.012286704,0.23911281,-0.9696348,-0.049824248,-0.012286704
16.33779264,-0.041990607,-0.0051649385,0.12197287,-0.99163135,-0.041990607,-0.0051649385
16.34949833,-0.031342801,-4.9562026e-05,0.0015805101,-0.99950744,-0.031342801,-4.9562026e-05
16.36120401,-0.018491015,0.0022437763,-0.12043963,-0.99254589,-0.018491015,0.0022437763
16.3729097,-0.004326324,0.0010803754,-0.24227874,-0.97019644,-0.004326324,0.0010803754
16.38461538,0.01002113,-0.0038913546,-0.36196055,-0.93213142,0.01002113,-0.0038913546
16.39632107,0.023260382,-0.01264271,-0.47738087,-0.87829757,0.023260382,-0.01264271
16.40802676,0.034055628,-0.024685225,-0.58636863,-0.8089516,0.034055628,-0.024685225
16.41973244,0.041176395,-0.039022451,-0.68675983,-0.72466729,0.041176395,-0.039022451
16.43143813,0.043673583,-0.054144755,-0.7764681,-0.62630524,0.043673583,-0.054144755
16.44314381,0.041070455,-0.068074886,-0.85352852,-0.51494474,0.041070455,-0.068074886
16.4548495,0.033558976,-0.078468003,-0.91608799,-0.39178994,0.033558976,-0.078468003
16.46655518,0.022197546,-0.082769599,-0.96231594,-0.25807848,0.022197546,-0.082769599
16.47826087,0.0091134475,-0.078443849,-0.99021664,-0.11504136,0.0091134475,-0.078443849
16.48996656,-0.002285867,-0.063308883,-0.99734147,0.036010586,-0.002285867,-0.063308883
16.50167224,-0.0071112377,-0.036057071,-0.98043856,0.19336378,-0.0071112377,-0.036057071
16.51337793,0.0011031805,0.0029126698,-0.93516591,0.3541963,0.0011031805,0.0029126698
16.52508361,0.030111055,0.050219423,-0.85617653,0.51335474,0.030111055,0.050219423
16.5367893,0.087703782,0.097843043,-0.73817975,0.66168379,0.087703782,0.097843043
16.54849498,0.17869604,0.131815,-0.57879999,0.78465477,0.17869604,0.131815
17.5083612,-0.99702108,0.077123901,-7.1558924e-05,-0.00092507971,-0.99702108,0.077123901
17.52006689,-0.99630255,0.08590948,-7.6373798e-05,-0.0008857161,-0.99630255,0.08590948
17.53177258,-0.99551849,0.094563259,-8.0588324e-05,-0.0008483968,-0.99551849,0.094563259
17.54347826,-0.99467187,0.10308834,-8.4259681e-05,-0.00081299915,-0.99467187,0.10308834
17.55518395,-0.9937655,0.11148774,-8.7439662e-05,-0.00077940871,-0.9937655,0.11148774
17.56688963,-0.99280206,0.11976439,-9.0175203e-05,-0.00074751873,-0.99280206,0.11976439
17.57859532,-0.99178408,0.12792113,-9.2508857e-05,-0.0007172295,-0.99178408,0.12792113
17.590301,-0.99071398,0.13596073,-9.4479218e-05,-0.00068844794,-0.99071398,0.13596073
17.60200669,-0.98959407,0.14388586,-9.6121302e-05,-0.000661087,-0.98959407,0.14388586
17.61371237,-0.98842651,0.15169913,-9.746689e-05,-0.00063506532,-0.98842651,0.15169913
17.62541806,-0.98721339,0.15940308,-9.8544838e-05,-0.0006103068,-0.98721339,0.15940308
17.63712375,-0.98595669,0.16700017,-9.9381349e-05,-0.00058674017,-0.98595669,0.16700017
17.64882943,-0.98465829,0.17449278,-0.00010000023,-0.00056429874,-0.98465829,0.17449278
17.66053512,-0.98331998,0.18188325,-0.00010042311,-0.00054291999,-0.98331998,0.18188325
17.6722408,-0.98194347,0.18917383,-0.00010066965,-0.00052254535,-0.98194347,0.18917383
