freq,s11_real,s11_imag,s21_real,s21_imag,s22_real,s22_imag
14.85117057,0.35791627,0.93375329,0.00080167548,-0.00030728963,0.35791627,0.93375329
14.86287625,0.37591601,0.92665326,0.00087573527,-0.00035526008,0.37591601,0.92665326
14.87458194,0.39427432,0.91899221,0.00095711193,-0.00041062878,0.39427432,0.91899221
14.88628763,0.41299513,0.91073251,0.0010465442,-0.00047458246,0.41299513,0.91073251
14.89799331,0.43208155,0.90183364,0.0011448393,-0.0005485091,0.43208155,0.90183364
14.909699,0.45153564,0.89225198,0.0012528762,-0.00063403417,0.45153564,0.89225198
14.92140468,0.47135821,0.88194049,0.0013716078,-0.00073306376,0.47135821,0.88194049
14.93311037,0.49154859,0.87084844,0.0015020622,-0.00084783589,0.49154859,0.87084844
14.94481605,0.51210433,0.85892112,0.0016453406,-0.00098098187,0.51210433,0.85892112
14.95652174,0.53302085,0.84609943,0.0018026126,-0.0011355995,0.53302085,0.84609943
14.96822742,0.55429106,0.83231953,0.0019751061,-0.0013153405,0.55429106,0.83231953
14.97993311,0.57590486,0.81751244,0.002164091,-0.0015245157,0.57590486,0.81751244
14.9916388,0.59784863,0.80160356,0.0023708533,-0.0017682199,0.59784863,0.80160356
15.55351171,0.0018710423,0.13944137,0.99013943,-0.013285818,0.0018710423,0.13944137
15.56521739,0.021974722,0.12415077,0.97683631,-0.1729003,0.021974722,0.12415077
15.57692308,0.037314218,0.10804506,0.93902293,-0.324299,0.037314218,0.10804506
15.58862876,0.048398041,0.091624921,0.8794636,-0.46454955,0.048398041,0.091624921
15.60033445,0.055641837,0.075374218,0.80099222,-0.59129872,0.055641837,0.075374218
15.61204013,0.059454512,0.059773819,0.70647377,-0.70269984,0.059454512,0.059773819
15.62374582,0.060293604,0.045277121,0.5987736,-0.79736117,0.060293604,0.045277121
15.63545151,0.058687655,0.032268787,0.48072893,-0.87430783,0.058687655,0.032268787
15.64715719,0.055229424,0.0210226,0.35511972,-0.9329511,0.055229424,0.0210226
15.65886288,0.050547103,0.011669194,0.22463859,-0.97306029,0.050547103,0.011669194
15.67056856,0.04526204,0.004179818,0.091860784,-0.99473387,0.04526204,0.004179818
15.68227425,0.039941514,-0.0016316222,-0.040783618,-0.99836802,0.039941514,-0.0016316222
15.69397993,0.035054089,-0.0060890515,-0.17103334,-0.98462263,0.035054089,-0.0060890515
15.70568562,0.030933495,-0.0096203075,-0.29681368,-0.95438578,0.030933495,-0.0096203075
15.7173913,0.027755046,-0.012713206,-0.41624792,-0.90873852,0.027755046,-0.012713206
15.72909699,0.025526656,-0.015866554,-0.5276628,-0.84892203,0.025526656,-0.015866554
15.74080268,0.024094816,-0.019541003,-0.62958951,-0.77630834,0.024094816,-0.019541003
15.75250836,0.023164423,-0.024114135,-0.7207621,-0.69237556,0.023164423,-0.024114135
15.76421405,0.022330372,-0.029843414,-0.8001152,-0.59868722,0.022330372,-0.029843414
15.77591973,0.02111802,-0.03683976,-0.86678289,-0.49687452,0.02111802,-0.03683976
15.78762542,0.019029176,-0.045053614,-0.92009925,-0.3886199,0.019029176,-0.045053614
15.7993311,0.015590015,-0.054274387,-0.95960087,-0.27563999,0.015590015,-0.054274387
15.81103679,0.010397162,-0.064143277,-0.98503006,-0.15966626,0.010397162,-0.064143277
15.82274247,0.0031583961,-0.074178422,-0.99633725,-0.042422413,0.0031583961,-0.074178422
15.83444816,-0.0062752746,-0.083810408,-0.99368046,0.074401472,-0.0062752746,-0.083810408
15.84615385,-0.017888698,-0.092425291,-0.97741982,0.18917731,-0.017888698,-0.092425291
15.85785953,-0.031494441,-0.099411624,-0.94810577,0.30036791,-0.031494441,-0.099411624
15.86956522,-0.046737898,-0.10420768,-0.90646025,0.40655399,-0.046737898,-0.10420768
15.8812709,-0.063114924,-0.10634511,-0.85335142,0.50645688,-0.063114924,-0.10634511
15.89297659,-0.080000167,-0.10548584,-0.78976348,0.59895439,-0.080000167,-0.10548584
15.90468227,-0.096683478,-0.10144985,-0.71676384,0.68308845,-0.096683478,-0.10144985
15.91638796,-0.11241134,-0.094232321,-0.63547075,0.7580639,-0.11241134,-0.094232321
15.92809365,-0.12643028,-0.084010127,-0.54702408,0.82323893,-0.12643028,-0.084010127
15.93979933,-0.13802951,-0.071138001,-0.45256191,0.87810874,-0.13802951,-0.071138001
15.95150502,-0.14658085,-0.056135671,-0.3532049,0.92228474,-0.14658085,-0.056135671
15.9632107,-0.15157432,-0.039667346,-0.25004926,0.95547219,-0.15157432,-0.039667346
15.97491639,-0.15264885,-0.022514887,-0.14416851,0.97744915,-0.15264885,-0.022514887
15.98662207,-0.14961745,-0.0055457183,-0.036623045,0.98804991,-0.14961745,-0.0055457183
15.99832776,-0.14248664,0.010323869,0.07152432,0.98715513,-0.14248664,0.010323869
16.01003344,-0.13146966,0.024169682,0.17918943,0.97469108,-0.13146966,0.024169682
16.02173913,-0.11699234,0.035104606,0.28524775,0.95063883,-0.11699234,0.035104606
16.03344482,-0.099690306,0.042327108,0.38851898,0.91505369,-0.099690306,0.042327108
16.0451505,-0.080395434,0.045172104,0.48775935,0.86809382,-0.080395434,0.045172104
16.05685619,-0.060109419,0.043161954,0.5816653,0.81005517,-0.060109419,0.043161954
16.06856187,-0.039962782,0.03605403,0.66889171,0.74140877,-0.039962782,0.03605403
16.08026756,-0.02115866,0.023880011,0.74808588,0.66283449,-0.02115866,0.023880011
16.09197324,-0.0049027449,0.0069711779,0.81793676,0.57524501,-0.0049027449,0.0069711779
16.10367893,0.0076767916,-0.01403595,0.87723566,0.47979334,0.0076767916,-0.01403595
16.11538462,0.01561291,-0.038218031,0.92494214,0.3778593,0.01561291,-0.038218031
16.1270903,0.018178318,-0.064409098,0.96024647,0.27101242,0.018178318,-0.064409098
16.13879599,0.014949827,-0.091268661,0.98261925,0.16095325,0.014949827,-0.091268661
16.15050167,0.0058502458,-0.11736794,0.99183989,0.049438606,0.0058502458,-0.11736794
16.16220736,-0.0088375174,-0.14128534,0.98799853,-0.061800143,-0.0088375174,-0.14128534
16.17391304,-0.028485355,-0.16170084,0.97147014,-0.171135,-0.028485355,-0.16170084
16.18561873,-0.052160714,-0.17747943,0.94286426,-0.2771052,-0.052160714,-0.17747943
16.19732441,-0.07868656,-0.18773654,0.90295741,-0.37845916,-0.07868656,-0.18773654
16.2090301,-0.10671209,-0.19188182,0.85261757,-0.47416998,-0.10671209,-0.19188182
16.22073579,-0.13478587,-0.18964191,0.79273053,-0.56342437,-0.13478587,-0.18964191
16.23244147,-0.16142497,-0.18106569,0.72413671,-0.6455875,-0.16142497,-0.18106569
16.24414716,-0.18517651,-0.16651767,0.64758522,-0.72014922,-0.18517651,-0.16651767
16.25585284,-0.20467152,-0.14666527,0.56370981,-0.78665756,-0.20467152,-0.14666527
16.26755853,-0.21867368,-0.12246441,0.47302954,-0.84464628,-0.21867368,-0.12246441
16.27926421,-0.22612824,-0.095145797,0.375976,-0.89356329,-0.22612824,-0.095145797
16.2909699,-0.22621687,-0.066200254,0.27294806,-0.93270725,-0.22621687,-0.066200254
16.30267559,-0.21842442,-0.037357876,0.16439415,-0.96118142,-0.21842442,-0.037357876
16.31438127,-0.20262043,-0.010550816,0.050919772,-0.97787567,-0.20262043,-0.010550816
16.32608696,-0.17915321,0.01215411,-0.066586236,-0.98149003,-0.17915321,0.01215411
16.33779264,-0.14894552,0.028668601,-0.18682093,-0.97061387,-0.14894552,0.028668601
16.34949833,-0.11356962,0.037054294,-0.30795615,-0.94387072,-0.11356962,0.037054294
16.36120401,-0.075267771,0.035753928,-0.42758158,-0.900128,-0.075267771,0.035753928
16.3729097,-0.036878611,0.023863539,-0.54274148,-0.83875037,-0.036878611,0.023863539
16.38461538,-0.0016369856,0.0014005378,-0.65009582,-0.75984918,-0.0016369856,0.0014005378
16.39632107,0.027158731,-0.030500179,-0.74620891,-0.66445797,0.027158731,-0.030500179
16.40802676,0.046575146,-0.069533814,-0.82792429,-0.55456034,0.046575146,-0.069533814
16.41973244,0.054488574,-0.11236163,-0.89273879,-0.43292415,0.054488574,-0.11236163
16.43143813,0.049947475,-0.15492514,-0.93906571,-0.30275243,0.049947475,-0.15492514
16.44314381,0.033377334,-0.19286841,-0.96629381,-0.16722443,0.033377334,-0.19286841
16.4548495,0.0066141329,-0.2219659,-0.97459941,-0.029041082,0.0066141329,-0.2219659
16.46655518,-0.027173789,-0.23846902,-0.96452793,0.10990895,-0.027173789,-0.23846902
16.47826087,-0.063561845,-0.23934909,-0.93639471,0.24867016,-0.063561845,-0.23934909
16.48996656,-0.09681594,-0.2225129,-0.88955532,0.38704782,-0.09681594,-0.2225129
16.50167224,-0.1196235,-0.18719723,-0.82158821,0.5250145,-0.1196235,-0.18719723
16.51337793,-0.12266775,-0.13492311,-0.72750611,0.66142515,-0.12266775,-0.13492311
16.52508361,-0.094518506,-0.071579954,-0.59946542,0.79157045,-0.094518506,-0.071579954
16.5367893,-0.023314428,-0.011058389,-0.42840925,0.90321629,-0.023314428,-0.011058389
16.54849498,0.096781668,0.020955156,-0.21057623,0.97254915,0.096781668,0.020955156
17.5083612,-0.98313436,0.18288319,-0.00013705497,-0.00073677326,-0.98313436,0.18288319
17.52006689,-0.98171119,0.19037497,-0.00013688322,-0.00070586899,-0.98171119,0.19037497
17.53177258,-0.98025039,0.1977592,-0.00013649232,-0.00067656348,-0.98025039,0.1977592
17.54347826,-0.97875369,0.20503849,-0.00013590837,-0.00064876024,-0.97875369,0.20503849
17.55518395,-0.97722272,0.21221535,-0.00013515479,-0.00062236939,-0.97722272,0.21221535
17.56688963,-0.97565904,0.2192922,-0.00013425264,-0.00059730715,-0.97565904,0.2192922
17.57859532,-0.97406412,0.2262714,-0.0001332208,-0.00057349537,-0.97406412,0.2262714
17.590301,-0.97243936,0.23315524,-0.00013207627,-0.00055086113,-0.97243936,0.23315524
17.60200669,-0.9707861,0.23994593,-0.00013083428,-0.00052933633,-0.9707861,0.23994593
17.61371237,-0.9691056,0.24664561,-0.00012950852,-0.00050885736,-0.9691056,0.24664561
17.62541806,-0.96739907,0.25325635,-0.00012811127,-0.00048936472,-0.96739907,0.25325635
17.63712375,-0.96566766,0.25978018,-0.00012665355,-0.00047080279,-0.96566766,0.25978018
17.64882943,-0.96391244,0.26621905,-0.00012514523,-0.00045311949,-0.96391244,0.26621905
17.66053512,-0.96213447,0.27257485,-0.00012359516,-0.00043626609,-0.96213447,0.27257485
17.6722408,-0.96033474,0.27884942,-0.00012201127,-0.00042019689,-0.96033474,0.27884942
