freq,s11_real,s11_imag,s21_real,s21_imag,s22_real,s22_imag
14.85117057,0.20092245,0.97960698,0.00057180514,-0.00011728019,0.20092245,0.97960698
14.86287625,0.21580239,0.97643685,0.0006246081,-0.00013804469,0.21580239,0.97643685
14.87458194,0.23099826,0.97295391,0.00068280294,-0.00016211075,0.23099826,0.97295391
14.88628763,0.24651858,0.96913776,0.00074698961,-0.00019001098,0.24651858,0.96913776
14.89799331,0.262372,0.96496643,0.00081783932,-0.0002223685,0.262372,0.96496643
14.909699,0.27856728,0.96041626,0.00089610333,-0.00025991341,0.27856728,0.96041626
14.92140468,0.29511325,0.95546173,0.00098262268,-0.00030350244,0.29511325,0.95546173
14.93311037,0.31201875,0.95007527,0.0010783391,-0.00035414249,0.31201875,0.95007527
14.94481605,0.32929261,0.94422709,0.0011843073,-0.00041301889,0.32929261,0.94422709
14.95652174,0.34694358,0.93788497,0.0013017079,-0.0004815294,0.34694358,0.93788497
14.96822742,0.36498027,0.93101398,0.0014318626,-0.00056132519,0.36498027,0.93101398
14.97993311,0.38341102,0.92357624,0.0015762501,-0.00065436033,0.38341102,0.92357624
14.9916388,0.40224385,0.9155306,0.0017365231,-0.00076295181,0.40224385,0.9155306
15.55351171,0.029840833,-0.047545084,0.84565923,0.53076309,0.029840833,-0.047545084
15.56521739,0.015098592,-0.036619273,0.9237741,0.38088381,0.015098592,-0.036619273
15.57692308,0.0048273162,-0.020959902,0.9742633,0.2243845,0.0048273162,-0.020959902
15.58862876,0.00023010372,-0.0034820393,0.99781757,0.065938811,0.00023010372,-0.0034820393
15.60033445,0.0011908963,0.013145452,0.99583471,-0.090216439,0.0011908963,0.013145452
15.61204013,0.0066560864,0.026860451,0.97027058,-0.24043546,0.0066560864,0.026860451
15.62374582,0.015035213,0.03637222,0.92343863,-0.38172256,0.015035213,0.03637222
15.63545151,0.02455833,0.041169834,0.85782401,-0.51170295,0.02455833,0.041169834
15.64715719,0.033555501,0.041425224,0.77594908,-0.62853878,0.033555501,0.041425224
15.65886288,0.040648907,0.037838445,0.68029867,-0.73082805,0.040648907,0.037838445
15.67056856,0.044864119,0.031461641,0.57329466,-0.8175149,0.044864119,0.031461641
15.68227425,0.045674055,0.023525752,0.45730099,-0.88782669,0.045674055,0.023525752
15.69397993,0.042990188,0.015284303,0.33463946,-0.94124102,0.042990188,0.015284303
15.70568562,0.037114046,0.0078824541,0.20760122,-0.97747744,0.037114046,0.0078824541
15.7173913,0.02866031,0.0022561372,0.0784447,-0.99650385,0.02866031,0.0022561372
15.72909699,0.018461819,-0.00093594523,-0.050622589,-0.99854676,0.018461819,-0.00093594523
15.74080268,0.0074664401,-0.0013465309,-0.17747621,-0.98409585,0.0074664401,-0.0013465309
15.75250836,-0.0033645387,0.0010585507,-0.30011479,-0.95389657,-0.0033645387,0.0010585507
15.76421405,-0.013147711,0.0060276011,-0.41670066,-0.90892869,-0.013147711,0.0060276011
15.77591973,-0.021151462,0.013073204,-0.5255942,-0.85037194,-0.021151462,0.013073204
15.78762542,-0.026847899,0.021537786,-0.62537721,-0.77956312,-0.026847899,0.021537786
15.7993311,-0.029941002,0.030666535,-0.71486282,-0.69795003,-0.029941002,0.030666535
15.81103679,-0.030371913,0.039680152,-0.79309276,-0.60704769,-0.030371913,0.039680152
15.82274247,-0.028304296,0.047841299,-0.85932436,-0.50840114,-0.028304296,0.047841299
15.83444816,-0.024093957,0.054510367,-0.9130113,-0.40355727,-0.024093957,0.054510367
15.84615385,-0.018247374,0.059188026,-0.95378224,-0.29404632,-0.018247374,0.059188026
15.85785953,-0.011373584,0.061543555,-0.98142104,-0.18137195,-0.011373584,0.061543555
15.86956522,-0.0041333579,0.061429066,-0.99585108,-0.067007512,-0.0041333579,0.061429066
15.8812709,0.0028110352,0.058880453,-0.99712539,0.047604162,0.0028110352,0.058880453
15.89297659,0.0088427641,0.054106323,-0.98542225,0.16105061,0.0088427641,0.054106323
15.90468227,0.013431802,0.047466437,-0.96104569,0.27195164,0.013431802,0.047466437
15.91638796,0.016168802,0.039441375,-0.92442869,0.3789651,0.016168802,0.039441375
15.92809365,0.016789867,0.030595472,-0.87613692,0.48079737,0.016789867,0.030595472
15.93979933,0.01519096,0.021535326,-0.81687075,0.5762184,0.01519096,0.021535326
15.95150502,0.011431216,0.012866541,-0.74746328,0.66408014,0.011431216,0.012866541
15.9632107,0.0057250373,0.0051515339,-0.66887318,0.74333663,0.0057250373,0.0051515339
15.97491639,-0.0015763405,-0.0011286955,-0.58217185,0.81306345,-0.0015763405,-0.0011286955
15.98662207,-0.010012356,-0.0056062246,-0.48852512,0.87247437,-0.010012356,-0.0056062246
15.99832776,-0.019047512,-0.0080491609,-0.38917108,0.92093337,-0.019047512,-0.0080491609
16.01003344,-0.028109967,-0.0083745186,-0.28539561,0.95796088,-0.028109967,-0.0083745186
16.02173913,-0.036631398,-0.0066505002,-0.17850798,0.98323385,-0.036631398,-0.0066505002
16.03344482,-0.044085316,-0.0030885321,-0.069818494,0.99658031,-0.044085316,-0.0030885321
16.0451505,-0.05002132,0.0019738566,0.039380183,0.99796952,-0.05002132,0.0019738566
16.05685619,-0.054093357,0.0080976799,0.14782695,0.98749963,-0.054093357,0.0080976799
16.06856187,-0.056080593,0.014772728,0.25430127,0.96538469,-0.056080593,0.014772728
16.08026756,-0.05590015,0.021451358,0.35762766,0.93194285,-0.05590015,0.021451358
16.09197324,-0.053611392,0.027583864,0.45667693,0.88758725,-0.053611392,0.027583864
16.10367893,-0.049411867,0.032653604,0.55036557,0.83282048,-0.049411867,0.032653604
16.11538462,-0.043625223,0.036210184,0.63765516,0.76823275,-0.043625223,0.036210184
16.1270903,-0.036681688,0.037899127,0.71755352,0.69450346,-0.036681688,0.037899127
16.13879599,-0.029091851,0.037486517,0.78911887,0.61240496,-0.029091851,0.037486517
16.15050167,-0.02141479,0.034877138,0.85146807,0.52280695,-0.02141479,0.034877138
16.16220736,-0.014221919,0.030124736,0.90378905,0.42667974,-0.014221919,0.030124736
16.17391304,-0.0080583334,0.023433203,0.94535689,0.32509431,-0.0080583334,0.023433203
16.18561873,-0.0034038969,0.015147853,0.9755524,0.21921785,-0.0034038969,0.015147853
16.19732441,-0.00063665643,0.0057365409,0.99388119,0.11030355,-0.00063665643,0.0057365409
16.2090301,-1.3794768e-06,-0.0042389033,0.99999096,-0.00032542954,-1.3794768e-06,-0.0042389033
16.22073579,-0.0015859335,-0.014159555,0.99368503,-0.11129717,-0.0015859335,-0.014159555
16.23244147,-0.0053078318,-0.023392403,0.97492989,-0.22121557,-0.0053078318,-0.023392403
16.24414716,-0.010912575,-0.031336582,0.94385611,-0.32868615,-0.010912575,-0.031336582
16.25585284,-0.0179845,-0.037469515,0.90075221,-0.43234021,-0.0179845,-0.037469515
16.26755853,-0.025969861,-0.041389608,0.84605292,-0.5308549,-0.025969861,-0.041389608
16.27926421,-0.034210952,-0.042852364,0.78032374,-0.62296722,-0.034210952,-0.042852364
16.2909699,-0.041989393,-0.041797332,0.7042448,-0.70748084,-0.041989393,-0.041797332
16.30267559,-0.048576265,-0.038363889,0.61859719,-0.78326629,-0.048576265,-0.038363889
16.31438127,-0.053286609,-0.032894387,0.52425464,-0.84925589,-0.053286609,-0.032894387
16.32608696,-0.055535696,-0.025923566,0.42218286,-0.9044365,-0.055535696,-0.025923566
16.33779264,-0.054894368,-0.018153306,0.31344741,-0.94784376,-0.054894368,-0.018153306
16.34949833,-0.051140313,-0.010411864,0.19922944,-0.97856216,-0.051140313,-0.010411864
16.36120401,-0.044301437,-0.0035969637,0.080846651,-0.99573504,-0.044301437,-0.0035969637
16.3729097,-0.034686385,0.0013972378,-0.040225124,-0.99858742,-0.034686385,0.0013972378
16.38461538,-0.022896153,0.003767876,-0.16233596,-0.98646267,-0.022896153,0.003767876
16.39632107,-0.0098099497,0.0029020338,-0.28365849,-0.9588708,-0.0098099497,0.0029020338
16.40802676,0.003461301,-0.0015205709,-0.40220347,-0.9155425,0.003461301,-0.0015205709
16.41973244,0.015658571,-0.0094311603,-0.51585764,-0.85647928,0.015658571,-0.0094311603
16.43143813,0.025496683,-0.020294706,-0.62244186,-0.78198732,0.025496683,-0.020294706
16.44314381,0.031820995,-0.033065818,-0.71978061,-0.69268315,0.031820995,-0.033065818
16.4548495,0.03379056,-0.046189926,-0.80576535,-0.58946322,0.03379056,-0.046189926
16.46655518,0.031077056,-0.057658418,-0.87838812,-0.47343853,0.031077056,-0.057658418
16.47826087,0.024070085,-0.065123202,-0.93571786,-0.34584922,0.024070085,-0.065123202
16.48996656,0.01408457,-0.066077685,-0.97579435,-0.20799221,0.01408457,-0.066077685
16.50167224,0.0035709143,-0.058122973,-0.9964243,-0.061217545,0.0035709143,-0.058122973
16.51337793,-0.0036766686,-0.039365331,-0.99488819,0.092921208,-0.0036766686,-0.039365331
16.52508361,-0.002354836,-0.0090333037,-0.967619,0.2522426,-0.002354836,-0.0090333037
16.5367893,0.014326296,0.031560097,-0.91002798,0.41309538,0.014326296,0.031560097
16.54849498,0.05407563,0.077629744,-0.81686621,0.56901586,0.05407563,0.077629744
17.5083612,-0.99763898,0.068669565,-6.7460696e-05,-0.0009800764,-0.99763898,0.068669565
17.52006689,-0.99698406,0.077600964,-7.2974136e-05,-0.00093754055,-0.99698406,0.077600964
17.53177258,-0.99626052,0.086395369,-7.7809519e-05,-0.00089725356,-0.99626052,0.086395369
17.54347826,-0.99547155,0.095056078,-8.2032082e-05,-0.00085907819,-0.99547155,0.095056078
17.55518395,-0.99462013,0.10358629,-8.5700826e-05,-0.00082288654,-0.99462013,0.10358629
17.56688963,-0.99370912,0.11198912,-8.8869144e-05,-0.00078855944,-0.99370912,0.11198912
17.57859532,-0.99274122,0.12026758,-9.1585371e-05,-0.00075598573,-0.99274122,0.12026758
17.590301,-0.99171901,0.12842459,-9.3893284e-05,-0.00072506173,-0.99171901,0.12842459
17.60200669,-0.99064492,0.136463,-9.5832549e-05,-0.00069569062,-0.99064492,0.136463
17.61371237,-0.98952128,0.14438556,-9.7439116e-05,-0.00066778199,-0.98952128,0.14438556
17.62541806,-0.98835028,0.15219496,-9.8745583e-05,-0.00064125135,-0.98835028,0.15219496
17.63712375,-0.98713403,0.15989379,-9.9781516e-05,-0.00061601971,-0.98713403,0.15989379
17.64882943,-0.98587451,0.16748459,-0.00010057374,-0.00059201318,-0.98587451,0.16748459
17.66053512,-0.98457363,0.1749698,-0.00010114659,-0.0005691626,-0.98457363,0.1749698
17.6722408,-0.98323319,0.18235181,-0.00010152217,-0.00054740323,-0.98323319,0.18235181
