freq,s11_real,s11_imag,s21_real,s21_imag,s22_real,s22_imag
14.85117057,0.22505955,0.9743448,0.0006185603,-0.00014287848,0.22505955,0.9743448
14.86287625,0.24036968,0.97068117,0.00067591848,-0.00016737763,0.24036968,0.97068117
14.87458194,0.25600428,0.96667535,0.00073914355,-0.00019574711,0.25600428,0.96667535
14.88628763,0.27197173,0.96230487,0.00080888655,-0.00022861182,0.27197173,0.96230487
14.89799331,0.2882805,0.95754556,0.00088587503,-0.00026670323,0.2882805,0.95754556
14.909699,0.30493907,0.95237131,0.00097092217,-0.00031087886,0.30493907,0.95237131
14.92140468,0.32195591,0.94675399,0.0010649369,-0.00036214554,0.32195591,0.94675399
14.93311037,0.33933941,0.94066318,0.0011689351,-0.00042168731,0.33933941,0.94066318
14.94481605,0.3570978,0.93406599,0.0012840516,-0.00049089893,0.3570978,0.93406599
14.95652174,0.37523911,0.9269268,0.0014115539,-0.00057142616,0.37523911,0.9269268
14.96822742,0.39377102,0.91920701,0.0015528562,-0.00066521446,0.39377102,0.91920701
14.97993311,0.4127008,0.91086472,0.001709535,-0.00077456776,0.4127008,0.91086472
14.9916388,0.43203509,0.90185438,0.0018833444,-0.00090221977,0.43203509,0.90185438
15.55351171,0.0087995561,-0.019648498,0.91244322,0.4086366,0.0087995561,-0.019648498
15.56521739,0.002018034,-0.0077430186,0.96764377,0.25219338,0.002018034,-0.0077430186
15.57692308,-0.00056685194,0.0060481116,0.99561828,0.093313119,-0.00056685194,0.0060481116
15.58862876,0.0012371231,0.019351974,0.99777523,-0.063785266,0.0012371231,0.019351974
15.60033445,0.0066836053,0.030277671,0.97602231,-0.21545078,0.0066836053,0.030277671
15.61204013,0.014461725,0.037605639,0.93260421,-0.35864476,0.014461725,0.037605639
15.62374582,0.023037018,0.040823515,0.86994473,-0.49091638,0.023037018,0.040823515
15.63545151,0.030924949,0.040055285,0.79052763,-0.61033211,0.030924949,0.040055285
15.64715719,0.036885062,0.035927983,0.69682646,-0.71538909,0.036885062,0.035927983
15.65886288,0.040038868,0.029411053,0.59127667,-0.80493713,0.040038868,0.029411053
15.67056856,0.039921988,0.021652796,0.47627436,-0.87812307,0.039921988,0.021652796
15.68227425,0.036483143,0.01382953,0.35418482,-0.93436119,0.036483143,0.01382953
15.69397993,0.030042114,0.0070171772,0.2273473,-0.97332494,0.030042114,0.0070171772
15.70568562,0.021217837,0.0020913421,0.098067658,-0.99495134,0.021217837,0.0020913421
15.7173913,0.01083721,-0.0003405142,-0.031403493,-0.99944798,0.01083721,-0.0003405142
15.72909699,-0.00016506297,2.656685e-05,-0.15890474,-0.98729391,-0.00016506297,2.656685e-05
15.74080268,-0.010845613,0.0031930315,-0.28240433,-0.95922884,-0.010845613,0.0031930315
15.75250836,-0.020341588,0.0088814609,-0.40004008,-0.91622883,-0.020341588,0.0088814609
15.76421405,-0.027942763,0.016585883,-0.51015243,-0.85946996,-0.027942763,0.016585883
15.77591973,-0.033142017,0.02563624,-0.6113061,-0.79028428,-0.033142017,0.02563624
15.78762542,-0.035662498,0.035270027,-0.70229849,-0.7101134,-0.035662498,0.035270027
15.7993311,-0.035462373,0.044703723,-0.78215554,-0.62046492,-0.035462373,0.044703723
15.81103679,-0.032720114,0.053198014,-0.85011782,-0.52287575,-0.032720114,0.053198014
15.82274247,-0.027804393,0.060112562,-0.90562076,-0.41888475,-0.027804393,0.060112562
15.83444816,-0.021233138,0.064947876,-0.94827299,-0.31001493,-0.021233138,0.064947876
15.84615385,-0.013626028,0.067373294,-0.97783663,-0.19776425,-0.013626028,0.067373294
15.85785953,-0.0056542607,0.067241184,-0.99421188,-0.083602531,-0.0056542607,0.067241184
15.86956522,0.0020092315,0.064588123,-0.99742748,0.031028347,0.0020092315,0.064588123
15.8812709,0.0087364651,0.059624236,-0.98763683,0.14471388,0.0087364651,0.059624236
15.89297659,0.013985755,0.052712111,-0.965119,0.25606863,0.013985755,0.052712111
15.90468227,0.017335807,0.044336932,-0.93028252,0.36374186,0.017335807,0.044336932
15.91638796,0.018510905,0.035069774,-0.88366979,0.46642809,0.018510905,0.035069774
15.92809365,0.017395894,0.02552631,-0.82595966,0.56288225,0.017395894,0.02552631
15.93979933,0.014040131,0.016323538,-0.75796609,0.65193851,0.014040131,0.016323538
15.95150502,0.0086502298,0.0080373674,-0.6806315,0.73253077,0.0086502298,0.0080373674
15.9632107,0.0015721924,0.0011639443,-0.59501425,0.80371277,0.0015721924,0.0011639443
15.97491639,-0.00673567,-0.0039126006,-0.50227065,0.86467538,-0.00673567,-0.0039126006
15.98662207,-0.015736886,-0.0069438175,-0.40363274,0.91475939,-0.015736886,-0.0069438175
15.99832776,-0.024855372,-0.0078305641,-0.30038369,0.95346239,-0.024855372,-0.0078305641
16.01003344,-0.033515462,-0.0066260144,-0.1938331,0.98043946,-0.033515462,-0.0066260144
16.02173913,-0.041180557,-0.0035283425,-0.085294099,0.99549818,-0.041180557,-0.0035283425
16.03344482,-0.047387855,0.0011358693,0.02393581,0.99858909,-0.047387855,0.0011358693
16.0451505,-0.051777165,0.0069358879,0.13258927,0.98979347,-0.051777165,0.0069358879
16.05685619,-0.054112399,0.013366822,0.2394386,0.96931024,-0.054112399,0.013366822
16.06856187,-0.054294918,0.019883304,0.34330074,0.93744404,-0.054294918,0.019883304
16.08026756,-0.052368421,0.02593489,0.44303881,0.89459575,-0.052368421,0.02593489
16.09197324,-0.04851545,0.0310013,0.53756168,0.84125656,-0.04851545,0.0310013
16.10367893,-0.043045834,0.034625824,0.62582347,0.77800584,-0.043045834,0.034625824
16.11538462,-0.036377631,0.036445291,0.70682448,0.70551227,-0.036377631,0.036445291
16.1270903,-0.029011329,0.036215086,0.77961523,0.62453735,-0.029011329,0.036215086
16.13879599,-0.021498325,0.033827743,0.8433043,0.5359397,-0.021498325,0.033827743
16.15050167,-0.014405035,0.029323738,0.89707044,0.44067817,-0.014405035,0.029323738
16.16220736,-0.0082744009,0.022893269,0.94017824,0.33981218,-0.0082744009,0.022893269
16.17391304,-0.0035870003,0.014868188,0.97199642,0.23449741,-0.0035870003,0.014868188
16.18561873,-0.00072432247,0.0057037847,0.99201663,0.12597599,-0.00072432247,0.0057037847
16.19732441,6.3016265e-05,-0.0040491226,0.99987072,0.015560931,6.3016265e-05,-0.0040491226
16.2090301,-0.0013205968,-0.013780506,0.99534423,-0.095384622,-0.0013205968,-0.013780506
16.22073579,-0.0048016332,-0.02286371,0.9783842,-0.20547156,-0.0048016332,-0.02286371
16.23244147,-0.010134946,-0.030701458,0.94910032,-0.31331021,-0.010134946,-0.030701458
16.24414716,-0.016913723,-0.036772041,0.90775925,-0.4175343,-0.016913723,-0.036772041
16.25585284,-0.024591671,-0.040672314,0.85477318,-0.51682088,-0.024591671,-0.040672314
16.26755853,-0.03251633,-0.042154434,0.79068482,-0.60990425,-0.03251633,-0.042154434
16.27926421,-0.039971712,-0.041153689,0.71615154,-0.69558293,-0.039971712,-0.041153689
16.2909699,-0.046228071,-0.037805419,0.6319319,-0.77271973,-0.046228071,-0.037805419
16.30267559,-0.050596347,-0.032449467,0.5388776,-0.84023686,-0.050596347,-0.032449467
16.31438127,-0.052484818,-0.025621017,0.43793297,-0.89710848,-0.052484818,-0.025621017
16.32608696,-0.051455279,-0.018026763,0.33014318,-0.94235496,-0.051455279,-0.018026763
16.33779264,-0.047275695,-0.010505432,0.21667045,-0.97504285,-0.047275695,-0.010505432
16.34949833,-0.03996548,-0.0039718743,0.098815641,-0.99429495,-0.03996548,-0.0039718743
16.36120401,-0.029828442,0.00065546162,-0.0219593,-0.99931358,-0.029828442,0.00065546162
16.3729097,-0.017467223,0.0025424382,-0.14401456,-0.98941813,-0.017467223,0.0025424382
16.38461538,-0.0037721931,0.0010389277,-0.26552857,-0.96409505,-0.0037721931,0.0010389277
16.39632107,0.010122044,-0.0042165072,-0.38451368,-0.92305417,0.010122044,-0.0042165072
16.40802676,0.022917603,-0.013197294,-0.49885553,-0.86628158,0.022917603,-0.013197294
16.41973244,0.033273069,-0.025408057,-0.60637445,-0.79407642,0.033273069,-0.025408057
16.43143813,0.039958377,-0.039836431,-0.70490058,-0.70705839,0.039958377,-0.039836431
16.44314381,0.042036072,-0.054949755,-0.7923454,-0.60613716,0.042036072,-0.054949755
16.4548495,0.039057454,-0.068744771,-0.86674591,-0.4924431,0.039057454,-0.068744771
16.46655518,0.031263338,-0.078854165,-0.92625336,-0.36723199,0.031263338,-0.078854165
16.47826087,0.019785029,-0.082713538,-0.96904007,-0.23179381,0.019785029,-0.082713538
16.48996656,0.0068483986,-0.077801953,-0.99310538,-0.087416591,0.0068483986,-0.077801953
16.50167224,-0.0040157415,-0.061994317,-0.99598108,0.064515633,-0.0040157415,-0.061994317
16.51337793,-0.0077770272,-0.034106983,-0.97437869,0.22217649,-0.0077770272,-0.034106983
16.52508361,0.0021667441,0.0052329766,-0.92391625,0.38255285,0.0021667441,0.0052329766
16.5367893,0.033640891,0.052267305,-0.83925613,0.54017179,0.033640891,0.052267305
16.54849498,0.094314129,0.098427172,-0.71529161,0.68540123,0.094314129,0.098427172
17.5083612,-0.99696564,0.077837072,-7.3935397e-05,-0.00094699155,-0.99696564,0.077837072
17.52006689,-0.99623909,0.086642016,-7.8816564e-05,-0.00090625941,-0.99623909,0.086642016
17.53177258,-0.99544695,0.095313268,-8.3078189e-05,-0.0008676644,-0.99544695,0.095313268
17.54347826,-0.9945922,0.10385403,-8.6779976e-05,-0.00083107696,-0.9945922,0.10385403
17.55518395,-0.99367771,0.11226739,-8.9975948e-05,-0.00079637632,-0.99367771,0.11226739
17.56688963,-0.99270618,0.12055638,-9.2715005e-05,-0.00076344989,-0.99270618,0.12055638
17.57859532,-0.99168019,0.12872392,-9.5041434e-05,-0.00073219263,-0.99168019,0.12872392
17.590301,-0.99060218,0.13677285,-9.6995355e-05,-0.00070250648,-0.99060218,0.13677285
17.60200669,-0.98947447,0.14470592,-9.8613133e-05,-0.00067429986,-0.98947447,0.14470592
17.61371237,-0.98829927,0.1525258,-9.9927733e-05,-0.00064748721,-0.98829927,0.1525258
17.62541806,-0.98707868,0.16023511,-0.00010096905,-0.00062198854,-0.98707868,0.16023511
17.63712375,-0.98581468,0.16783636,-0.00010176422,-0.00059772904,-0.98581468,0.16783636
17.64882943,-0.98450919,0.175332,-0.00010233784,-0.00057463868,-0.98450919,0.175332
17.66053512,-0.98316401,0.18272441,-0.00010271226,-0.00055265193,-0.98316401,0.18272441
17.6722408,-0.98178086,0.19001592,-0.00010290776,-0.00053170738,-0.98178086,0.19001592
