freq,s11_real,s11_imag,s21_real,s21_imag,s22_real,s22_imag
14.85117057,0.20909018,0.97789618,0.00058384967,-0.0001248366,0.20909018,0.97789618
14.86287625,0.2241038,0.97456506,0.00063781227,-0.00014666661,0.2241038,0.97456506
14.87458194,0.23943569,0.97091196,0.00069728543,-0.00017195691,0.23943569,0.97091196
14.88628763,0.25509432,0.96691585,0.00076288144,-0.00020126542,0.25509432,0.96691585
14.89799331,0.27108826,0.9625541,0.00083528505,-0.00023524493,0.27108826,0.9625541
14.909699,0.28742616,0.95780232,0.00091526229,-0.00027466035,0.28742616,0.95780232
14.92140468,0.3041167,0.9526342,0.0010036703,-0.00032040934,0.3041167,0.9526342
14.93311037,0.32116858,0.94702133,0.0011014681,-0.00037354697,0.32116858,0.94702133
14.94481605,0.33859042,0.94093298,0.001209729,-0.00043531542,0.33859042,0.94093298
14.95652174,0.35639071,0.93433593,0.0013296535,-0.00050717962,0.35639071,0.93433593
14.96822742,0.37457776,0.92719416,0.001462584,-0.00059087025,0.37457776,0.92719416
14.97993311,0.39315956,0.91946859,0.0016100206,-0.00068843569,0.39315956,0.91946859
14.9916388,0.41214367,0.91111679,0.0017736377,-0.000802305,0.41214367,0.91111679
15.55351171,0.020406997,-0.035599948,0.86683798,0.49689849,0.020406997,-0.035599948
15.56521739,0.008786355,-0.023933902,0.93843682,0.34450877,0.008786355,-0.023933902
15.57692308,0.0016203961,-0.0085222314,0.9823627,0.18678402,0.0016203961,-0.0085222314
15.58862876,-0.00022262489,0.0078648858,0.99956868,0.028293974,-0.00022262489,0.0078648858
15.60033445,0.0029159503,0.02278824,0.99165068,-0.12689019,0.0029159503,0.02278824
15.61204013,0.0098717387,0.034447047,0.96068714,-0.27531104,0.0098717387,0.034447047
15.62374582,0.019043982,0.041800868,0.90904811,-0.4141516,0.019043982,0.041800868
15.63545151,0.028728684,0.044550146,0.83922969,-0.5411871,0.028728684,0.044550146
15.64715719,0.037371665,0.043025441,0.75374125,-0.65469557,0.037371665,0.043025441
15.65886288,0.043737029,0.038029395,0.65504818,-0.75336095,0.043737029,0.038029395
15.67056856,0.046999516,0.03066388,0.545557,-0.83619276,0.046999516,0.03066388
15.68227425,0.04677428,0.022163329,0.42762427,-0.90247351,0.04677428,0.022163329
15.69397993,0.043097838,0.013746759,0.30357118,-0.95173428,0.043097838,0.013746759
15.70568562,0.036372427,0.0064958388,0.1756906,-0.98375183,0.036372427,0.0064958388
15.7173913,0.027284641,0.0012634554,0.046239643,-0.99855688,0.027284641,0.0012634554
15.72909699,0.016708498,-0.0013847703,-0.082583415,-0.99644312,0.016708498,-0.0013847703
15.74080268,0.0056028728,-0.0011955155,-0.20867444,-0.97796838,0.0056028728,-0.0011955155
15.75250836,-0.0050872032,0.00177882,-0.3300644,-0.94394303,-0.0050872032,0.00177882
15.76421405,-0.014516951,0.0072139972,-0.44495876,-0.89540433,-0.014516951,0.0072139972
15.77591973,-0.022009508,0.014568702,-0.55176909,-0.83357916,-0.022009508,0.014568702
15.78762542,-0.027101019,0.02315246,-0.64913267,-0.75983964,-0.027101019,0.02315246
15.7993311,-0.029562114,0.032198745,-0.73591884,-0.6756573,-0.029562114,0.032198745
15.81103679,-0.029397303,0.04093611,-0.81122313,-0.58256078,-0.029397303,0.04093611
15.82274247,-0.026825605,0.048651695,-0.87435235,-0.482101,-0.026825605,0.048651695
15.83444816,-0.022246776,0.054743252,-0.92480449,-0.37582565,-0.022246776,0.054743252
15.84615385,-0.016197728,0.058757627,-0.96224773,-0.26526305,-0.016197728,0.058757627
15.85785953,-0.0093034667,0.060415001,-0.9865017,-0.15191402,-0.0093034667,0.060415001
15.86956522,-0.0022262802,0.059619245,-0.99752348,-0.03724916,-0.0022262802,0.059619245
15.8812709,0.0043836749,0.056455339,-0.99539923,0.077291301,0.0043836749,0.056455339
15.89297659,0.0099338218,0.051175197,-0.98034132,0.19029797,0.0099338218,0.051175197
15.90468227,0.013928464,0.04417346,-0.95268953,0.30039535,0.013928464,0.04417346
15.91638796,0.016000105,0.035955097,-0.91291449,0.40624914,0.016000105,0.035955097
15.92809365,0.015931254,0.027096911,-0.8616209,0.5065781,0.015931254,0.027096911
15.93979933,0.01366563,0.018205388,-0.79954833,0.60017021,0.01366563,0.018205388
15.95150502,0.0093081652,0.0098736004,-0.72756763,0.68590175,0.0093081652,0.0098736004
15.9632107,0.0031139576,0.0026400397,-0.64667206,0.76275722,0.0031139576,0.0026400397
15.97491639,-0.0045329288,-0.0030477927,-0.55796264,0.82984809,-0.0045329288,-0.0030477927
15.98662207,-0.013149119,-0.0068625521,-0.46262864,0.88642809,-0.013149119,-0.0068625521
15.99832776,-0.022187688,-0.0086170605,-0.36192454,0.93190347,-0.022187688,-0.0086170605
16.01003344,-0.031077256,-0.0082740394,-0.25714551,0.96583742,-0.031077256,-0.0082740394
16.02173913,-0.039261502,-0.0059453109,-0.14960355,0.98794836,-0.039261502,-0.0059453109
16.03344482,-0.046236361,-0.0018810491,-0.040606156,0.9981031,-0.046236361,-0.0018810491
16.0451505,-0.051582559,0.0035496587,0.068560906,0.9963062,-0.051582559,0.0035496587
16.05685619,-0.054991708,0.0098852046,0.176646,0.98268733,-0.054991708,0.0098852046
16.06856187,-0.056284774,0.016602837,0.28243922,0.95748862,-0.056284774,0.016602837
16.08026756,-0.055422303,0.023153007,0.38477582,0.92105368,-0.055422303,0.023153007
16.09197324,-0.052506211,0.028994749,0.4825368,0.87381957,-0.052506211,0.028994749
16.10367893,-0.047773311,0.033630322,0.57464829,0.81631247,-0.047773311,0.033630322
16.11538462,-0.04158097,0.036637435,0.66008141,0.74914702,-0.04158097,0.036637435
16.1270903,-0.034385527,0.037697522,0.73785435,0.6730286,-0.034385527,0.037697522
16.13879599,-0.026714283,0.036618536,0.80703782,0.58875749,-0.026714283,0.036618536
16.15050167,-0.019132214,0.033350818,0.86676469,0.49723299,-0.019132214,0.033350818
16.16220736,-0.012204878,0.02799469,0.91624363,0.39945582,-0.012204878,0.02799469
16.17391304,-0.0064594863,0.020798667,0.95477616,0.29652686,-0.0064594863,0.020798667
16.18561873,-0.0023464483,0.012147621,0.98177557,0.18964088,-0.0023464483,0.012147621
16.19732441,-0.00020411286,0.002540844,0.99678562,0.080074482,-0.00020411286,0.002540844
16.2090301,-0.00022947964,-0.0074392374,0.99949688,-0.03083168,-0.00022947964,-0.0074392374
16.22073579,-0.0024575205,-0.017166068,0.98975842,-0.14169532,-0.0024575205,-0.017166068
16.23244147,-0.0067512443,-0.026013262,0.96758339,-0.25111775,-0.0067512443,-0.026013262
16.24414716,-0.012803866,-0.033401138,0.93314762,-0.3577093,-0.012803866,-0.033401138
16.25585284,-0.020153491,-0.038842128,0.88678164,-0.46011243,-0.020153491,-0.038842128
16.26755853,-0.028209736,-0.041981751,0.8289575,-0.55701993,-0.028209736,-0.041981751
16.27926421,-0.03629089,-0.042632183,0.7602729,-0.64718667,-0.03629089,-0.042632183
16.2909699,-0.043669566,-0.040796006,0.68143564,-0.72943412,-0.043669566,-0.040796006
16.30267559,-0.049624493,-0.036678315,0.59325141,-0.80264866,-0.049624493,-0.036678315
16.31438127,-0.053495935,-0.030685834,0.49661796,-0.86577547,-0.053495935,-0.030685834
16.32608696,-0.054742142,-0.023411982,0.39252724,-0.91781128,-0.054742142,-0.023411982
16.33779264,-0.05299403,-0.015606962,0.28207612,-0.95780015,-0.05299403,-0.015606962
16.34949833,-0.048104782,-0.0081320057,0.16648439,-0.98483641,-0.048104782,-0.0081320057
16.36120401,-0.040190154,-0.001897272,0.047116686,-0.99807874,-0.040190154,-0.001897272
16.3729097,-0.02965417,0.0022162839,-0.074496861,-0.99677778,-0.02965417,0.0022162839
16.38461538,-0.017193747,0.0034489994,-0.19664789,-0.98031734,-0.017193747,0.0034489994
16.39632107,-0.0037752982,0.0012638607,-0.31745205,-0.94826597,-0.0037752982,0.0012638607
16.40802676,0.0094229546,-0.0045509056,-0.43487196,-0.90043149,0.0094229546,-0.0045509056
16.41973244,0.021106808,-0.013789353,-0.54676283,-0.83690786,0.021106808,-0.013789353
16.43143813,0.029999764,-0.025759018,-0.65093675,-0.75810147,0.029999764,-0.025759018
16.44314381,0.035009288,-0.039249441,-0.74523395,-0.66472565,0.035009288,-0.039249441
16.4548495,0.035416096,-0.052549176,-0.8275813,-0.55775754,0.035416096,-0.052549176
16.46655518,0.031075555,-0.06351846,-0.89601249,-0.4383621,0.031075555,-0.06351846
16.47826087,0.022623066,-0.069722267,-0.94862223,-0.30780329,0.022623066,-0.069722267
16.48996656,0.011681325,-0.068632315,-0.98343103,-0.16738146,0.011681325,-0.068632315
16.50167224,0.0010712784,-0.057922615,-0.9981498,-0.018460774,0.0010712784,-0.057922615
16.51337793,-0.0049824049,-0.03591582,-0.98986308,0.13731828,-0.0049824049,-0.03591582
16.52508361,-0.00071154238,-0.0022833525,-0.95471565,0.29751019,-0.00071154238,-0.0022833525
16.5367893,0.021077742,0.04086997,-0.88782608,0.45787577,0.021077742,0.04086997
16.54849498,0.068189192,0.087499707,-0.78389877,0.61089832,0.068189192,0.087499707
17.5083612,-0.99746272,0.071184206,-6.8991135e-05,-0.00096673249,-0.99746272,0.071184206
17.52006689,-0.99678809,0.080078974,-7.4304028e-05,-0.00092490409,-0.99678809,0.080078974
17.53177258,-0.99604571,0.088837805,-7.8958668e-05,-0.00088528123,-0.99604571,0.088837805
17.54347826,-0.99523869,0.097463966,-8.3018369e-05,-0.00084772964,-0.99523869,0.097463966
17.55518395,-0.99436999,0.10596062,-8.6540406e-05,-0.00081212417,-0.99436999,0.10596062
17.56688963,-0.99344242,0.11433085,-8.9576616e-05,-0.00077834818,-0.99344242,0.11433085
17.57859532,-0.99245864,0.12257764,-9.2173935e-05,-0.0007462929,-0.99245864,0.12257764
17.590301,-0.99142119,0.13070387,-9.4374878e-05,-0.00071585679,-0.99142119,0.13070387
17.60200669,-0.99033247,0.13871237,-9.6217972e-05,-0.00068694508,-0.99033247,0.13871237
17.61371237,-0.98919476,0.14660587,-9.7738141e-05,-0.00065946922,-0.98919476,0.14660587
17.62541806,-0.98801024,0.15438701,-9.8967057e-05,-0.00063334646,-0.98801024,0.15438701
17.63712375,-0.98678098,0.16205838,-9.9933449e-05,-0.00060849942,-0.98678098,0.16205838
17.64882943,-0.98550894,0.16962246,-0.00010066338,-0.0005848557,-0.98550894,0.16962246
17.66053512,-0.98419599,0.1770817,-0.00010118052,-0.00056234756,-0.98419599,0.1770817
17.6722408,-0.98284391,0.18443846,-0.00010150634,-0.00054091153,-0.98284391,0.18443846
