freq,s11_real,s11_imag,s21_real,s21_imag,s22_real,s22_imag
14.85117057,0.18292432,0.98312685,0.00052196579,-9.7118938e-05,0.18292432,0.98312685
14.86287625,0.19746581,0.9803096,0.00056980865,-0.00011477775,0.19746581,0.9803096
14.87458194,0.21231538,0.97720099,0.00062250548,-0.00013525108,0.21231538,0.97720099
14.88628763,0.22748152,0.97378215,0.00068059394,-0.00015899094,0.22748152,0.97378215
14.89799331,0.24297285,0.97003279,0.00074467555,-0.00018652559,0.24297285,0.97003279
14.909699,0.25879817,0.96593105,0.00081542353,-0.00021847327,0.25879817,0.96593105
14.92140468,0.27496636,0.9614534,0.00089359172,-0.00025555857,0.27496636,0.9614534
14.93311037,0.2914864,0.95657442,0.00098002443,-0.00029863206,0.2914864,0.95657442
14.94481605,0.30836731,0.95126669,0.0010756676,-0.00034869371,0.30836731,0.95126669
14.95652174,0.32561812,0.94550054,0.0011815809,-0.00040692113,0.32561812,0.94550054
14.96822742,0.34324779,0.93924387,0.0012989516,-0.00047470343,0.34324779,0.93924387
14.97993311,0.36126515,0.93246187,0.0014291096,-0.00055368215,0.36126515,0.93246187
14.9916388,0.37967881,0.92511681,0.0015735434,-0.00064580072,0.37967881,0.92511681
15.55351171,0.04261705,-0.047515644,0.74292052,0.66632961,0.04261705,-0.047515644
15.56521739,0.026483497,-0.042584865,0.84811114,0.52743971,0.026483497,-0.042584865
15.57692308,0.012434313,-0.030519648,0.92558528,0.37710188,0.012434313,-0.030519648
15.58862876,0.0031644918,-0.014011165,0.97533019,0.22028321,0.0031644918,-0.014011165
15.60033445,-0.00024538614,0.0039699462,0.99808726,0.061692721,-0.00024538614,0.0039699462
15.61204013,0.0019679453,0.020743206,0.99531369,-0.094427202,0.0019679453,0.020743206
15.62374582,0.0086454313,0.034270964,0.96901726,-0.24445102,0.0086454313,0.034270964
15.63545151,0.01811433,0.043311772,0.92154645,-0.38541939,0.01811433,0.043311772
15.64715719,0.028547913,0.047417439,0.85540195,-0.51499914,0.028547913,0.047417439
15.65886288,0.038243236,0.046826851,0.77310469,-0.63139041,0.038243236,0.046826851
15.67056856,0.045809505,0.042304929,0.67712636,-0.73322007,0.045809505,0.042304929
15.68227425,0.050275161,0.034962856,0.56987006,-0.81944989,0.050275161,0.034962856
15.69397993,0.051128101,0.026082828,0.45368057,-0.88931409,0.051128101,0.026082828
15.70568562,0.048303826,0.016960837,0.33086417,-0.94228869,0.048303826,0.016960837
15.7173913,0.042134392,0.0087751713,0.20370238,-0.97808641,0.042134392,0.0087751713
15.72909699,0.033269215,0.002485199,0.074450647,-0.99666649,0.033269215,0.002485199
15.74080268,0.022577812,-0.0012367344,-0.054680561,-0.99824784,0.022577812,-0.0012367344
15.75250836,0.011044405,-0.0020392395,-0.18155949,-0.98331583,0.011044405,-0.0020392395
15.76421405,-0.00033588841,0.00010725089,-0.30417518,-0.95261605,-0.00033588841,0.00010725089
15.77591973,-0.010650279,0.004939036,-0.4206803,-0.90713299,-0.010650279,0.004939036
15.78762542,-0.019143663,0.011951084,-0.52942729,-0.84805509,-0.019143663,0.011951084
15.7993311,-0.025271374,0.020464645,-0.62899295,-0.7767306,-0.025271374,0.020464645
15.81103679,-0.028727505,0.029702248,-0.718189,-0.69462009,-0.028727505,0.029702248
15.82274247,-0.029449768,0.038862346,-0.79605925,-0.60325128,-0.029449768,0.038862346
15.83444816,-0.027603964,0.047187285,-0.86186609,-0.50418075,-0.027603964,0.047187285
15.84615385,-0.023552461,0.054020176,-0.91507048,-0.39896505,-0.023552461,0.054020176
15.85785953,-0.01781145,0.058848096,-0.9553097,-0.2891419,-0.01781145,0.058848096
15.86956522,-0.011001595,0.061330692,-0.98237668,-0.17622025,-0.011001595,0.061330692
15.8812709,-0.0037960921,0.061314349,-0.99620384,-0.061676941,-0.0037960921,0.061314349
15.89297659,0.0031305338,0.058832874,-0.99685271,0.053043151,0.0031305338,0.058832874
15.90468227,0.0091501552,0.054095998,-0.98450944,0.16652645,0.0091501552,0.054095998
15.91638796,0.01372303,0.047467264,-0.95948535,0.27739214,0.01372303,0.047467264
15.92809365,0.016432135,0.039433095,-0.9222203,0.38429772,0.016432135,0.039433095
15.93979933,0.01700824,0.030565063,-0.87328677,0.48594929,0.01700824,0.030565063
15.95150502,0.015344461,0.021477725,-0.81339211,0.58111662,0.015344461,0.021477725
15.9632107,0.011499553,0.012784682,-0.7433768,0.66865182,0.011499553,0.012784682
15.97491639,0.0056898314,0.0050557589,-0.66420742,0.74750958,0.0056898314,0.0050557589
15.98662207,-0.0017296003,-0.0012217887,-0.57696375,0.81676701,-0.0017296003,-0.0012217887
15.99832776,-0.010292811,-0.0056753642,-0.48282037,0.87564053,-0.010292811,-0.0056753642
16.01003344,-0.019457983,-0.0080702687,-0.38302418,0.9234981,-0.019457983,-0.0080702687
16.02173913,-0.028646584,-0.0083226878,-0.27886959,0.95986554,-0.028646584,-0.0083226878
16.03344482,-0.037283808,-0.0065019108,-0.17167383,0.9844266,-0.037283808,-0.0065019108
16.0451505,-0.044837389,-0.0028221505,-0.062754166,0.99701733,-0.044837389,-0.0028221505
16.05685619,-0.050852257,0.0023749144,0.046590904,0.99761601,-0.050852257,0.0023749144
16.06856187,-0.05497906,0.0086451969,0.1550958,0.9863305,-0.05497906,0.0086451969
16.08026756,-0.056995173,0.015472879,0.26153687,0.96338497,-0.056995173,0.015472879
16.09197324,-0.056817423,0.022304633,0.36473685,0.9291078,-0.056817423,0.022304633
16.10367893,-0.054506277,0.028585381,0.46356595,0.88392225,-0.054506277,0.028585381
16.11538462,-0.05026157,0.033793741,0.55694108,0.82834075,-0.05026157,0.033793741
16.1270903,-0.044410178,0.037475455,0.64382509,0.76296302,-0.044410178,0.037475455
16.13879599,-0.037386191,0.039273214,0.72322775,0.68847768,-0.037386191,0.039273214
16.15050167,-0.029704395,0.038951372,0.79420977,0.60566598,-0.029704395,0.038951372
16.16220736,-0.021928087,0.036414085,0.855891,0.51540641,-0.021928087,0.036414085
16.17391304,-0.014632636,0.031715482,0.90746283,0.41867795,-0.014632636,0.031715482
16.18561873,-0.0083665754,0.025060697,0.94820436,0.31656036,-0.0083665754,0.025060697
16.19732441,-0.0036124886,0.016796921,0.97750105,0.21022968,-0.0036124886,0.016796921
16.2090301,-0.00075028799,0.0073942396,0.99486393,0.1009481,-0.00075028799,0.0073942396
16.22073579,-2.5710258e-05,-0.0025832497,0.99994714,-0.0099521537,-2.5710258e-05,-0.0025832497
16.23244147,-0.0015267578,-0.01251466,0.99256146,-0.12109006,-0.0015267578,-0.01251466
16.24414716,-0.0051704275,-0.021765645,0.97268214,-0.23106057,-0.0051704275,-0.021765645
16.25585284,-0.010701358,-0.029734901,0.94044979,-0.33846051,-0.010701358,-0.029734901
16.26755853,-0.017703102,-0.035900486,0.89616444,-0.44191295,-0.017703102,-0.035900486
16.27926421,-0.025621719,-0.039862539,0.84027377,-0.54008748,-0.025621719,-0.039862539
16.2909699,-0.033800473,-0.041379243,0.77335782,-0.63171431,-0.033800473,-0.041379243
16.30267559,-0.041523686,-0.040393399,0.69611282,-0.71559143,-0.041523686,-0.040393399
16.31438127,-0.048067389,-0.037047595,0.60933769,-0.79058497,-0.048067389,-0.037047595
16.32608696,-0.052754179,-0.03168648,0.51392572,-0.85562452,-0.052754179,-0.03168648
16.33779264,-0.05500962,-0.02484507,0.41086395,-0.90969637,-0.05500962,-0.02484507
16.34949833,-0.05441735,-0.017222181,0.30124088,-0.95183826,-0.05441735,-0.017222181
16.36120401,-0.050769666,-0.0096382301,0.1862619,-0.98114018,-0.050769666,-0.0096382301
16.3729097,-0.044109624,-0.0029768947,0.067269544,-0.99675488,-0.044109624,-0.0029768947
16.38461538,-0.034759622,0.0018891468,-0.054235907,-0.99792117,-0.034759622,0.0018891468
16.39632107,-0.023330397,0.0041867071,-0.17658174,-0.98400054,-0.023330397,0.0041867071
16.40802676,-0.010703668,0.0033407684,-0.29792087,-0.95452471,-0.010703668,0.0033407684
16.41973244,0.0020179644,-0.00092381248,-0.41624857,-0.90924815,0.0020179644,-0.00092381248
16.43143813,0.013598344,-0.0084880352,-0.52944051,-0.8481956,0.013598344,-0.0084880352
16.44314381,0.022793202,-0.018764907,-0.63530978,-0.77169283,0.022793202,-0.018764907
16.4548495,0.028509929,-0.030659734,-0.73167272,-0.68036916,0.028509929,-0.030659734
16.46655518,0.029993532,-0.042576649,-0.81640599,-0.5751251,0.029993532,-0.042576649
16.47826087,0.027028565,-0.052480284,-0.88747063,-0.45706799,0.027028565,-0.052480284
16.48996656,0.020148346,-0.058019193,-0.94287617,-0.32743296,0.020148346,-0.058019193
16.50167224,0.010847462,-0.056720799,-0.9805607,-0.18752548,0.010847462,-0.056720799
16.51337793,0.0017965219,-0.046281712,-0.99817509,-0.038746264,0.0017965219,-0.046281712
16.52508361,-0.0029523434,-0.025006789,-0.99278785,0.1172102,-0.0029523434,-0.025006789
16.5367893,0.0021717476,0.0075080031,-0.96059032,0.27785814,0.0021717476,0.0075080031
16.54849498,0.024146279,0.049328775,-0.89681317,0.4389872,0.024146279,0.049328775
17.5083612,-0.99821325,0.059743501,-6.0413411e-05,-0.0010094063,-0.99821325,0.059743501
17.52006689,-0.99762984,0.068802423,-6.6564751e-05,-0.00096518376,-0.99762984,0.068802423
17.53177258,-0.99697471,0.077721125,-7.1979072e-05,-0.000923318,-0.99697471,0.077721125
17.54347826,-0.9962512,0.086503001,-7.6727237e-05,-0.00088366416,-0.9962512,0.086503001
17.55518395,-0.99546245,0.095151345,-8.0873313e-05,-0.00084608732,-0.99546245,0.095151345
17.56688963,-0.99461148,0.10366936,-8.4475251e-05,-0.00081046182,-0.99461148,0.10366936
17.57859532,-0.99370112,0.11206013,-8.7585492e-05,-0.00077667051,-0.99370112,0.11206013
17.590301,-0.99273407,0.12032669,-9.0251514e-05,-0.00074460413,-0.99273407,0.12032669
17.60200669,-0.99171288,0.12847196,-9.2516322e-05,-0.00071416074,-0.99171288,0.12847196
17.61371237,-0.99064,0.13649876,-9.4418881e-05,-0.00068524518,-0.99064,0.13649876
17.62541806,-0.98951773,0.14440987,-9.599451e-05,-0.00065776855,-0.98951773,0.14440987
17.63712375,-0.98834828,0.15220795,-9.7275236e-05,-0.00063164778,-0.98834828,0.15220795
17.64882943,-0.98713374,0.1598956,-9.8290108e-05,-0.00060680521,-0.98713374,0.1598956
17.66053512,-0.98587609,0.16747534,-9.9065482e-05,-0.00058316817,-0.98587609,0.16747534
17.6722408,-0.98457722,0.17494964,-9.9625278e-05,-0.00056066866,-0.98457722,0.17494964
