freq,s11_real,s11_imag,s21_real,s21_imag,s22_real,s22_imag
14.85117057,0.18282932,0.98314452,0.00053891453,-0.00010021861,0.18282932,0.98314452
14.86287625,0.19744764,0.98031325,0.00058857685,-0.00011854692,0.19744764,0.98031325
14.87458194,0.21237821,0.97718732,0.00064330687,-0.00013981389,0.21237821,0.97718732
14.88628763,0.22762973,0.9737475,0.00070366938,-0.00016449446,0.22762973,0.9737475
14.89799331,0.24321106,0.96997307,0.00077029669,-0.0001931442,0.24321106,0.96997307
14.909699,0.25913121,0.96584173,0.00084389702,-0.00022641397,0.25913121,0.96584173
14.92140468,0.27539934,0.96132943,0.00092526391,-0.00026506737,0.27539934,0.96132943
14.93311037,0.29202465,0.9564102,0.0010152868,-0.0003100017,0.29202465,0.9564102
14.94481605,0.30901645,0.95105597,0.001114963,-0.00036227301,0.30901645,0.95105597
14.95652174,0.32638401,0.94523637,0.0012254105,-0.0004231263,0.32638401,0.94523637
14.96822742,0.34413657,0.93891851,0.0013478827,-0.00049403192,0.34413657,0.93891851
14.97993311,0.36228324,0.93206669,0.0014837845,-0.0005767294,0.36228324,0.93206669
14.9916388,0.38083292,0.92464218,0.00163469,-0.00067328074,0.38083292,0.92464218
15.55351171,0.03585143,-0.046009238,0.7874567,0.61360392,0.03585143,-0.046009238
15.56521739,0.019827553,-0.037219405,0.88179216,0.46974905,0.019827553,-0.037219405
15.57692308,0.0074588503,-0.022357665,0.94833963,0.31638023,0.0074588503,-0.022357665
15.58862876,0.00070276988,-0.0043802252,0.98736282,0.15841397,0.00070276988,-0.0043802252
15.60033445,-5.7275878e-06,0.013759995,0.99990524,0.00041620983,-5.7275878e-06,0.013759995
15.61204013,0.004602427,0.029594857,0.98767935,-0.15359838,0.004602427,0.029594857
15.62374582,0.013048137,0.041405518,0.95286381,-0.30027635,0.013048137,0.041405518
15.63545151,0.023504006,0.048300633,0.89789002,-0.43693035,0.023504006,0.048300633
15.64715719,0.034125382,0.050159192,0.82527227,-0.561467,0.034125382,0.050159192
15.65886288,0.043291721,0.047491818,0.73750299,-0.67227947,0.043291721,0.047491818
15.67056856,0.049759425,0.041264794,0.63700879,-0.76814127,0.049759425,0.041264794
15.68227425,0.052738572,0.032717316,0.52614921,-0.84812453,0.052738572,0.032717316
15.69397993,0.051908961,0.023190362,0.40723626,-0.91155159,0.051908961,0.023190362
15.70568562,0.047389603,0.013977561,0.28255546,-0.95797769,0.047389603,0.013977561
15.7173913,0.039673561,0.006204055,0.1543753,-0.98719592,0.039673561,0.006204055
15.72909699,0.029538509,0.00073719796,0.02493852,-0.99925222,0.029538509,0.00073719796
15.74080268,0.017942945,-0.0018686048,-0.10356444,-0.99445913,0.017942945,-0.0018686048
15.75250836,0.0059180058,-0.0013924732,-0.22903529,-0.97339913,0.0059180058,-0.0013924732
15.76421405,-0.0055353378,0.0020649453,-0.34951321,-0.93691281,-0.0055353378,0.0020649453
15.77591973,-0.015535049,0.0081213664,-0.46321764,-0.88607117,-0.015535049,0.0081213664
15.78762542,-0.023386183,0.016173683,-0.56858168,-0.82213525,-0.023386183,0.016173683
15.7993311,-0.02862474,0.025471388,-0.66427177,-0.74650844,-0.02862474,0.025471388
15.81103679,-0.031036542,0.035194161,-0.74919275,-0.66068777,-0.031036542,0.035194161
15.82274247,-0.030653156,0.04452617,-0.82247974,-0.56621982,-0.030653156,0.04452617
15.83444816,-0.027728718,0.052721372,-0.88348056,-0.46466512,-0.027728718,0.052721372
15.84615385,-0.022702456,0.059156118,-0.93173317,-0.35757301,-0.022702456,0.059156118
15.85785953,-0.016151846,0.063367219,-0.96694255,-0.24646667,-0.016151846,0.063367219
15.86956522,-0.0087408584,0.065075113,-0.98896068,-0.13283673,-0.0087408584,0.065075113
15.8812709,-0.0011670821,0.064192738,-0.99777195,-0.018140397,-0.0011670821,0.064192738
15.89297659,0.0058891851,0.060821272,-0.9934849,0.096196879,0.0058891851,0.060821272
15.90468227,0.011811395,0.055234206,-0.97633007,0.20878041,0.011811395,0.055234206
15.91638796,0.016086658,0.047851404,-0.94666226,0.31824839,0.016086658,0.047851404
15.92809365,0.018337321,0.039204993,-0.90496514,0.42327865,0.018337321,0.039204993
15.93979933,0.018342716,0.029899211,-0.85185571,0.52260064,0.018342716,0.029899211
15.95150502,0.016049974,0.020566684,-0.788086,0.61501209,0.016049974,0.020566684
15.9632107,0.011573334,0.011823886,-0.71454013,0.69939878,0.011573334,0.011823886
15.97491639,0.0051820737,0.0042287403,-0.63222561,0.77475548,0.0051820737,0.0042287403
15.98662207,-0.002721968,-0.0017567254,-0.54225849,0.84020547,-0.002721968,-0.0017567254
15.99832776,-0.011635517,-0.0057961131,-0.44584332,0.89501662,-0.011635517,-0.0057961131
16.01003344,-0.020991167,-0.0076988082,-0.34424928,0.93861203,-0.020991167,-0.0076988082
16.02173913,-0.030197956,-0.007429428,-0.2387848,0.97057442,-0.030197956,-0.007429428
16.03344482,-0.038682188,-0.0051063538,-0.13077286,0.99064427,-0.038682188,-0.0051063538
16.0451505,-0.045925635,-0.00099000844,-0.021529014,0.99871235,-0.045925635,-0.00099000844
16.05685619,-0.051498743,0.0045377452,0.087656253,0.99480836,-0.051498743,0.0045377452
16.06856187,-0.055087006,0.011001231,0.1955301,0.97908752,-0.055087006,0.011001231
16.08026756,-0.056509376,0.017863525,0.30088476,0.95181718,-0.056509376,0.017863525
16.09197324,-0.055728117,0.024561863,0.40256071,0.91336519,-0.055728117,0.024561863
16.10367893,-0.052849994,0.030543876,0.49944674,0.86419147,-0.052849994,0.030543876
16.11538462,-0.048119049,0.035302866,0.59047885,0.80484346,-0.048119049,0.035302866
16.1270903,-0.041901412,0.038410421,0.67463965,0.73595533,-0.041901412,0.038410421
16.13879599,-0.034662847,0.039544842,0.75096003,0.65825051,-0.034662847,0.039544842
16.15050167,-0.026939897,0.038513879,0.81852437,0.57254587,-0.026939897,0.038513879
16.16220736,-0.01930581,0.035270323,0.87648004,0.47975622,-0.01930581,0.035270323
16.17391304,-0.012332771,0.029919154,0.92405107,0.3808968,-0.012332771,0.029919154
16.18561873,-0.0065524172,0.022715133,0.96055533,0.27708222,-0.0065524172,0.022715133
16.19732441,-0.0024170264,0.014050218,0.9854236,0.16952013,-0.0024170264,0.014050218
16.2090301,-0.00026409801,0.0044307788,0.99821849,0.059499138,-0.00026409801,0.0044307788
16.22073579,-0.00028716622,-0.0055545799,0.99865083,-0.051629249,-0.00028716622,-0.0055545799
16.23244147,-0.0025154901,-0.015274889,0.9865915,-0.16247327,-0.0025154901,-0.015274889
16.24414716,-0.0068047624,-0.024101869,0.96207686,-0.27162642,-0.0068047624,-0.024101869
16.25585284,-0.012840172,-0.031457031,0.92530724,-0.37769312,-0.012840172,-0.031457031
16.26755853,-0.02015218,-0.036857374,0.87663872,-0.47931199,-0.02015218,-0.036857374
16.27926421,-0.028144362,-0.039956314,0.81656977,-0.57517406,-0.028144362,-0.039956314
16.2909699,-0.03613181,-0.040576813,0.74572528,-0.66403451,-0.03613181,-0.040576813
16.30267559,-0.043387961,-0.03873429,0.66484091,-0.7447172,-0.043387961,-0.03873429
16.31438127,-0.049197373,-0.034647469,0.57475115,-0.81611291,-0.049197373,-0.034647469
16.32608696,-0.052911823,-0.028735851,0.47638361,-0.87717344,-0.052911823,-0.028735851
16.33779264,-0.054007012,-0.02160278,0.37076149,-0.92690479,-0.054007012,-0.02160278
16.34949833,-0.052136916,-0.014003241,0.25901448,-0.9643636,-0.052136916,-0.014003241
16.36120401,-0.047182324,-0.0067956575,0.1423966,-0.98866114,-0.047182324,-0.0067956575
16.3729097,-0.039289186,-0.00087734034,0.022307515,-0.99897846,-0.039289186,-0.00087734034
16.38461538,-0.028891325,0.0028957711,-0.099688035,-0.99459499,-0.028891325,0.0028957711
16.39632107,-0.01671099,0.0038026534,-0.22184935,-0.97493033,-0.01671099,0.0038026534
16.40802676,-0.003730417,0.0013588707,-0.3422643,-0.93959533,-0.003730417,0.0013588707
16.41973244,0.008871593,-0.0045821048,-0.45887452,-0.88844497,0.008871593,-0.0045821048
16.43143813,0.019821444,-0.013739596,-0.5695223,-0.82162198,0.019821444,-0.013739596
16.44314381,0.027890017,-0.025342118,-0.67201433,-0.7395787,0.027890017,-0.025342118
16.4548495,0.032063714,-0.038102953,-0.76418922,-0.64306681,0.032063714,-0.038102953
16.46655518,0.03173767,-0.050245845,-0.8439683,-0.5330906,0.03173767,-0.050245845
16.47826087,0.02692068,-0.059588167,-0.90936359,-0.41083134,0.02692068,-0.059588167
16.48996656,0.018444498,-0.063687601,-0.95841584,-0.27756579,0.018444498,-0.063687601
16.50167224,0.0081756533,-0.060064406,-0.98904097,-0.13462309,0.0081756533,-0.060064406
16.51337793,-0.00077101191,-0.046530455,-0.99877947,0.016549824,-0.00077101191,-0.046530455
16.52508361,-0.0038362963,-0.021691656,-0.98447962,0.17411098,-0.0038362963,-0.021691656
16.5367893,0.0050761876,0.014265905,-0.94202607,0.33519786,0.0050761876,0.014265905
16.54849498,0.033347315,0.058387795,-0.86638771,0.49482438,0.033347315,0.058387795
17.5083612,-0.99784479,0.065610873,-6.5167338e-05,-0.00099109927,-0.99784479,0.065610873
17.52006689,-0.99721389,0.074589215,-7.0894302e-05,-0.00094781507,-0.99721389,0.074589215
17.53177258,-0.99651332,0.08342886,-7.5920682e-05,-0.00090683213,-0.99651332,0.08342886
17.54347826,-0.99574631,0.092133169,-8.0314074e-05,-0.00086800925,-0.99574631,0.092133169
17.55518395,-0.99491594,0.1007054,-8.4135585e-05,-0.00083121494,-0.99491594,0.1007054
17.56688963,-0.99402511,0.10914872,-8.7440489e-05,-0.00079632668,-0.99402511,0.10914872
17.57859532,-0.99307658,0.11746621,-9.0278803e-05,-0.00076323027,-0.99307658,0.11746621
17.590301,-0.99207299,0.12566083,-9.2695807e-05,-0.00073181919,-0.99207299,0.12566083
17.60200669,-0.99101681,0.13373548,-9.4732511e-05,-0.00070199404,-0.99101681,0.13373548
17.61371237,-0.98991042,0.14169298,-9.6426072e-05,-0.00067366199,-0.98991042,0.14169298
17.62541806,-0.98875606,0.14953604,-9.7810166e-05,-0.00064673637,-0.98875606,0.14953604
17.63712375,-0.98755587,0.15726731,-9.8915325e-05,-0.00062113613,-0.98755587,0.15726731
17.64882943,-0.98631188,0.16488937,-9.9769239e-05,-0.00059678551,-0.98631188,0.16488937
17.66053512,-0.98502603,0.1724047,-0.00010039703,-0.00057361361,-0.98502603,0.1724047
17.6722408,-0.98370015,0.17981574,-0.00010082148,-0.0005515541,-0.98370015,0.17981574
