freq,s11_real,s11_imag,s21_real,s21_imag,s22_real,s22_imag
14.85117057,0.34967629,0.93687049,0.00039134903,-0.00014606659,0.34967629,0.93687049
14.86287625,0.3666628,0.93035379,0.00042500245,-0.0001674982,0.3666628,0.93035379
14.87458194,0.38394881,0.92335424,0.00046172109,-0.00019199269,0.38394881,0.92335424
14.88628763,0.40153567,0.91584322,0.00050178707,-0.00021999989,0.40153567,0.91584322
14.89799331,0.41942396,0.90779027,0.00054550597,-0.00025203869,0.41942396,0.90779027
14.909699,0.43761333,0.89916302,0.00059320782,-0.0002887081,0.43761333,0.89916302
14.92140468,0.4561024,0.889927,0.00064524774,-0.0003307002,0.4561024,0.889927
14.93311037,0.47488855,0.88004559,0.00070200626,-0.0003788153,0.47488855,0.88004559
14.94481605,0.49396775,0.86947978,0.00076388895,-0.00043397962,0.49396775,0.86947978
14.95652174,0.51333437,0.85818814,0.00083132523,-0.00049726603,0.51333437,0.85818814
14.96822742,0.53298091,0.84612659,0.00090476597,-0.00056991825,0.53298091,0.84612659
14.97993311,0.55289775,0.83324827,0.00098467962,-0.00065337927,0.55289775,0.83324827
14.9916388,0.57307282,0.81950341,0.0010715462,-0.00074932453,0.57307282,0.81950341
15.55351171,0.032726035,-0.018990055,0.50153579,0.86430911,0.032726035,-0.018990055
15.56521739,0.12013079,-0.11822309,0.69139003,0.7025466,0.12013079,-0.11822309
15.57692308,0.14532006,-0.22798204,0.81185501,0.51749175,0.14532006,-0.22798204
15.58862876,0.1235824,-0.32506485,0.87638465,0.33318189,0.1235824,-0.32506485
15.60033445,0.071304099,-0.39971144,0.89966082,0.16048954,0.071304099,-0.39971144
15.61204013,0.0015242272,-0.44966594,0.89319038,0.0030276366,0.0015242272,-0.44966594
15.62374582,-0.076409227,-0.47610797,0.86499236,-0.13882019,-0.076409227,-0.47610797
15.63545151,-0.15602043,-0.48153778,0.82043646,-0.26582515,-0.15602043,-0.48153778
15.64715719,-0.23283998,-0.46882423,0.76311764,-0.37899981,-0.23283998,-0.46882423
15.65886288,-0.30375928,-0.44082401,0.69550214,-0.47925073,-0.30375928,-0.44082401
15.67056856,-0.36660049,-0.400254,0.6193525,-0.5672771,-0.36660049,-0.400254
15.68227425,-0.41984237,-0.34966709,0.53599465,-0.64356433,-0.41984237,-0.34966709
15.69397993,-0.46244864,-0.29146544,0.44648459,-0.70840713,-0.46244864,-0.29146544
15.70568562,-0.49376168,-0.22792387,0.35171507,-0.7619361,-0.49376168,-0.22792387
15.7173913,-0.51343855,-0.16121265,0.25248883,-0.80413974,-0.51343855,-0.16121265
15.72909699,-0.52141514,-0.093415218,0.14957494,-0.83488154,-0.52141514,-0.093415218
15.74080268,-0.51789008,-0.026538669,0.043757871,-0.85391499,-0.51789008,-0.026538669
15.75250836,-0.50332289,0.03748483,-0.064115343,-0.8609008,-0.50332289,0.03748483
15.76421405,-0.47844213,0.096808038,-0.17308797,-0.85543082,-0.47844213,0.096808038
15.77591973,-0.4442591,0.14969257,-0.28204751,-0.83706343,-0.4442591,0.14969257
15.78762542,-0.40208172,0.19454917,-0.38968407,-0.80537398,-0.40208172,0.19454917
15.7993311,-0.3535216,0.22999576,-0.4944592,-0.76002272,-0.3535216,0.22999576
15.81103679,-0.30048578,0.25493242,-0.59459326,-0.70083994,-0.30048578,0.25493242
15.82274247,-0.24514371,0.26862889,-0.68808025,-0.62792408,-0.24514371,0.26862889
15.83444816,-0.18986064,0.27081561,-0.77273889,-0.54174389,-0.18986064,0.27081561
15.84615385,-0.13709211,0.261764,-0.84630505,-0.44323033,-0.13709211,0.261764
15.85785953,-0.089240399,0.24233801,-0.90656447,-0.33384023,-0.089240399,0.24233801
15.86956522,-0.048482874,0.21399827,-0.95151589,-0.21557289,-0.048482874,0.21399827
15.8812709,-0.016591742,0.17874441,-0.97954468,-0.090925095,-0.016591742,0.17874441
15.89297659,0.0052277278,0.13899083,-0.98958015,0.037220123,0.0052277278,0.13899083
15.90468227,0.016451888,0.097384884,-0.98120766,0.16576205,0.016451888,0.097384884
15.91638796,0.017283574,0.056590061,-0.95471286,0.29158565,0.017283574,0.056590061
15.92809365,0.0086172432,0.019065899,-0.9110485,0.41176797,0.0086172432,0.019065899
15.93979933,-0.0080694328,-0.013122512,-0.85172985,0.52375465,-0.0080694328,-0.013122512
15.95150502,-0.030877175,-0.038439879,-0.77867967,0.62548137,-0.030877175,-0.038439879
15.9632107,-0.057671598,-0.055948431,-0.6940513,0.71542753,-0.057671598,-0.055948431
15.97491639,-0.08626621,-0.065309741,-0.60005887,0.79260465,-0.08626621,-0.065309741
15.98662207,-0.11457991,-0.066733456,-0.49883713,0.85649262,-0.11457991,-0.066733456
15.99832776,-0.14075671,-0.060891378,-0.39234384,0.90694327,-0.14075671,-0.060891378
16.01003344,-0.16324504,-0.04881556,-0.28230789,0.94407116,-0.16324504,-0.04881556
16.02173913,-0.18084118,-0.031795337,-0.17021897,0.96814825,-0.18084118,-0.031795337
16.03344482,-0.19270516,-0.01128282,-0.057350225,0.97951436,-0.19270516,-0.01128282
16.0451505,-0.19835845,0.011189058,0.055196071,0.97851015,-0.19835845,0.011189058
16.05685619,-0.19767126,0.034076164,0.16642958,0.9654357,-0.19767126,0.034076164
16.06856187,-0.19084471,0.055883359,0.27540842,0.94053471,-0.19084471,0.055883359
16.08026756,-0.1783903,0.075219371,0.38117854,0.90400325,-0.1783903,0.075219371
16.09197324,-0.1611061,0.090850144,0.48272247,0.85601992,-0.1611061,0.090850144
16.10367893,-0.14004661,0.10175309,0.57892344,0.79679414,-0.14004661,0.10175309
16.11538462,-0.11648227,0.10717221,0.66855003,0.72662704,-0.11648227,0.10717221
16.1270903,-0.091843876,0.10667127,0.75026553,0.645978,-0.091843876,0.10667127
16.13879599,-0.067648777,0.10017896,0.82266418,0.5555281,-0.067648777,0.10017896
16.15050167,-0.045408601,0.08801774,0.88433316,0.45622998,-0.045408601,0.08801774
16.16220736,-0.026522553,0.070907336,0.93393495,0.34933394,-0.026522553,0.070907336
16.17391304,-0.012165048,0.049935006,0.97029994,0.23638217,-0.012165048,0.049935006
16.18561873,-0.0031804423,0.026489121,0.99251567,0.11916737,-0.0031804423,0.026489121
16.19732441,7.3646384e-07,0.0021583414,0.99999761,-0.00034121668,7.3646384e-07,0.0021583414
16.2090301,-0.0025887212,-0.02139461,0.9925285,-0.12009471,-0.0025887212,-0.02139461
16.22073579,-0.010445394,-0.042570507,0.97025854,-0.23806935,-0.010445394,-0.042570507
16.23244147,-0.022631039,-0.05996636,0.93366652,-0.35236161,-0.022631039,-0.05996636
16.24414716,-0.037845513,-0.072488943,0.88348964,-0.46125819,-0.037845513,-0.072488943
16.25585284,-0.054525938,-0.079439547,0.82063569,-0.56327022,-0.054525938,-0.079439547
16.26755853,-0.070959692,-0.080566657,0.74609414,-0.65712805,-0.070959692,-0.080566657
16.27926421,-0.085400745,-0.07608885,0.66086237,-0.74173994,-0.085400745,-0.07608885
16.2909699,-0.096183141,-0.066693446,0.56590046,-0.81612343,-0.096183141,-0.066693446
16.30267559,-0.10183048,-0.053516545,0.46212391,-0.87932248,-0.10183048,-0.053516545
16.31438127,-0.10116437,-0.038107043,0.35043923,-0.93032573,-0.10116437,-0.038107043
16.32608696,-0.093416128,-0.022371796,0.23182272,-0.9680037,-0.093416128,-0.022371796
16.33779264,-0.078343914,-0.0084927157,0.10743648,-0.99108401,-0.078343914,-0.0084927157
16.34949833,-0.056349824,0.0011986118,-0.02123229,-0.99818458,-0.056349824,0.0011986118
16.36120401,-0.028580036,0.0044040508,-0.15223409,-0.98792134,-0.028580036,0.0044040508
16.3729097,0.0030235707,-0.00089235121,-0.28305984,-0.95909707,0.0030235707,-0.00089235121
16.38461538,0.035763034,-0.016120842,-0.41063074,-0.91095747,0.035763034,-0.016120842
16.39632107,0.066356933,-0.041807432,-0.53141908,-0.8434706,0.066356933,-0.041807432
16.40802676,0.091265581,-0.077310404,-0.64171944,-0.75755519,0.091265581,-0.077310404
16.41973244,0.10714346,-0.12069622,-0.73804231,-0.65516887,0.10714346,-0.12069622
16.43143813,0.11133982,-0.16881977,-0.81754567,-0.5391868,0.11133982,-0.16881977
16.44314381,0.10233414,-0.21761652,-0.87838111,-0.41305859,0.10233414,-0.21761652
16.4548495,0.080005292,-0.2625403,-0.91983687,-0.28030675,0.080005292,-0.2625403
16.46655518,0.045696433,-0.29902738,-0.94221152,-0.14398583,0.045696433,-0.29902738
16.47826087,0.0021258791,-0.32286766,-0.94642122,-0.0062315846,0.0021258791,-0.32286766
16.48996656,-0.046728932,-0.33042119,-0.93338831,0.13200194,-0.046728932,-0.33042119
16.50167224,-0.095606457,-0.31871725,-0.90325208,0.27095092,-0.095606457,-0.31871725
16.51337793,-0.13762446,-0.28560926,-0.85439416,0.41170072,-0.13762446,-0.28560926
16.52508361,-0.1635178,-0.23037262,-0.78224375,0.55523428,-0.1635178,-0.23037262
16.5367893,-0.16060193,-0.15550836,-0.67801776,0.70022574,-0.16060193,-0.15550836
16.54849498,-0.11260306,-0.0709774,-0.5284943,0.83843696,-0.11260306,-0.0709774
17.5083612,-0.98419103,0.17710912,-0.00010827624,-0.0006016884,-0.98419103,0.17710912
17.52006689,-0.98279657,0.18469047,-0.00010817523,-0.0005756347,-0.98279657,0.18469047
17.53177258,-0.98136298,0.19216241,-0.00010788561,-0.00055096594,-0.98136298,0.19216241
17.54347826,-0.97989206,0.19952762,-0.00010743025,-0.0005275964,-0.97989206,0.19952762
17.55518395,-0.9783855,0.20678863,-0.00010682963,-0.00050544635,-0.9783855,0.20678863
17.56688963,-0.97684493,0.21394796,-0.0001061021,-0.00048444164,-0.97684493,0.21394796
17.57859532,-0.97527188,0.22100799,-0.00010526411,-0.0004645132,-0.97527188,0.22100799
17.590301,-0.9736678,0.22797106,-0.0001043304,-0.00044559668,-0.9736678,0.22797106
17.60200669,-0.97203408,0.23483944,-0.00010331416,-0.00042763212,-0.97203408,0.23483944
17.61371237,-0.97037202,0.2416153,-0.00010222723,-0.00041056358,-0.97037202,0.2416153
17.62541806,-0.9686829,0.24830078,-0.00010108018,-0.00039433883,-0.9686829,0.24830078
17.63712375,-0.96696789,0.25489793,-9.9882478e-05,-0.00037890912,-0.96696789,0.25489793
17.64882943,-0.96522812,0.26140874,-9.8642603e-05,-0.00036422889,-0.96522812,0.26140874
17.66053512,-0.96346469,0.26783514,-9.7368123e-05,-0.00035025556,-0.96346469,0.26783514
17.6722408,-0.9616786,0.27417903,-9.60658e-05,-0.00033694927,-0.9616786,0.27417903
