freq,s11_real,s11_imag,s21_real,s21_imag,s22_real,s22_imag
14.85117057,0.22996024,0.9731998,0.00064925898,-0.00015341531,0.22996024,0.9731998
14.86287625,0.24514349,0.96948653,0.00070981925,-0.00017948425,0.24514349,0.96948653
14.87458194,0.26064582,0.96543416,0.00077662511,-0.00020967156,0.26064582,0.96543416
14.88628763,0.27647562,0.96102053,0.00085037781,-0.00024464486,0.27647562,0.96102053
14.89799331,0.29264135,0.95622178,0.00093186247,-0.00028518645,0.29264135,0.95622178
14.909699,0.30915155,0.95101218,0.0010219583,-0.00033221446,0.30915155,0.95101218
14.92140468,0.32601476,0.94536394,0.0011216502,-0.0003868082,0.32601476,0.94536394
14.93311037,0.34323948,0.93924701,0.0012320414,-0.00045023861,0.34323948,0.93924701
14.94481605,0.36083416,0.93262887,0.0013543676,-0.0005240049,0.36083416,0.93262887
14.95652174,0.37880703,0.92547428,0.0014900124,-0.00060987883,0.37880703,0.92547428
14.96822742,0.39716613,0.91774499,0.0016405241,-0.00070995822,0.39716613,0.91774499
14.97993311,0.41591909,0.90939945,0.0018076341,-0.00082673189,0.41591909,0.90939945
14.9916388,0.43507306,0.90039243,0.001993276,-0.00096315857,0.43507306,0.90039243
15.55351171,0.0013663212,-0.0043194451,0.95342788,0.30158705,0.0013663212,-0.0043194451
15.56521739,-0.0025504191,0.017634653,0.98954588,0.14311349,-0.0025504191,0.017634653
15.57692308,0.00057314805,0.038876787,0.99913527,-0.014729932,0.00057314805,0.038876787
15.58862876,0.009681248,0.05673872,0.98411902,-0.16791885,0.009681248,0.05673872
15.60033445,0.022958574,0.069412979,0.94687475,-0.31318198,0.022958574,0.069412979
15.61204013,0.038262242,0.076013127,0.88998195,-0.44798453,0.038262242,0.076013127
15.62374582,0.053470409,0.076493265,0.81603133,-0.57042315,0.053470409,0.076493265
15.63545151,0.066729336,0.071488429,0.72751665,-0.67908477,0.066729336,0.071488429
15.64715719,0.076605434,0.062123931,0.62680069,-0.77291211,0.076605434,0.062123931
15.65886288,0.082159872,0.049824035,0.51613209,-0.85110222,0.082159872,0.049824035
15.67056856,0.082964427,0.036135985,0.39768705,-0.9130477,0.082964427,0.036135985
15.68227425,0.079073663,0.022576606,0.27361286,-0.95831814,0.079073663,0.022576606
15.69397993,0.070964362,0.010504886,0.14605744,-0.98667164,0.070964362,0.010504886
15.70568562,0.059450472,0.0010230839,0.017176021,-0.99808295,0.059450472,0.0010230839
15.7173913,0.045581124,-0.0050911253,-0.11088664,-0.99277419,0.045581124,-0.0050911253
15.72909699,0.030529901,-0.0074195271,-0.23603471,-0.97123658,0.030529901,-0.0074195271
15.74080268,0.01548442,-0.0059050114,-0.35627229,-0.93423521,0.01548442,-0.0059050114
15.75250836,0.0015455112,-0.00082240692,-0.4697576,-0.88279371,0.0015455112,-0.00082240692
15.76421405,-0.010355832,0.0072761538,-0.57485093,-0.81816027,-0.010355832,0.0072761538
15.77591973,-0.019517914,0.017633631,-0.67014951,-0.7417599,-0.019517914,0.017633631
15.78762542,-0.025501514,0.02936935,-0.75450561,-0.65513998,-0.025501514,0.02936935
15.7993311,-0.028137366,0.041560468,-0.82702769,-0.55991625,-0.028137366,0.041560468
15.81103679,-0.027511163,0.05331638,-0.88706717,-0.45772517,-0.027511163,0.05331638
15.82274247,-0.023931011,0.063840918,-0.93419534,-0.35018668,-0.023931011,0.063840918
15.83444816,-0.017882922,0.072479467,-0.96817553,-0.23887879,-0.017882922,0.072479467
15.84615385,-0.0099796622,0.078750169,-0.98893522,-0.12532341,-0.0099796622,0.078750169
15.85785953,-0.00090755783,0.082359801,-0.99654175,-0.010981319,-0.00090755783,0.082359801
15.86956522,0.0086251686,0.083205841,-0.99118389,0.10274673,0.0086251686,0.083205841
15.8812709,0.017935859,0.081366661,-0.97316011,0.21451615,0.017935859,0.081366661
15.89297659,0.026408774,0.077081872,-0.94287302,0.32303471,0.026408774,0.077081872
15.90468227,0.033528959,0.070724859,-0.90082876,0.4270613,0.033528959,0.070724859
15.91638796,0.038907619,0.062769478,-0.84763911,0.52540853,0.038907619,0.062769478
15.92809365,0.042298286,0.053752958,-0.78402436,0.61694998,0.042298286,0.053752958
15.93979933,0.04360336,0.044237098,-0.71081457,0.70063148,0.04360336,0.044237098
15.95150502,0.042871002,0.034769982,-0.62894773,0.77548557,0.042871002,0.034769982
15.9632107,0.04028283,0.025850458,-0.5394636,0.84064741,0.04028283,0.025850458
15.97491639,0.036133414,0.017897523,-0.44349289,0.89537038,0.036133414,0.017897523
15.98662207,0.030803128,0.011226504,-0.34224225,0.9390396,0.030803128,0.011226504
15.99832776,0.02472639,0.0060334317,-0.23697598,0.97118206,0.02472639,0.0060334317
16.01003344,0.018357642,0.0023884285,-0.12899591,0.99147231,0.018357642,0.0023884285
16.02173913,0.012137528,0.00023821401,-0.019621014,0.99973378,0.012137528,0.00023821401
16.03344482,0.0064616152,-0.00058282647,0.089831682,0.99593583,0.0064616152,-0.00058282647
16.0451505,0.0016537207,-0.00033416302,0.19806396,0.98018765,0.0016537207,-0.00033416302
16.05685619,-0.0020545864,0.00065517428,0.30381019,0.95273014,-0.0020545864,0.00065517428
16.06856187,-0.0045371983,0.0020148364,0.40584814,0.91392704,-0.0045371983,0.0020148364
16.08026756,-0.005778849,0.0033633554,0.50300702,0.86425646,-0.005778849,0.0033633554
16.09197324,-0.0058725787,0.0043383273,0.59417376,0.80430357,-0.0058725787,0.0043383273
16.10367893,-0.0050096311,0.0046247046,0.67829837,0.73475495,-0.0050096311,0.0046247046
16.11538462,-0.0034624989,0.0039794795,0.75439957,0.65639429,-0.0034624989,0.0039794795
16.1270903,-0.0015621608,0.0022512341,0.82157135,0.57009911,-0.0015621608,0.0022512341
16.13879599,0.00032914185,-0.00060673247,0.8789912,0.47683749,0.00032914185,-0.00060673247
16.15050167,0.0018479638,-0.0045307091,0.92592986,0.37766381,0.0018479638,-0.0045307091
16.16220736,0.0026606654,-0.0093489577,0.9617624,0.27371265,0.0026606654,-0.0093489577
16.17391304,0.0024933028,-0.014792386,0.98597965,0.16618994,0.0024933028,-0.014792386
16.18561873,0.0011582327,-0.020513191,0.99819902,0.056361135,0.0011582327,-0.020513191
16.19732441,-0.0014246729,-0.02611057,0.9981733,-0.054463404,-0.0014246729,-0.02611057
16.2090301,-0.0052140831,-0.031162034,0.98579656,-0.16494511,-0.0052140831,-0.031162034
16.22073579,-0.010042005,-0.035258339,0.96110628,-0.27373479,-0.010042005,-0.035258339
16.23244147,-0.015618244,-0.038039665,0.92428172,-0.37948959,-0.015618244,-0.038039665
16.24414716,-0.02154481,-0.039230494,0.87563892,-0.480888,-0.02154481,-0.039230494
16.25585284,-0.027339905,-0.038670598,0.81562353,-0.57664146,-0.027339905,-0.038670598
16.26755853,-0.032470537,-0.036339711,0.7448032,-0.66550228,-0.032470537,-0.036339711
16.27926421,-0.036392286,-0.032373688,0.6638615,-0.74626769,-0.036392286,-0.032373688
16.2909699,-0.038594361,-0.027070235,0.57359505,-0.81778139,-0.038594361,-0.027070235
16.30267559,-0.038647669,-0.020882535,0.47491551,-0.87893432,-0.038647669,-0.020882535
16.31438127,-0.036253185,-0.014399373,0.36885665,-0.9286674,-0.036253185,-0.014399373
16.32608696,-0.031287348,-0.0083106307,0.25658601,-0.96597912,-0.031287348,-0.0083106307
16.33779264,-0.023840444,-0.0033575804,0.13941879,-0.98994079,-0.023840444,-0.0033575804
16.34949833,-0.01424311,-0.0002682787,0.018830432,-0.9997212,-0.01424311,-0.0002682787
16.36120401,-0.0030753528,0.0003201344,-0.10353685,-0.99462081,-0.0030753528,0.0003201344
16.3729097,0.0088477968,-0.00205164,-0.22587876,-0.97411308,0.0088477968,-0.00205164
16.38461538,0.020519318,-0.0075753121,-0.34624892,-0.93788766,0.020519318,-0.0075753121
16.39632107,0.030815477,-0.01609133,-0.46259572,-0.88588751,0.030815477,-0.01609133
16.40802676,0.038604013,-0.027021956,-0.57281317,-0.81833038,0.038604013,-0.027021956
16.41973244,0.042882364,-0.039332149,-0.67479701,-0.73570584,0.042882364,-0.039332149
16.43143813,0.042940006,-0.051528003,-0.7664912,-0.63874272,0.042940006,-0.051528003
16.44314381,0.038537818,-0.061700245,-0.84590448,-0.52834981,0.038537818,-0.061700245
16.4548495,0.030099094,-0.067619113,-0.9110741,-0.40554369,0.030099094,-0.067619113
16.46655518,0.018910931,-0.066890408,-0.95995492,-0.2713938,0.018910931,-0.066890408
16.47826087,0.0073375724,-0.057195191,-0.99022062,-0.12703543,0.0073375724,-0.057195191
16.48996656,-0.00096042281,-0.036661661,-0.99898454,0.026170324,-0.00096042281,-0.036661661
16.50167224,-0.00084462707,-0.0044563229,-0.98249811,0.18621732,-0.00084462707,-0.0044563229
16.51337793,0.014302317,0.038287343,-0.93599159,0.34964162,0.014302317,0.038287343
16.52508361,0.052057819,0.08713243,-0.85402142,0.51024047,0.052057819,0.08713243
16.5367893,0.11932091,0.1328201,-0.73194539,0.65755402,0.11932091,0.1328201
16.54849498,0.21893649,0.1605568,-0.56915907,0.77610971,0.21893649,0.1605568
17.5083612,-0.99817175,0.060434009,-5.6778474e-05,-0.0009377943,-0.99817175,0.060434009
17.52006689,-0.99758787,0.069409228,-6.2476939e-05,-0.00089795318,-0.99758787,0.069409228
17.53177258,-0.99693341,0.078249773,-6.7515491e-05,-0.00086017436,-0.99693341,0.078249773
17.54347826,-0.99621157,0.086958777,-7.1955739e-05,-0.00082433473,-0.99621157,0.086958777
17.55518395,-0.99542534,0.095539282,-7.585355e-05,-0.00079031938,-0.99542534,0.095539282
17.56688963,-0.99457761,0.10399425,-7.9259605e-05,-0.00075802105,-0.99457761,0.10399425
17.57859532,-0.99367108,0.11232655,-8.2219903e-05,-0.00072733955,-0.99367108,0.11232655
17.590301,-0.99270835,0.12053898,-8.4776212e-05,-0.00069818124,-0.99270835,0.12053898
17.60200669,-0.99169187,0.12863426,-8.696647e-05,-0.00067045857,-0.99169187,0.12863426
17.61371237,-0.990624,0.13661503,-8.8825152e-05,-0.00064408965,-0.990624,0.13661503
17.62541806,-0.98950696,0.14448386,-9.0383597e-05,-0.00061899783,-0.98950696,0.14448386
17.63712375,-0.98834287,0.15224326,-9.1670304e-05,-0.00059511136,-0.98834287,0.15224326
17.64882943,-0.98713375,0.15989564,-9.2711193e-05,-0.00057236302,-0.98713375,0.15989564
17.66053512,-0.98588154,0.16744337,-9.352985e-05,-0.00055068979,-0.98588154,0.16744337
17.6722408,-0.98458805,0.17488874,-9.4147738e-05,-0.00053003262,-0.98458805,0.17488874
