freq,s11_real,s11_imag,s21_real,s21_imag,s22_real,s22_imag
14.85117057,-0.27978761,0.9600619,0.00018999675,5.5370114e-05,-0.27978761,0.9600619
14.86287625,-0.2707784,0.96264168,0.00020821073,5.8566931e-05,-0.2707784,0.96264168
14.87458194,-0.26153746,0.9651933,0.00022839858,6.1888935e-05,-0.26153746,0.9651933
14.88628763,-0.25205501,0.96771287,0.00025080054,6.5324679e-05,-0.25205501,0.96771287
14.89799331,-0.24232069,0.97019617,0.00027568949,6.8857486e-05,-0.24232069,0.97019617
14.909699,-0.23232353,0.97263851,0.00030337588,7.2464082e-05,-0.23232353,0.97263851
14.92140468,-0.22205191,0.97503479,0.00033421344,7.6112908e-05,-0.22205191,0.97503479
14.93311037,-0.21149348,0.97737934,0.00036860591,7.9762017e-05,-0.21149348,0.97737934
14.94481605,-0.20063514,0.97966595,0.00040701488,8.3356463e-05,-0.20063514,0.97966595
14.95652174,-0.18946296,0.98188776,0.00044996901,8.6825057e-05,-0.18946296,0.98188776
14.96822742,-0.17796212,0.98403721,0.00049807485,9.0076325e-05,-0.17796212,0.98403721
14.97993311,-0.16611682,0.98610592,0.00055202964,9.2993467e-05,-0.16611682,0.98610592
14.9916388,-0.15391023,0.98808464,0.00061263637,9.5428063e-05,-0.15391023,0.98808464
15.55351171,0.35116165,0.077068941,-0.20003358,0.91144525,0.35116165,0.077068941
15.56521739,0.33312352,0.005516636,-0.015612051,0.9427378,0.33312352,0.005516636
15.57692308,0.29119272,-0.052954728,0.17090406,0.93978423,0.29119272,-0.052954728
15.58862876,0.23544888,-0.0924094,0.35346979,0.90060171,0.23544888,-0.0924094
15.60033445,0.17616363,-0.11178054,0.52398069,0.82578189,0.17616363,-0.11178054
15.61204013,0.12188388,-0.11431259,0.67447051,0.71914288,0.12188388,-0.11431259
15.62374582,0.077922387,-0.10605477,0.79885607,0.58694929,0.077922387,-0.10605477
15.63545151,0.045860307,-0.093893673,0.8936285,0.43647326,0.045860307,-0.093893673
15.64715719,0.024052347,-0.083832257,0.95755698,0.27473307,0.024052347,-0.083832257
15.65886288,0.008699465,-0.079923229,0.99091027,0.10785837,0.008699465,-0.079923229
15.67056856,-0.0049688525,-0.083867934,0.99472023,-0.058933348,-0.0049688525,-0.083867934
15.68227425,-0.021659123,-0.095092307,0.97037993,-0.22102291,-0.021659123,-0.095092307
15.69397993,-0.045196494,-0.11111866,0.91961899,-0.37404658,-0.045196494,-0.11111866
15.70568562,-0.077928654,-0.12813528,0.84473315,-0.51374544,-0.077928654,-0.12813528
15.7173913,-0.12037466,-0.14171468,0.7488681,-0.6361002,-0.12037466,-0.14171468
15.72909699,-0.17117451,-0.14761031,0.63615569,-0.73771025,-0.17117451,-0.14761031
15.74080268,-0.22737674,-0.14250212,0.51157134,-0.81626449,-0.22737674,-0.14250212
15.75250836,-0.28501892,-0.12452747,0.38050588,-0.87090321,-0.28501892,-0.12452747
15.76421405,-0.33985594,-0.093474732,0.24817435,-0.90231364,-0.33985594,-0.093474732
15.77591973,-0.38804034,-0.05062497,0.11904997,-0.9125179,-0.38804034,-0.05062497
15.78762542,-0.42659446,0.0016583467,-0.0035159065,-0.90443466,-0.42659446,0.0016583467
15.7993311,-0.45361041,0.060432499,-0.11741988,-0.88136149,-0.45361041,0.060432499
15.81103679,-0.46821197,0.12262789,-0.22170771,-0.84651381,-0.46821197,0.12262789
15.82274247,-0.47036819,0.18536736,-0.31633534,-0.80269836,-0.47036819,0.18536736
15.83444816,-0.46065382,0.24613564,-0.40187964,-0.75213567,-0.46065382,0.24613564
15.84615385,-0.44002656,0.30282519,-0.479264,-0.69640473,-0.44002656,0.30282519
15.85785953,-0.409658,0.35370104,-0.5495305,-0.63646848,-0.409658,0.35370104
15.86956522,-0.37082949,0.39732504,-0.61366464,-0.57274253,-0.37082949,0.39732504
15.8812709,-0.3248893,0.43247078,-0.67246376,-0.50518161,-0.3248893,0.43247078
15.89297659,-0.27326086,0.45805069,-0.72643456,-0.43337155,-0.27326086,0.45805069
15.90468227,-0.21749096,0.47307056,-0.77570619,-0.35662563,-0.21749096,0.47307056
15.91638796,-0.1593258,0.47662381,-0.81995007,-0.27409289,-0.1593258,0.47662381
15.92809365,-0.10080072,0.46793769,-0.85830564,-0.18489176,-0.10080072,0.46793769
15.93979933,-0.044323252,0.44648339,-0.88932213,-0.088284693,-0.044323252,0.44648339
15.95150502,0.0072816458,0.41215754,-0.91094134,0.01609373,0.0072816458,0.41215754
15.9632107,0.050807942,0.36553017,-0.9205615,0.12795616,0.050807942,0.36553017
15.97491639,0.082838982,0.30812685,-0.91523286,0.24605762,0.082838982,0.30812685
15.98662207,0.10009556,0.24267269,-0.89202796,0.36793608,0.10009556,0.24267269
15.99832776,0.099962804,0.17318364,-0.84858736,0.48981053,0.099962804,0.17318364
16.01003344,0.081115393,0.10477747,-0.78376079,0.60676272,0.081115393,0.10477747
16.02173913,0.044063492,0.043130108,-0.69816638,0.71327548,0.044063492,0.043130108
16.03344482,-0.0086086097,-0.0063642661,-0.59444039,0.80406841,-0.0086086097,-0.0063642661
16.0451505,-0.072476384,-0.039510526,-0.47701276,0.87501138,-0.072476384,-0.039510526
16.05685619,-0.14196705,-0.054005002,-0.35142325,0.92381303,-0.14196705,-0.054005002
16.06856187,-0.21129415,-0.049672953,-0.22339432,0.95025384,-0.21129415,-0.049672953
16.08026756,-0.27532727,-0.028216951,-0.097968543,0.95592932,-0.27532727,-0.028216951
16.09197324,-0.33015892,0.0073650638,0.021050862,0.94366186,-0.33015892,0.0073650638
16.10367893,-0.37329462,0.053452952,0.13128166,0.91682007,-0.37329462,0.053452952
16.11538462,-0.40353851,0.10637383,0.23163836,0.87874055,-0.40353851,0.10637383
16.1270903,-0.42071224,0.16277591,0.3220385,0.83234393,-0.42071224,0.16277591
16.13879599,-0.42533356,0.2198066,0.40306519,0.77994543,-0.42533356,0.2198066
16.15050167,-0.41833493,0.27514374,0.47566464,0.72321156,-0.41833493,0.27514374
16.16220736,-0.40085615,0.3269392,0.54091114,0.66320453,-0.40085615,0.3269392
16.17391304,-0.37411392,0.37372355,0.59984057,0.60046712,-0.37411392,0.37372355
16.18561873,-0.33933672,0.41430437,0.65333849,0.53511803,-0.33933672,0.41430437
16.19732441,-0.29774923,0.44767655,0.70206515,0.46694284,-0.29774923,0.44767655
16.2090301,-0.25059235,0.4729545,0.74640174,0.39547687,-0.25059235,0.4729545
16.22073579,-0.19916732,0.48933114,0.78640608,0.32008262,-0.19916732,0.48933114
16.23244147,-0.14489515,0.4960676,0.82177146,0.24002917,-0.14489515,0.4960676
16.24414716,-0.089382282,0.49251766,0.85178716,0.15458264,-0.089382282,0.49251766
16.25585284,-0.034482135,0.47819139,0.87530572,0.063117846,-0.034482135,0.47819139
16.26755853,0.017662753,0.45286177,0.89072854,-0.034740664,0.017662753,0.45286177
16.27926421,0.064618692,0.41671319,0.89602947,-0.13894509,0.064618692,0.41671319
16.2909699,0.10372531,0.3705216,0.88884216,-0.24882607,0.10372531,0.3705216
16.30267559,0.13225371,0.31583906,0.86663859,-0.36289421,0.13225371,0.31583906
16.31438127,0.14767551,0.25513512,0.82701634,-0.47868778,0.14767551,0.25513512
16.32608696,0.14803413,0.19182903,0.76808673,-0.59273122,0.14803413,0.19182903
16.33779264,0.13236654,0.13014515,0.68891275,-0.70067151,0.13236654,0.13014515
16.34949833,0.10107723,0.074753162,0.58989931,-0.79763034,0.10107723,0.074753162
16.36120401,0.056139758,0.030218946,0.47301204,-0.87874613,0.056139758,0.030218946
16.3729097,0.0010240932,0.00037237386,0.34172369,-0.93979984,0.0010240932,0.00037237386
16.38461538,-0.059673906,-0.012246803,0.20066531,-0.97776402,-0.059673906,-0.012246803
16.39632107,-0.12082051,-0.0067123639,0.055063335,-0.99112329,-0.12082051,-0.0067123639
16.40802676,-0.17739301,0.016271311,-0.089880254,-0.97989209,-0.17739301,0.016271311
16.41973244,-0.22502516,0.054628076,-0.22950012,-0.94536191,-0.22502516,0.054628076
16.43143813,-0.26034324,0.10533414,-0.35996649,-0.88969109,-0.26034324,0.10533414
16.44314381,-0.28107143,0.16487466,-0.47835091,-0.81547263,-0.28107143,0.16487466
16.4548495,-0.28595348,0.22962966,-0.58250803,-0.72538625,-0.28595348,0.22962966
16.46655518,-0.27456683,0.29613747,-0.67085409,-0.62198911,-0.27456683,0.29613747
16.47826087,-0.2471018,0.36122993,-0.74212033,-0.50765249,-0.2471018,0.36122993
16.48996656,-0.2041577,0.42205974,-0.79514133,-0.3846238,-0.2041577,0.42205974
16.50167224,-0.14658628,0.47604896,-0.82871742,-0.25518091,-0.14658628,0.47604896
16.51337793,-0.075399495,0.52078542,-0.84157683,-0.12184379,-0.075399495,0.52078542
16.52508361,0.0082461727,0.5538908,-0.83245623,0.012393378,0.0082461727,0.5538908
16.5367893,0.1029744,0.57288681,-0.80031436,0.14385371,0.1029744,0.57288681
16.54849498,0.20700875,0.57509924,-0.74468548,0.26805183,0.20700875,0.57509924
17.5083612,-0.99076565,0.13558383,-9.0708079e-05,-0.00066284046,-0.99076565,0.13558383
17.52006689,-0.98960468,0.143813,-9.1761206e-05,-0.00063142636,-0.98960468,0.143813
17.53177258,-0.98839759,0.15188755,-9.2482884e-05,-0.0006018259,-0.98839759,0.15188755
17.54347826,-0.98714726,0.15981222,-9.2913313e-05,-0.00057391807,-0.98714726,0.15981222
17.55518395,-0.98585636,0.16759158,-9.3088238e-05,-0.00054759095,-0.98585636,0.16759158
17.56688963,-0.98452738,0.17523,-9.3039452e-05,-0.0005227409,-0.98452738,0.17523
17.57859532,-0.98316269,0.1827317,-9.2795235e-05,-0.00049927195,-0.98316269,0.1827317
17.590301,-0.98176447,0.19010073,-9.2380745e-05,-0.00047709512,-0.98176447,0.19010073
17.60200669,-0.9803348,0.197341,-9.1818363e-05,-0.0004561279,-0.9803348,0.197341
17.61371237,-0.9788756,0.20445625,-9.1127998e-05,-0.00043629371,-0.9788756,0.20445625
17.62541806,-0.9773887,0.2114501,-9.0327361e-05,-0.00041752141,-0.9773887,0.2114501
17.63712375,-0.9758758,0.21832602,-8.94322e-05,-0.00039974492,-0.9758758,0.21832602
17.64882943,-0.9743385,0.22508738,-8.8456517e-05,-0.00038290281,-0.9743385,0.22508738
17.66053512,-0.97277831,0.2317374,-8.7412757e-05,-0.00036693789,-0.97277831,0.2317374
17.6722408,-0.97119663,0.23827919,-8.6311972e-05,-0.00035179697,-0.97119663,0.23827919
