freq,s11_real,s11_imag,s21_real,s21_imag,s22_real,s22_imag
14.85117057,0.18535514,0.98267145,0.00053862653,-0.00010159774,0.18535514,0.98267145
14.86287625,0.19999354,0.97979703,0.00058820636,-0.00012006311,0.19999354,0.97979703
14.87458194,0.21494366,0.97662623,0.00064283807,-0.00014148091,0.21494366,0.97662623
14.88628763,0.23021409,0.97313974,0.0007030836,-0.00016632735,0.23021409,0.97313974
14.89799331,0.24581362,0.96931679,0.00076957189,-0.00019515937,0.24581362,0.96931679
14.909699,0.26175114,0.96513501,0.00084300717,-0.00022862924,0.26175114,0.96513501
14.92140468,0.27803568,0.96057027,0.00092417827,-0.00026750207,0.27803568,0.96057027
14.93311037,0.29467633,0.95559653,0.0010139691,-0.00031267661,0.29467633,0.95559653
14.94481605,0.31168224,0.95018567,0.0011133701,-0.00036521039,0.31168224,0.95018567
14.95652174,0.32906253,0.94430725,0.0012234915,-0.00042634981,0.32906253,0.94430725
14.96822742,0.34682625,0.9379283,0.0013455775,-0.0004975664,0.34682625,0.9379283
14.97993311,0.36498233,0.93101309,0.0014810218,-0.00058060063,0.36498233,0.93101309
14.9916388,0.38353944,0.92352281,0.001631385,-0.00067751493,0.38353944,0.92352281
15.55351171,0.039057043,-0.049709489,0.78474868,0.61658173,0.039057043,-0.049709489
15.56521739,0.022514984,-0.041866728,0.87972679,0.47309728,0.022514984,-0.041866728
15.57692308,0.0093570038,-0.027693152,0.94697788,0.31996631,0.0093570038,-0.027693152
15.58862876,0.0016583805,-0.010096096,0.98672474,0.16207899,0.0016583805,-0.010096096
15.60033445,-3.1918578e-05,0.0079778359,0.99996017,0.0040007475,-3.1918578e-05,0.0079778359
15.61204013,0.0036529456,0.024032324,0.98835206,-0.15023085,0.0036529456,0.024032324
15.62374582,0.011307996,0.036297097,0.95405035,-0.2972248,0.011307996,0.036297097
15.63545151,0.021154348,0.043817497,0.89947636,-0.434252,0.021154348,0.043817497
15.64715719,0.031372353,0.046406488,0.82715055,-0.55918171,0.031372353,0.046406488
15.65886288,0.040347072,0.044512085,0.73958245,-0.67037943,0.040347072,0.044512085
15.67056856,0.046825551,0.039044819,0.63922075,-0.7666027,0.046825551,0.039044819
15.68227425,0.049997405,0.031196579,0.52844669,-0.84691861,0.049997405,0.031196579
15.69397993,0.049513871,0.02227015,0.40958979,-0.91065286,0.049513871,0.02227015
15.70568562,0.045459678,0.013530396,0.28494668,-0.95736918,0.045459678,0.013530396
15.7173913,0.038289959,0.0060833523,0.15678998,-0.9868707,0.038289959,0.0060833523
15.72909699,0.028742868,0.00078704019,0.027360527,-0.999212,0.028742868,0.00078704019
15.74080268,0.017737926,-0.001803866,-0.10115753,-0.99471064,0.017737926,-0.001803866
15.75250836,0.0062699966,-0.0014592606,-0.22667412,-0.97394938,0.0062699966,-0.0014592606
15.76421405,-0.0046915529,0.0017371931,-0.34723634,-0.93776431,-0.0046915529,0.0017371931
15.77591973,-0.01429006,0.0074262536,-0.46106918,-0.88721804,-0.01429006,0.0074262536
15.78762542,-0.021848763,0.01503189,-0.56660763,-0.82356085,-0.021848763,0.01503189
15.7993311,-0.026914353,0.023832599,-0.66251586,-0.74818471,-0.026914353,0.023832599
15.81103679,-0.029276164,0.03303705,-0.74769248,-0.66257635,-0.029276164,0.03303705
15.82274247,-0.028962878,0.041856789,-0.8212632,-0.5682745,-0.028962878,0.041856789
15.83444816,-0.026220401,0.049570379,-0.88256455,-0.46683517,-0.026220401,0.049570379
15.84615385,-0.02147554,0.055575262,-0.93112256,-0.35980684,-0.02147554,0.055575262
15.85785953,-0.015290245,0.059425462,-0.966631,-0.24871535,-0.015290245,0.059425462
15.86956522,-0.0083108177,0.060854625,-0.98893239,-0.1350569,-0.0083108177,0.060854625
15.8812709,-0.0012158409,0.059784924,-0.99800418,-0.020296326,-0.0012158409,0.059784924
15.89297659,0.0053340634,0.056322883,-0.99395091,0.094132205,0.0053340634,0.056322883
15.90468227,0.0107421,0.05074357,-0.97700205,0.20682529,0.0107421,0.05074357
15.91638796,0.014514647,0.043464768,-0.94751399,0.31641331,0.014514647,0.043464768
15.92809365,0.016292262,0.035013019,-0.90597411,0.42156798,0.016292262,0.035013019
15.93979933,0.015870839,0.025983706,-0.85300441,0.52101481,0.015870839,0.025983706
15.95150502,0.013211828,0.016997669,-0.78936235,0.61355,0.013211828,0.016997669
15.9632107,0.0084409884,0.0086571583,-0.71593709,0.69806009,0.0084409884,0.0086571583
15.97491639,0.0018358676,0.0015040708,-0.63373997,0.77354251,0.0018358676,0.0015040708
15.98662207,-0.0061969709,-0.0040166447,-0.54388916,0.83912457,-0.0061969709,-0.0040166447
15.99832776,-0.015153167,-0.0075859039,-0.44758927,0.89407868,-0.015153167,-0.0075859039
16.01003344,-0.024467745,-0.0090298334,-0.34610747,0.93783229,-0.024467745,-0.0090298334
16.02173913,-0.033555366,-0.0083284913,-0.24074838,0.96997159,-0.033555366,-0.0083284913
16.03344482,-0.041850659,-0.0056138108,-0.13282979,0.99023899,-0.041850659,-0.0056138108
16.0451505,-0.048845847,-0.0011574637,-0.023661312,0.99852536,-0.048845847,-0.0011574637
16.05685619,-0.05412333,0.0046499704,0.085472618,0.99485852,-0.05412333,0.0046499704
16.06856187,-0.057381472,0.011326695,0.19332463,0.97938994,-0.057381472,0.011326695
16.08026756,-0.0584525,0.018332203,0.29869131,0.95238161,-0.0584525,0.018332203
16.09197324,-0.057311924,0.025102532,0.40041592,0.91419489,-0.057311924,0.025102532
16.10367893,-0.054079407,0.031086332,0.49738826,0.8652826,-0.054079407,0.031086332
16.11538462,-0.049011269,0.035779951,0.58854345,0.80618503,-0.049011269,0.035779951
16.1270903,-0.042485098,0.038759906,0.67286145,0.73752977,-0.042485098,0.038759906
16.13879599,-0.03497709,0.03971117,0.749369,0.66003464,-0.03497709,0.03971117
16.15050167,-0.027032981,0.038449778,0.81714527,0.57451235,-0.027032981,0.038449778
16.16220736,-0.01923373,0.034938292,0.87533177,0.48187516,-0.01923373,0.034938292
16.17391304,-0.012157491,0.029292747,0.92314671,0.38313743,-0.012157491,0.029292747
16.18561873,-0.0063398567,0.021779993,0.9599026,0.27941446,-0.0063398567,0.021779993
16.19732441,-0.0022348045,0.012804754,0.98502588,0.17191586,-0.0022348045,0.012804754
16.2090301,-0.00017910838,0.0028864089,0.99807612,0.061932942,-0.00017910838,0.0028864089
16.22073579,-0.00036308523,-0.0073736773,0.99876266,-0.049179799,-0.00036308523,-0.0073736773
16.23244147,-0.0028103501,-0.017332546,0.98695629,-0.160028,-0.0028103501,-0.017332546
16.24414716,-0.0073687251,-0.026351189,0.96269456,-0.26920347,-0.0073687251,-0.026351189
16.25585284,-0.013713618,-0.033842063,0.92617969,-0.3753103,-0.013713618,-0.033842063
16.26755853,-0.021364191,-0.039315093,0.87776988,-0.4769884,-0.021364191,-0.039315093
16.27926421,-0.029711619,-0.042418787,0.81796519,-0.57293176,-0.029711619,-0.042418787
16.2909699,-0.038057885,-0.042973439,0.74739097,-0.66190001,-0.038057885,-0.042973439
16.30267559,-0.045662936,-0.040994053,0.66678159,-0.74272249,-0.045662936,-0.040994053
16.31438127,-0.051797715,-0.036701186,0.57696806,-0.81429594,-0.051797715,-0.036701186
16.32608696,-0.055800462,-0.030518459,0.4788721,-0.87557778,-0.055800462,-0.030518459
16.33779264,-0.057133612,-0.023055742,0.37350864,-0.92557845,-0.057133612,-0.023055742
16.34949833,-0.055438427,-0.015077172,0.26199698,-0.96335707,-0.055438427,-0.015077172
16.36120401,-0.050583953,-0.0074532313,0.14557927,-0.98802449,-0.050583953,-0.0074532313
16.3729097,-0.042706045,-0.0010964617,0.025642735,-0.99875795,-0.042706045,-0.0010964617
16.38461538,-0.032230993,0.0031186703,-0.096259674,-0.99482939,-0.032230993,0.0031186703
16.39632107,-0.019877263,0.0044494929,-0.21839708,-0.97564738,-0.019877263,0.0044494929
16.40802676,-0.0066283401,0.0023874186,-0.33886387,-0.94080903,-0.0066283401,0.0023874186
16.41973244,0.0063294635,-0.0032395823,-0.45560385,-0.89015424,0.0063294635,-0.0032395823
16.43143813,0.017707869,-0.012176019,-0.56645674,-0.82381123,0.017707869,-0.012176019
16.44314381,0.026255522,-0.023673261,-0.66922242,-0.7422207,0.026255522,-0.023673261
16.4548495,0.030929269,-0.036463013,-0.76173024,-0.6461276,0.030929269,-0.036463013
16.46655518,0.031088075,-0.048781131,-0.84189268,-0.53653579,0.031088075,-0.048781131
16.47826087,0.026698771,-0.058449222,-0.9077174,-0.41463236,0.026698771,-0.058449222
16.48996656,0.018545782,-0.063019828,-0.95724988,-0.28170415,0.018545782,-0.063019828
16.50167224,0.0084426002,-0.059996348,-0.98842461,-0.1390897,0.0084426002,-0.059996348
16.51337793,-0.00055542141,-0.047157277,-0.99881805,0.011764143,-0.00055542141,-0.047157277
16.52508361,-0.0039541966,-0.023049116,-0.98533191,0.16903885,-0.0039541966,-0.023049116
16.5367893,0.0042795998,0.012243394,-0.94391322,0.32993881,0.0042795998,0.012243394
16.54849498,0.031490605,0.055928971,-0.86957527,0.48961121,0.031490605,0.055928971
17.5083612,-0.99784493,0.06560878,-6.5303689e-05,-0.0009932048,-0.99784493,0.06560878
17.52006689,-0.99721399,0.074587894,-7.1043004e-05,-0.00094982006,-0.99721399,0.074587894
17.53177258,-0.99651336,0.083428357,-7.608015e-05,-0.0009087424,-0.99651336,0.083428357
17.54347826,-0.99574628,0.092133529,-8.0482881e-05,-0.00086983023,-0.99574628,0.092133529
17.55518395,-0.99491581,0.10070667,-8.4312452e-05,-0.0008329517,-0.99491581,0.10070667
17.56688963,-0.99402486,0.10915094,-8.7624265e-05,-0.00079798396,-0.99402486,0.10915094
17.57859532,-0.9930762,0.11746941,-9.0468457e-05,-0.00076481249,-0.9930762,0.11746941
17.590301,-0.99207245,0.12566506,-9.2890412e-05,-0.00073333049,-0.99207245,0.12566506
17.60200669,-0.9910161,0.13374078,-9.4931235e-05,-0.00070343828,-0.9910161,0.13374078
17.61371237,-0.9899095,0.14169937,-9.6628169e-05,-0.00067504281,-0.9899095,0.14169937
17.62541806,-0.98875492,0.14954357,-9.8014966e-05,-0.00064805715,-0.98875492,0.14954357
17.63712375,-0.98755448,0.15727601,-9.9122227e-05,-0.00062240006,-0.98755448,0.15727601
17.64882943,-0.98631023,0.16489927,-9.9977706e-05,-0.00059799557,-0.98631023,0.16489927
17.66053512,-0.98502408,0.17241584,-0.00010060658,-0.00057477262,-0.98502408,0.17241584
17.6722408,-0.98369788,0.17982814,-0.00010103169,-0.00055266468,-0.98369788,0.17982814
